[Version] 2.0
! Rohde & Schwarz Vector Network Analyzer
! Rohde-Schwarz,ZNL20-2Port,1323001220200009,1.71.1.10-23.02.1.238
! 
! Port Assignments:
! Nominal Port -> Actual Test Port
! --------------------------------
!   1 -> 1

! Created: GMT+2 2025-01-17 12:43:54

# Hz S RI R 50

[Number of Ports] 1
[Number of Frequencies] 16001

[Network Data] 
! freq[Hz]               S11[Re]                  S11[Im]                  
4.000000000000000e+09    5.560038770592067e-01    -8.368820504225120e-01   
4.001000000000000e+09    5.548352708296757e-01    -8.374273162195748e-01   
4.002000000000000e+09    5.538835547527230e-01    -8.382226252018403e-01   
4.003000000000000e+09    5.524102658559779e-01    -8.390720909763666e-01   
4.004000000000000e+09    5.512902104525810e-01    -8.399650988250066e-01   
4.005000000000000e+09    5.499252384999403e-01    -8.408789478450497e-01   
4.006000000000000e+09    5.485819567394722e-01    -8.415320854740207e-01   
4.007000000000000e+09    5.475984595332394e-01    -8.426586792769150e-01   
4.008000000000000e+09    5.462245321106940e-01    -8.434074154379904e-01   
4.009000000000000e+09    5.449995511257948e-01    -8.441672293831137e-01   
4.010000000000000e+09    5.434342683448767e-01    -8.449738192645859e-01   
4.011000000000000e+09    5.425844593988904e-01    -8.459370735534565e-01   
4.012000000000000e+09    5.407900251189154e-01    -8.464198679988789e-01   
4.013000000000000e+09    5.395158261118616e-01    -8.472096900291800e-01   
4.014000000000000e+09    5.387354889982556e-01    -8.477840217636108e-01   
4.015000000000000e+09    5.369687191580050e-01    -8.482674117959319e-01   
4.016000000000000e+09    5.361022366291008e-01    -8.492723437407412e-01   
4.017000000000000e+09    5.345287697098705e-01    -8.500722168819889e-01   
4.018000000000000e+09    5.329456943282832e-01    -8.504328995837624e-01   
4.019000000000000e+09    5.321792084817460e-01    -8.506512549675600e-01   
4.020000000000000e+09    5.308686503766227e-01    -8.514632645394099e-01   
4.021000000000000e+09    5.292598630865247e-01    -8.520336467181039e-01   
4.022000000000000e+09    5.281729615239558e-01    -8.524861867441447e-01   
4.023000000000000e+09    5.270189684576008e-01    -8.533165839939610e-01   
4.024000000000000e+09    5.252747624957307e-01    -8.536240103432429e-01   
4.025000000000000e+09    5.242664890936121e-01    -8.540000537512277e-01   
4.026000000000000e+09    5.230383592799448e-01    -8.543735302380971e-01   
4.027000000000000e+09    5.218905458904233e-01    -8.549997311731427e-01   
4.028000000000000e+09    5.207033102712524e-01    -8.553237669041110e-01   
4.029000000000000e+09    5.190130042052410e-01    -8.560025925695306e-01   
4.030000000000000e+09    5.178184929478136e-01    -8.563516201845355e-01   
4.031000000000000e+09    5.166173671036367e-01    -8.565836991046902e-01   
4.032000000000000e+09    5.148724038032891e-01    -8.570147474720559e-01   
4.033000000000000e+09    5.135915770184197e-01    -8.575457610127846e-01   
4.034000000000000e+09    5.124036379123721e-01    -8.580724624446456e-01   
4.035000000000000e+09    5.109966344651289e-01    -8.583293930204172e-01   
4.036000000000000e+09    5.096513917743070e-01    -8.588159456529156e-01   
4.037000000000000e+09    5.080511600184525e-01    -8.595190457563566e-01   
4.038000000000000e+09    5.068617558409632e-01    -8.595030448008587e-01   
4.039000000000000e+09    5.055804280436422e-01    -8.602139082784717e-01   
4.040000000000000e+09    5.041509564432761e-01    -8.609427115930588e-01   
4.041000000000000e+09    5.029154128988521e-01    -8.615894112448663e-01   
4.042000000000000e+09    5.017097521652200e-01    -8.619677851941033e-01   
4.043000000000000e+09    5.002617139751651e-01    -8.627699223820214e-01   
4.044000000000000e+09    4.989922533785897e-01    -8.633482459808809e-01   
4.045000000000000e+09    4.976634222108425e-01    -8.639309700203388e-01   
4.046000000000000e+09    4.965837719736723e-01    -8.646138013480754e-01   
4.047000000000000e+09    4.953881034844538e-01    -8.653352722043557e-01   
4.048000000000000e+09    4.941904460229968e-01    -8.657767528648330e-01   
4.049000000000000e+09    4.929140343289202e-01    -8.669359514170867e-01   
4.050000000000000e+09    4.920401836574230e-01    -8.676087765396471e-01   
4.051000000000000e+09    4.909251972780421e-01    -8.683392664679811e-01   
4.052000000000000e+09    4.900333306593513e-01    -8.691716698826661e-01   
4.053000000000000e+09    4.888731913827397e-01    -8.700293716973727e-01   
4.054000000000000e+09    4.878942759621513e-01    -8.708598341726339e-01   
4.055000000000000e+09    4.871002064256602e-01    -8.712938941415210e-01   
4.056000000000000e+09    4.863268838466190e-01    -8.724205343021534e-01   
4.057000000000000e+09    4.851676666899772e-01    -8.732113144547556e-01   
4.058000000000000e+09    4.842953666940257e-01    -8.739135807427524e-01   
4.059000000000000e+09    4.836498981133755e-01    -8.749265323324744e-01   
4.060000000000000e+09    4.826287001024204e-01    -8.754484599301966e-01   
4.061000000000000e+09    4.819982702882216e-01    -8.765166508572348e-01   
4.062000000000000e+09    4.817937388762448e-01    -8.770572108843597e-01   
4.063000000000000e+09    4.806202645263149e-01    -8.778842296345544e-01   
4.064000000000000e+09    4.799470056848549e-01    -8.788328683049706e-01   
4.065000000000000e+09    4.794461610090194e-01    -8.795637486216784e-01   
4.066000000000000e+09    4.784899059658663e-01    -8.802820995790968e-01   
4.067000000000000e+09    4.778018575108520e-01    -8.809617113026808e-01   
4.068000000000000e+09    4.775655156926623e-01    -8.818865649411417e-01   
4.069000000000000e+09    4.767772736752456e-01    -8.824570736026818e-01   
4.070000000000000e+09    4.764064760585212e-01    -8.831313833958492e-01   
4.071000000000000e+09    4.760642473188647e-01    -8.842152233384210e-01   
4.072000000000000e+09    4.752335433253222e-01    -8.845850761198348e-01   
4.073000000000000e+09    4.746805693684559e-01    -8.854027702108830e-01   
4.074000000000000e+09    4.737836454819739e-01    -8.862625744073588e-01   
4.075000000000000e+09    4.734215172357025e-01    -8.871150709881327e-01   
4.076000000000000e+09    4.727026159255668e-01    -8.870198552413908e-01   
4.077000000000000e+09    4.722818894271820e-01    -8.880997044884017e-01   
4.078000000000000e+09    4.716351975088053e-01    -8.885796601802851e-01   
4.079000000000000e+09    4.712413117674134e-01    -8.897381867274827e-01   
4.080000000000000e+09    4.702634394110248e-01    -8.903330560433302e-01   
4.081000000000000e+09    4.697767763610106e-01    -8.909397204666603e-01   
4.082000000000000e+09    4.694557215664842e-01    -8.910456003445999e-01   
4.083000000000000e+09    4.687750396733280e-01    -8.921905144514546e-01   
4.084000000000000e+09    4.679859651536646e-01    -8.925845713406829e-01   
4.085000000000000e+09    4.672963878865000e-01    -8.934802689814738e-01   
4.086000000000000e+09    4.665386934360685e-01    -8.938242951275150e-01   
4.087000000000000e+09    4.661632358323369e-01    -8.944625487661848e-01   
4.088000000000000e+09    4.654729766862166e-01    -8.950986928088529e-01   
4.089000000000000e+09    4.647509100888782e-01    -8.956378327210190e-01   
4.090000000000000e+09    4.636373417777466e-01    -8.956741649873985e-01   
4.091000000000000e+09    4.631364783356336e-01    -8.965691730027145e-01   
4.092000000000000e+09    4.623687914197548e-01    -8.970279811689141e-01   
4.093000000000000e+09    4.618463032839323e-01    -8.971217488835767e-01   
4.094000000000000e+09    4.607307901927921e-01    -8.978950784327364e-01   
4.095000000000000e+09    4.597950596197887e-01    -8.980748399017771e-01   
4.096000000000000e+09    4.588699663422640e-01    -8.982243887650537e-01   
4.097000000000000e+09    4.583734466196552e-01    -8.988068962793730e-01   
4.098000000000000e+09    4.572807832671045e-01    -8.998000420960630e-01   
4.099000000000000e+09    4.565806877149305e-01    -8.992330925809899e-01   
4.100000000000000e+09    4.555118237945124e-01    -9.000239362619460e-01   
4.101000000000000e+09    4.544946131886787e-01    -9.003168568583316e-01   
4.102000000000000e+09    4.537954990605320e-01    -9.002310673055745e-01   
4.103000000000000e+09    4.532271034437062e-01    -9.002532176918898e-01   
4.104000000000000e+09    4.519030698173635e-01    -9.004327159640823e-01   
4.105000000000000e+09    4.508835118132461e-01    -9.011673283139254e-01   
4.106000000000000e+09    4.499620764152399e-01    -9.011444536941380e-01   
4.107000000000000e+09    4.490759131521183e-01    -9.012453568191210e-01   
4.108000000000000e+09    4.480662741801102e-01    -9.013295945859483e-01   
4.109000000000000e+09    4.467305450803427e-01    -9.015450957574270e-01   
4.110000000000000e+09    4.454043678056320e-01    -9.018572607049909e-01   
4.111000000000000e+09    4.444563044225410e-01    -9.016131244498556e-01   
4.112000000000000e+09    4.434655043416390e-01    -9.015912285670337e-01   
4.113000000000000e+09    4.418794158121289e-01    -9.018539569989416e-01   
4.114000000000000e+09    4.409276979084270e-01    -9.020971683088902e-01   
4.115000000000000e+09    4.397218146087541e-01    -9.020322136191339e-01   
4.116000000000000e+09    4.380900180868696e-01    -9.022708562169381e-01   
4.117000000000000e+09    4.370196452984788e-01    -9.022304697425567e-01   
4.118000000000000e+09    4.356481226085714e-01    -9.023008226866100e-01   
4.119000000000000e+09    4.341986324424620e-01    -9.023853472758931e-01   
4.120000000000000e+09    4.327425643266095e-01    -9.028089036316923e-01   
4.121000000000000e+09    4.310871451564615e-01    -9.027839065573876e-01   
4.122000000000000e+09    4.293703898076002e-01    -9.030304776877837e-01   
4.123000000000000e+09    4.283501864989882e-01    -9.032860568299543e-01   
4.124000000000000e+09    4.263805097470981e-01    -9.035931474002354e-01   
4.125000000000000e+09    4.251442160137704e-01    -9.039215897372588e-01   
4.126000000000000e+09    4.231323951612662e-01    -9.041932808342357e-01   
4.127000000000000e+09    4.216469421948065e-01    -9.049018456825847e-01   
4.128000000000000e+09    4.201603398866226e-01    -9.048696598391908e-01   
4.129000000000000e+09    4.184438061986696e-01    -9.055122813067429e-01   
4.130000000000000e+09    4.166246998808012e-01    -9.057614634809915e-01   
4.131000000000000e+09    4.150100840075854e-01    -9.067112773878554e-01   
4.132000000000000e+09    4.129511016374467e-01    -9.069177431542291e-01   
4.133000000000000e+09    4.114292497939426e-01    -9.075066137699956e-01   
4.134000000000000e+09    4.095101792155189e-01    -9.082600132276553e-01   
4.135000000000000e+09    4.084873152113814e-01    -9.090969111448770e-01   
4.136000000000000e+09    4.065777838351302e-01    -9.094651164791363e-01   
4.137000000000000e+09    4.053134567403294e-01    -9.103157456236811e-01   
4.138000000000000e+09    4.033970024459888e-01    -9.108710393417806e-01   
4.139000000000000e+09    4.018688351183651e-01    -9.117759185935892e-01   
4.140000000000000e+09    4.004885097415622e-01    -9.126381161422299e-01   
4.141000000000000e+09    3.987096122960541e-01    -9.134877515424215e-01   
4.142000000000000e+09    3.970469282319227e-01    -9.140445187319061e-01   
4.143000000000000e+09    3.957642309184154e-01    -9.151694447867960e-01   
4.144000000000000e+09    3.940491149197204e-01    -9.159838040110986e-01   
4.145000000000000e+09    3.931613345151392e-01    -9.168751228834642e-01   
4.146000000000000e+09    3.916658250243222e-01    -9.176195961220043e-01   
4.147000000000000e+09    3.901449803854588e-01    -9.185441080597251e-01   
4.148000000000000e+09    3.889698522858010e-01    -9.195707312755593e-01   
4.149000000000000e+09    3.876204450378931e-01    -9.203230922096826e-01   
4.150000000000000e+09    3.865284015841249e-01    -9.212716978420933e-01   
4.151000000000000e+09    3.850918101994386e-01    -9.219100506980467e-01   
4.152000000000000e+09    3.839058000725643e-01    -9.230271906023835e-01   
4.153000000000000e+09    3.823730058088695e-01    -9.242752182064423e-01   
4.154000000000000e+09    3.809455017178623e-01    -9.252138140294764e-01   
4.155000000000000e+09    3.800220537801325e-01    -9.260054725180002e-01   
4.156000000000000e+09    3.789680145993658e-01    -9.267660384600779e-01   
4.157000000000000e+09    3.779084098158370e-01    -9.278648449065234e-01   
4.158000000000000e+09    3.765244751147773e-01    -9.289655967163262e-01   
4.159000000000000e+09    3.753726849427878e-01    -9.293320647308417e-01   
4.160000000000000e+09    3.748321726585173e-01    -9.301992414957455e-01   
4.161000000000000e+09    3.736300008516746e-01    -9.309285854302787e-01   
4.162000000000000e+09    3.726900651402587e-01    -9.317714870380595e-01   
4.163000000000000e+09    3.716750767703526e-01    -9.324112115634210e-01   
4.164000000000000e+09    3.705399972856573e-01    -9.333472845436509e-01   
4.165000000000000e+09    3.694503058591913e-01    -9.339886502418040e-01   
4.166000000000000e+09    3.690494467108739e-01    -9.349332418527204e-01   
4.167000000000000e+09    3.679107887580249e-01    -9.352006504637577e-01   
4.168000000000000e+09    3.668815129335392e-01    -9.358785341009456e-01   
4.169000000000000e+09    3.654290556150405e-01    -9.367663892124309e-01   
4.170000000000000e+09    3.651390223069482e-01    -9.370766825488910e-01   
4.171000000000000e+09    3.639409550277075e-01    -9.379609198895560e-01   
4.172000000000000e+09    3.633494205066399e-01    -9.383000425051352e-01   
4.173000000000000e+09    3.622934355034099e-01    -9.392708072777992e-01   
4.174000000000000e+09    3.613245700890751e-01    -9.392844820381062e-01   
4.175000000000000e+09    3.603069684528900e-01    -9.396848998471761e-01   
4.176000000000000e+09    3.594551110291295e-01    -9.406952018683391e-01   
4.177000000000000e+09    3.589592702448793e-01    -9.404689719408056e-01   
4.178000000000000e+09    3.585101133257730e-01    -9.410305895774259e-01   
4.179000000000000e+09    3.575574508982477e-01    -9.416550525904892e-01   
4.180000000000000e+09    3.565236022967870e-01    -9.417670242901333e-01   
4.181000000000000e+09    3.559199338235762e-01    -9.421621676852131e-01   
4.182000000000000e+09    3.553639974815390e-01    -9.426256546430070e-01   
4.183000000000000e+09    3.544750768314872e-01    -9.426853602755910e-01   
4.184000000000000e+09    3.533870323750686e-01    -9.428229983414145e-01   
4.185000000000000e+09    3.533036218160627e-01    -9.430080958055902e-01   
4.186000000000000e+09    3.523073638922565e-01    -9.435131972083171e-01   
4.187000000000000e+09    3.517540815799525e-01    -9.434459249389080e-01   
4.188000000000000e+09    3.508744949074125e-01    -9.434325921212203e-01   
4.189000000000000e+09    3.503477616640284e-01    -9.436146552302830e-01   
4.190000000000000e+09    3.494421132394897e-01    -9.441516941430717e-01   
4.191000000000000e+09    3.492343258483050e-01    -9.435726962787161e-01   
4.192000000000000e+09    3.485677856176413e-01    -9.443364699058430e-01   
4.193000000000000e+09    3.480326008781331e-01    -9.440824694957507e-01   
4.194000000000000e+09    3.471098653525764e-01    -9.444118296596369e-01   
4.195000000000000e+09    3.468747861635280e-01    -9.440958100606195e-01   
4.196000000000000e+09    3.459217035674345e-01    -9.442530507720266e-01   
4.197000000000000e+09    3.451830521816113e-01    -9.442551458409686e-01   
4.198000000000000e+09    3.443443639215866e-01    -9.442862228153936e-01   
4.199000000000000e+09    3.435374223876519e-01    -9.438758855306260e-01   
4.200000000000000e+09    3.429966677313900e-01    -9.443535942174636e-01   
4.201000000000000e+09    3.410947533312577e-01    -9.460767005014812e-01   
4.202000000000000e+09    3.408333279733162e-01    -9.462741138968315e-01   
4.203000000000000e+09    3.396821555702276e-01    -9.462295429469598e-01   
4.204000000000000e+09    3.394125297959845e-01    -9.459945980862531e-01   
4.205000000000000e+09    3.383450426178085e-01    -9.459393471072528e-01   
4.206000000000000e+09    3.370405146396939e-01    -9.458680808976779e-01   
4.207000000000000e+09    3.364384676986429e-01    -9.458109395658081e-01   
4.208000000000000e+09    3.357415922072458e-01    -9.458351069246127e-01   
4.209000000000000e+09    3.345875330639136e-01    -9.458417077573176e-01   
4.210000000000000e+09    3.340883993079148e-01    -9.457620235691948e-01   
4.211000000000000e+09    3.328451197104447e-01    -9.460712882253581e-01   
4.212000000000000e+09    3.319057068133165e-01    -9.458312886603792e-01   
4.213000000000000e+09    3.304804156743718e-01    -9.462901733985756e-01   
4.214000000000000e+09    3.297156405517965e-01    -9.461069192362307e-01   
4.215000000000000e+09    3.285099806032730e-01    -9.460829873395714e-01   
4.216000000000000e+09    3.271307919260404e-01    -9.465649462680044e-01   
4.217000000000000e+09    3.262017986925825e-01    -9.465239886580791e-01   
4.218000000000000e+09    3.251460786322217e-01    -9.467726104919391e-01   
4.219000000000000e+09    3.236966962270397e-01    -9.472723813770280e-01   
4.220000000000000e+09    3.224519227800430e-01    -9.476533671183407e-01   
4.221000000000000e+09    3.213295276678502e-01    -9.476371591466880e-01   
4.222000000000000e+09    3.199847701684079e-01    -9.479648684446795e-01   
4.223000000000000e+09    3.185767661233925e-01    -9.485797191097781e-01   
4.224000000000000e+09    3.173923523590430e-01    -9.488570831049845e-01   
4.225000000000000e+09    3.164336829334596e-01    -9.491097844806301e-01   
4.226000000000000e+09    3.147950707422549e-01    -9.496658396387143e-01   
4.227000000000000e+09    3.133532059834492e-01    -9.501864104944264e-01   
4.228000000000000e+09    3.121338739060955e-01    -9.506198471445836e-01   
4.229000000000000e+09    3.108844015232848e-01    -9.512907742076686e-01   
4.230000000000000e+09    3.093570651530643e-01    -9.514224714955567e-01   
4.231000000000000e+09    3.081717144983651e-01    -9.523044723060639e-01   
4.232000000000000e+09    3.067458710665334e-01    -9.525358924422103e-01   
4.233000000000000e+09    3.054458703173411e-01    -9.533684484240417e-01   
4.234000000000000e+09    3.036748979729391e-01    -9.537037751281132e-01   
4.235000000000000e+09    3.022742253947575e-01    -9.541947973139744e-01   
4.236000000000000e+09    3.010475312842932e-01    -9.545369228082254e-01   
4.237000000000000e+09    2.999431393896285e-01    -9.552258737474151e-01   
4.238000000000000e+09    2.982888669495350e-01    -9.554872110448972e-01   
4.239000000000000e+09    2.969547236395678e-01    -9.562040206591741e-01   
4.240000000000000e+09    2.949831444683632e-01    -9.566022415991012e-01   
4.241000000000000e+09    2.937035529514799e-01    -9.569317310953684e-01   
4.242000000000000e+09    2.922558745397915e-01    -9.574849485116976e-01   
4.243000000000000e+09    2.906574898970551e-01    -9.579451571113899e-01   
4.244000000000000e+09    2.891485694315471e-01    -9.584361301744848e-01   
4.245000000000000e+09    2.874097910771526e-01    -9.589717488953277e-01   
4.246000000000000e+09    2.861811404302939e-01    -9.594194747569424e-01   
4.247000000000000e+09    2.842958174112018e-01    -9.599261949094776e-01   
4.248000000000000e+09    2.827367475744006e-01    -9.600509292481968e-01   
4.249000000000000e+09    2.810893253512424e-01    -9.609775707678657e-01   
4.250000000000000e+09    2.798615047439455e-01    -9.612206886854002e-01   
4.251000000000000e+09    2.779092803434464e-01    -9.621039568271307e-01   
4.252000000000000e+09    2.760489098175793e-01    -9.621837573168069e-01   
4.253000000000000e+09    2.742875544559500e-01    -9.628618221338855e-01   
4.254000000000000e+09    2.724813845929790e-01    -9.632235472004379e-01   
4.255000000000000e+09    2.709940543103000e-01    -9.636336514110400e-01   
4.256000000000000e+09    2.691387373966002e-01    -9.641585961545344e-01   
