[Version] 2.0
! Rohde & Schwarz Vector Network Analyzer
! Rohde-Schwarz,ZNL20-2Port,1323001220200009,1.71.1.10-23.02.1.238
! 
! Port Assignments:
! Nominal Port -> Actual Test Port
! --------------------------------
!   1 -> 1

! Created: GMT+2 2025-01-17 12:44:12

# Hz S RI R 50

[Number of Ports] 1
[Number of Frequencies] 16001

[Network Data] 
! freq[Hz]               S11[Re]                  S11[Im]                  
4.000000000000000e+09    5.559506676471675e-01    -8.363252528638548e-01   
4.001000000000000e+09    5.545306699776166e-01    -8.375901417309038e-01   
4.002000000000000e+09    5.538802168705116e-01    -8.378678923650724e-01   
4.003000000000000e+09    5.522340701888899e-01    -8.390023933605029e-01   
4.004000000000000e+09    5.513475531043758e-01    -8.398028152307949e-01   
4.005000000000000e+09    5.503464123296480e-01    -8.409262731880917e-01   
4.006000000000000e+09    5.487085282305655e-01    -8.414580633049251e-01   
4.007000000000000e+09    5.480114310381394e-01    -8.422255591918921e-01   
4.008000000000000e+09    5.461388443439299e-01    -8.435947135777651e-01   
4.009000000000000e+09    5.452702137722483e-01    -8.439720969535951e-01   
4.010000000000000e+09    5.437373784115113e-01    -8.449808916851627e-01   
4.011000000000000e+09    5.426748230029068e-01    -8.458478344327327e-01   
4.012000000000000e+09    5.410568217024672e-01    -8.464228259920782e-01   
4.013000000000000e+09    5.398780961486526e-01    -8.470750254176399e-01   
4.014000000000000e+09    5.384785433258076e-01    -8.478060413011662e-01   
4.015000000000000e+09    5.372426252921870e-01    -8.483914065702176e-01   
4.016000000000000e+09    5.361432192554005e-01    -8.493197358934242e-01   
4.017000000000000e+09    5.350645522429380e-01    -8.499683775354143e-01   
4.018000000000000e+09    5.333574555093358e-01    -8.502603945551226e-01   
4.019000000000000e+09    5.324406006213285e-01    -8.505516001996916e-01   
4.020000000000000e+09    5.307022238880859e-01    -8.515805532295190e-01   
4.021000000000000e+09    5.297179256526492e-01    -8.517523580518043e-01   
4.022000000000000e+09    5.282990177595155e-01    -8.525215027398763e-01   
4.023000000000000e+09    5.272314773255751e-01    -8.531401565459928e-01   
4.024000000000000e+09    5.259508988648439e-01    -8.535698618448627e-01   
4.025000000000000e+09    5.247457152481030e-01    -8.538255002782813e-01   
4.026000000000000e+09    5.233046463708227e-01    -8.544944062449321e-01   
4.027000000000000e+09    5.219748926235229e-01    -8.548753044388002e-01   
4.028000000000000e+09    5.209457774768524e-01    -8.555204793102866e-01   
4.029000000000000e+09    5.194325601658240e-01    -8.559025355959223e-01   
4.030000000000000e+09    5.181234761658546e-01    -8.561458957286936e-01   
4.031000000000000e+09    5.166054157398234e-01    -8.566802700340012e-01   
4.032000000000000e+09    5.152678060793312e-01    -8.567737846748547e-01   
4.033000000000000e+09    5.138727837622374e-01    -8.573216649004586e-01   
4.034000000000000e+09    5.124347856364301e-01    -8.576469609226043e-01   
4.035000000000000e+09    5.112078606518872e-01    -8.583994645861583e-01   
4.036000000000000e+09    5.100272414829997e-01    -8.583084427810059e-01   
4.037000000000000e+09    5.084444108330141e-01    -8.593112584296358e-01   
4.038000000000000e+09    5.073682947016060e-01    -8.598815834570775e-01   
4.039000000000000e+09    5.057086009560914e-01    -8.604521321219238e-01   
4.040000000000000e+09    5.042990866012600e-01    -8.607144116707904e-01   
4.041000000000000e+09    5.030159545828174e-01    -8.612229382496155e-01   
4.042000000000000e+09    5.020621955216230e-01    -8.620468560160208e-01   
4.043000000000000e+09    5.006868681700868e-01    -8.625525459992123e-01   
4.044000000000000e+09    4.990507734524099e-01    -8.632965981954680e-01   
4.045000000000000e+09    4.979480102910672e-01    -8.638692729357049e-01   
4.046000000000000e+09    4.967794750068300e-01    -8.647075171788901e-01   
4.047000000000000e+09    4.955927596050285e-01    -8.653495037759202e-01   
4.048000000000000e+09    4.942461674208142e-01    -8.660309877868918e-01   
4.049000000000000e+09    4.930953419165214e-01    -8.666990739589073e-01   
4.050000000000000e+09    4.921928702913372e-01    -8.676477752548634e-01   
4.051000000000000e+09    4.910193978901590e-01    -8.683758513160311e-01   
4.052000000000000e+09    4.900214398071909e-01    -8.692400102054398e-01   
4.053000000000000e+09    4.888397182239565e-01    -8.698124404061818e-01   
4.054000000000000e+09    4.882738592541322e-01    -8.706691244517968e-01   
4.055000000000000e+09    4.871719897366670e-01    -8.712639655797497e-01   
4.056000000000000e+09    4.861467078257896e-01    -8.722750741224495e-01   
4.057000000000000e+09    4.854800236412629e-01    -8.729749941538779e-01   
4.058000000000000e+09    4.845103906230592e-01    -8.737165192591219e-01   
4.059000000000000e+09    4.838213858835207e-01    -8.749717304105419e-01   
4.060000000000000e+09    4.829296155263825e-01    -8.755236733080463e-01   
4.061000000000000e+09    4.821462163011443e-01    -8.766185989103992e-01   
4.062000000000000e+09    4.814657008876299e-01    -8.770090773064704e-01   
4.063000000000000e+09    4.807559487224841e-01    -8.778970281382014e-01   
4.064000000000000e+09    4.802890759462572e-01    -8.784162590858298e-01   
4.065000000000000e+09    4.794095447603830e-01    -8.794931398896767e-01   
4.066000000000000e+09    4.788044782560261e-01    -8.803980392352785e-01   
4.067000000000000e+09    4.781872636955906e-01    -8.808050835762832e-01   
4.068000000000000e+09    4.777299918449716e-01    -8.816580089770907e-01   
4.069000000000000e+09    4.772151864855214e-01    -8.825419331927511e-01   
4.070000000000000e+09    4.764790708954971e-01    -8.833183452486559e-01   
4.071000000000000e+09    4.761128122285193e-01    -8.840275560471669e-01   
4.072000000000000e+09    4.752901694469985e-01    -8.844631753601233e-01   
4.073000000000000e+09    4.745777249063641e-01    -8.851199721907167e-01   
4.074000000000000e+09    4.741374493448646e-01    -8.858099442672099e-01   
4.075000000000000e+09    4.736159374450276e-01    -8.870839325282398e-01   
4.076000000000000e+09    4.729950131947043e-01    -8.873466598444055e-01   
4.077000000000000e+09    4.723903412682040e-01    -8.882739397639399e-01   
4.078000000000000e+09    4.715240843150014e-01    -8.886828281987319e-01   
4.079000000000000e+09    4.713917661293529e-01    -8.894634282298991e-01   
4.080000000000000e+09    4.705476086428827e-01    -8.903958469191630e-01   
4.081000000000000e+09    4.697850663848890e-01    -8.906620496185669e-01   
4.082000000000000e+09    4.694420860504632e-01    -8.911297399324895e-01   
4.083000000000000e+09    4.687384351401905e-01    -8.918718951737243e-01   
4.084000000000000e+09    4.682238305752804e-01    -8.922951230951202e-01   
4.085000000000000e+09    4.673357979905305e-01    -8.934609499924991e-01   
4.086000000000000e+09    4.664738350504025e-01    -8.938705270658691e-01   
4.087000000000000e+09    4.663168184996566e-01    -8.941572153906469e-01   
4.088000000000000e+09    4.654301015208506e-01    -8.951145733737970e-01   
4.089000000000000e+09    4.646054162808884e-01    -8.960409377597508e-01   
4.090000000000000e+09    4.638355414891850e-01    -8.958035908557027e-01   
4.091000000000000e+09    4.631314632351269e-01    -8.965874044916937e-01   
4.092000000000000e+09    4.629287073410425e-01    -8.972432852264358e-01   
4.093000000000000e+09    4.615709910400598e-01    -8.972865597554408e-01   
4.094000000000000e+09    4.608073981515282e-01    -8.976608568063521e-01   
4.095000000000000e+09    4.600373304387381e-01    -8.983063703549099e-01   
4.096000000000000e+09    4.591647092665024e-01    -8.983651589378001e-01   
4.097000000000000e+09    4.582806913624203e-01    -8.988517710082977e-01   
4.098000000000000e+09    4.579171011690575e-01    -8.994472891855319e-01   
4.099000000000000e+09    4.566835105211973e-01    -8.995905618144675e-01   
4.100000000000000e+09    4.555218484583270e-01    -8.997772186713394e-01   
4.101000000000000e+09    4.542498327723269e-01    -9.002123164999780e-01   
4.102000000000000e+09    4.540930175590541e-01    -9.000792907822949e-01   
4.103000000000000e+09    4.529636505263131e-01    -9.003114980141265e-01   
4.104000000000000e+09    4.521307425191337e-01    -9.003538997333840e-01   
4.105000000000000e+09    4.508311846161199e-01    -9.007210928669460e-01   
4.106000000000000e+09    4.502305177609244e-01    -9.008073327371450e-01   
4.107000000000000e+09    4.490620386881363e-01    -9.007358320738748e-01   
4.108000000000000e+09    4.479504682564735e-01    -9.011060852222026e-01   
4.109000000000000e+09    4.467554863505289e-01    -9.012622664576243e-01   
4.110000000000000e+09    4.457445532255950e-01    -9.014334343284111e-01   
4.111000000000000e+09    4.445998524708974e-01    -9.017669495562026e-01   
4.112000000000000e+09    4.436839360349725e-01    -9.017823961498086e-01   
4.113000000000000e+09    4.421069695242727e-01    -9.018514845807287e-01   
4.114000000000000e+09    4.410550968994528e-01    -9.019499133142592e-01   
4.115000000000000e+09    4.397249243355212e-01    -9.021603659715794e-01   
4.116000000000000e+09    4.385478101724937e-01    -9.020128056869569e-01   
4.117000000000000e+09    4.370906637666458e-01    -9.022223590993886e-01   
4.118000000000000e+09    4.358179575111321e-01    -9.023081930070757e-01   
4.119000000000000e+09    4.346440409693964e-01    -9.022336537924769e-01   
4.120000000000000e+09    4.326187063662014e-01    -9.028374719475175e-01   
4.121000000000000e+09    4.313041856546203e-01    -9.026502090577917e-01   
4.122000000000000e+09    4.297685997060316e-01    -9.029677896968955e-01   
4.123000000000000e+09    4.284644202238037e-01    -9.031086222355007e-01   
4.124000000000000e+09    4.267768991303600e-01    -9.033522602355833e-01   
4.125000000000000e+09    4.252040719676005e-01    -9.037409408323052e-01   
4.126000000000000e+09    4.234287627003326e-01    -9.039116793574722e-01   
4.127000000000000e+09    4.217776261372441e-01    -9.045215476034941e-01   
4.128000000000000e+09    4.201028026781768e-01    -9.048693442674616e-01   
4.129000000000000e+09    4.183943924584425e-01    -9.053556041550828e-01   
4.130000000000000e+09    4.167950801270969e-01    -9.056463237782781e-01   
4.131000000000000e+09    4.152907686246670e-01    -9.063820924243128e-01   
4.132000000000000e+09    4.135651504647379e-01    -9.070475388135566e-01   
4.133000000000000e+09    4.116811362934791e-01    -9.075447908496472e-01   
4.134000000000000e+09    4.103243555022753e-01    -9.079363702334098e-01   
4.135000000000000e+09    4.084964012836981e-01    -9.086156455439252e-01   
4.136000000000000e+09    4.067593363058917e-01    -9.093857038639022e-01   
4.137000000000000e+09    4.057290005050943e-01    -9.103031256588336e-01   
4.138000000000000e+09    4.036383578377339e-01    -9.107450120640683e-01   
4.139000000000000e+09    4.020750733346031e-01    -9.114370311515166e-01   
4.140000000000000e+09    4.004365167332958e-01    -9.126290099934701e-01   
4.141000000000000e+09    3.989546342504618e-01    -9.132912647053673e-01   
4.142000000000000e+09    3.974989632443867e-01    -9.144156725238790e-01   
4.143000000000000e+09    3.960476256076194e-01    -9.148773539650941e-01   
4.144000000000000e+09    3.946924519757987e-01    -9.159227407923930e-01   
4.145000000000000e+09    3.933605710954976e-01    -9.165812845535009e-01   
4.146000000000000e+09    3.917751074222538e-01    -9.175214742016331e-01   
4.147000000000000e+09    3.900348216498746e-01    -9.187181522351725e-01   
4.148000000000000e+09    3.886678433159107e-01    -9.194748553025258e-01   
4.149000000000000e+09    3.878849170874717e-01    -9.204772149611835e-01   
4.150000000000000e+09    3.863871259162677e-01    -9.213200559293492e-01   
4.151000000000000e+09    3.851001339493699e-01    -9.219941489699548e-01   
4.152000000000000e+09    3.838256909207117e-01    -9.227886115855667e-01   
4.153000000000000e+09    3.823301755305644e-01    -9.242595812217910e-01   
4.154000000000000e+09    3.814036969310584e-01    -9.251785127654630e-01   
4.155000000000000e+09    3.802224427258910e-01    -9.260737278555574e-01   
4.156000000000000e+09    3.792837400722296e-01    -9.267704110731128e-01   
4.157000000000000e+09    3.779452460969943e-01    -9.274429174815090e-01   
4.158000000000000e+09    3.767586988319050e-01    -9.283814211907218e-01   
4.159000000000000e+09    3.756519002904461e-01    -9.293683462639909e-01   
4.160000000000000e+09    3.747639299811218e-01    -9.302770744212827e-01   
4.161000000000000e+09    3.736612748285427e-01    -9.310722567066952e-01   
4.162000000000000e+09    3.727663833073014e-01    -9.317460746089061e-01   
4.163000000000000e+09    3.714679943255251e-01    -9.326261957520753e-01   
4.164000000000000e+09    3.708532231784777e-01    -9.332833227775319e-01   
4.165000000000000e+09    3.694965154139734e-01    -9.338156032997642e-01   
4.166000000000000e+09    3.686252958085297e-01    -9.347887650398226e-01   
4.167000000000000e+09    3.679460492913466e-01    -9.353437028208372e-01   
4.168000000000000e+09    3.669368191600847e-01    -9.359217425630948e-01   
4.169000000000000e+09    3.658175696089344e-01    -9.367276050298007e-01   
4.170000000000000e+09    3.652944187021799e-01    -9.372062299075827e-01   
4.171000000000000e+09    3.641362674289154e-01    -9.378013531552258e-01   
4.172000000000000e+09    3.631668189900225e-01    -9.380427855363243e-01   
4.173000000000000e+09    3.623628427638333e-01    -9.392909890316066e-01   
4.174000000000000e+09    3.614473393827733e-01    -9.394851778920711e-01   
4.175000000000000e+09    3.609151178201291e-01    -9.401119120946357e-01   
4.176000000000000e+09    3.597010388117006e-01    -9.405654210694663e-01   
4.177000000000000e+09    3.587390769193905e-01    -9.406018914481314e-01   
4.178000000000000e+09    3.586832657245240e-01    -9.412692202172966e-01   
4.179000000000000e+09    3.576932183211751e-01    -9.416974326359254e-01   
4.180000000000000e+09    3.568098360701301e-01    -9.417185938095088e-01   
4.181000000000000e+09    3.562931126950332e-01    -9.422053112037876e-01   
4.182000000000000e+09    3.553193134362869e-01    -9.424248554266450e-01   
4.183000000000000e+09    3.546826349312668e-01    -9.426887181063209e-01   
4.184000000000000e+09    3.536844802259976e-01    -9.428832182533518e-01   
4.185000000000000e+09    3.535146630680850e-01    -9.432100972900632e-01   
4.186000000000000e+09    3.527820358664988e-01    -9.434090750500944e-01   
4.187000000000000e+09    3.519654603023430e-01    -9.433388071831934e-01   
4.188000000000000e+09    3.514106849083748e-01    -9.436766909297476e-01   
4.189000000000000e+09    3.505990799884162e-01    -9.434628733641212e-01   
4.190000000000000e+09    3.498062528931674e-01    -9.438368314020578e-01   
4.191000000000000e+09    3.494300403198826e-01    -9.438720807057215e-01   
4.192000000000000e+09    3.487402776394208e-01    -9.439166821163005e-01   
4.193000000000000e+09    3.479047806338334e-01    -9.443405262167306e-01   
4.194000000000000e+09    3.474793658476995e-01    -9.441491372350542e-01   
4.195000000000000e+09    3.466751526842841e-01    -9.442489880671026e-01   
4.196000000000000e+09    3.459442838043045e-01    -9.440990550285941e-01   
4.197000000000000e+09    3.454228832044048e-01    -9.440629074876423e-01   
4.198000000000000e+09    3.448743288411272e-01    -9.441003931695088e-01   
4.199000000000000e+09    3.438869951273178e-01    -9.441305855216187e-01   
4.200000000000000e+09    3.431756915283289e-01    -9.441251179638079e-01   
4.201000000000000e+09    3.413217574077225e-01    -9.459966915468440e-01   
4.202000000000000e+09    3.406743814940753e-01    -9.461318068685770e-01   
4.203000000000000e+09    3.400688196202653e-01    -9.463903985087757e-01   
4.204000000000000e+09    3.393513021672484e-01    -9.460065638742811e-01   
4.205000000000000e+09    3.383012048245325e-01    -9.459469597346549e-01   
4.206000000000000e+09    3.378811628704555e-01    -9.456124901284712e-01   
4.207000000000000e+09    3.367803787697166e-01    -9.458756132942566e-01   
4.208000000000000e+09    3.357967303252093e-01    -9.455077838367929e-01   
4.209000000000000e+09    3.349480519291288e-01    -9.458995868404512e-01   
4.210000000000000e+09    3.344575333775076e-01    -9.457181306305077e-01   
4.211000000000000e+09    3.330724215164516e-01    -9.458242577536038e-01   
4.212000000000000e+09    3.320638775508843e-01    -9.458109347347069e-01   
4.213000000000000e+09    3.311753599320226e-01    -9.458663242352761e-01   
4.214000000000000e+09    3.298412845473037e-01    -9.460042679318047e-01   
4.215000000000000e+09    3.286106140010207e-01    -9.464517693402847e-01   
4.216000000000000e+09    3.273400979817838e-01    -9.463674616454013e-01   
4.217000000000000e+09    3.264099297529531e-01    -9.465271232375554e-01   
4.218000000000000e+09    3.252401323917501e-01    -9.468917515237999e-01   
4.219000000000000e+09    3.240439508366897e-01    -9.469345377056593e-01   
4.220000000000000e+09    3.228656287580211e-01    -9.471632337191723e-01   
4.221000000000000e+09    3.214373091134823e-01    -9.474149595468375e-01   
4.222000000000000e+09    3.202296336758693e-01    -9.479833515733742e-01   
4.223000000000000e+09    3.187511249499271e-01    -9.482544808411971e-01   
4.224000000000000e+09    3.175541813189319e-01    -9.488846444091752e-01   
4.225000000000000e+09    3.163333539250535e-01    -9.492931486907223e-01   
4.226000000000000e+09    3.149770388192507e-01    -9.494155167788139e-01   
4.227000000000000e+09    3.137707300317398e-01    -9.502988309374226e-01   
4.228000000000000e+09    3.123111290290578e-01    -9.506100809675528e-01   
4.229000000000000e+09    3.107649179741677e-01    -9.508491699821292e-01   
4.230000000000000e+09    3.095285305154900e-01    -9.514375055359803e-01   
4.231000000000000e+09    3.081606023976619e-01    -9.519016552953464e-01   
4.232000000000000e+09    3.070179435338546e-01    -9.522617895045331e-01   
4.233000000000000e+09    3.057311162281262e-01    -9.528022284549434e-01   
4.234000000000000e+09    3.038103526701306e-01    -9.533837760668615e-01   
4.235000000000000e+09    3.027800594576838e-01    -9.541963309327334e-01   
4.236000000000000e+09    3.009979671483540e-01    -9.543825923758364e-01   
4.237000000000000e+09    2.996124519406748e-01    -9.552914013762445e-01   
4.238000000000000e+09    2.982463772483151e-01    -9.554061212890584e-01   
4.239000000000000e+09    2.967621039818941e-01    -9.561503101523515e-01   
4.240000000000000e+09    2.954957882076005e-01    -9.566209927516052e-01   
4.241000000000000e+09    2.941380707917237e-01    -9.572095367964566e-01   
4.242000000000000e+09    2.922821434587454e-01    -9.572096587712371e-01   
4.243000000000000e+09    2.910327079064688e-01    -9.578415868742861e-01   
4.244000000000000e+09    2.889718738558553e-01    -9.580573637951111e-01   
4.245000000000000e+09    2.877309656373793e-01    -9.592351775472939e-01   
4.246000000000000e+09    2.861104053803441e-01    -9.591321810839673e-01   
4.247000000000000e+09    2.844660518455053e-01    -9.600320093059918e-01   
4.248000000000000e+09    2.828443079098106e-01    -9.600594479254470e-01   
4.249000000000000e+09    2.812257178569325e-01    -9.607549531421580e-01   
4.250000000000000e+09    2.795208519767917e-01    -9.610518822616949e-01   
4.251000000000000e+09    2.780170326275003e-01    -9.617613567339185e-01   
4.252000000000000e+09    2.756683607642114e-01    -9.626174609025725e-01   
4.253000000000000e+09    2.745197852700860e-01    -9.629045631737988e-01   
4.254000000000000e+09    2.730387512798921e-01    -9.635031976320190e-01   
4.255000000000000e+09    2.711313618985046e-01    -9.635782691992617e-01   
4.256000000000000e+09    2.693747235454131e-01    -9.640849447531245e-01   
