[Version] 2.0
! Rohde & Schwarz Vector Network Analyzer
! Rohde-Schwarz,ZNL20-2Port,1323001220200009,1.71.1.10-23.02.1.238
! 
! Port Assignments:
! Nominal Port -> Actual Test Port
! --------------------------------
!   1 -> 1

! Created: GMT+2 2025-01-17 12:47:09

# Hz S RI R 50

[Number of Ports] 1
[Number of Frequencies] 16001

[Network Data] 
! freq[Hz]               S11[Re]                  S11[Im]                  
4.000000000000000e+09    5.561513408313447e-01    -8.369412411199312e-01   
4.001000000000000e+09    5.550346050012561e-01    -8.376183222091761e-01   
4.002000000000000e+09    5.535817789675066e-01    -8.379254034841674e-01   
4.003000000000000e+09    5.525943699937172e-01    -8.391081151147565e-01   
4.004000000000000e+09    5.516244044040046e-01    -8.399628849519687e-01   
4.005000000000000e+09    5.501030973936093e-01    -8.407180652153868e-01   
4.006000000000000e+09    5.488136620622063e-01    -8.416225779299598e-01   
4.007000000000000e+09    5.475486708483338e-01    -8.424355220020702e-01   
4.008000000000000e+09    5.464548849970623e-01    -8.434727985517212e-01   
4.009000000000000e+09    5.453233406144106e-01    -8.444264734651690e-01   
4.010000000000000e+09    5.437473043621919e-01    -8.449392010791068e-01   
4.011000000000000e+09    5.423768238510621e-01    -8.458421201538167e-01   
4.012000000000000e+09    5.413758787593682e-01    -8.467337603082584e-01   
4.013000000000000e+09    5.398598677526258e-01    -8.471269895157179e-01   
4.014000000000000e+09    5.387579763746704e-01    -8.474706950217155e-01   
4.015000000000000e+09    5.372769250162985e-01    -8.486397927854693e-01   
4.016000000000000e+09    5.359177200102100e-01    -8.494700364650994e-01   
4.017000000000000e+09    5.347451638438828e-01    -8.498663924630618e-01   
4.018000000000000e+09    5.335900656147695e-01    -8.506254240304461e-01   
4.019000000000000e+09    5.322506498863903e-01    -8.505875750975967e-01   
4.020000000000000e+09    5.308480418531800e-01    -8.515331051460245e-01   
4.021000000000000e+09    5.297832396570117e-01    -8.520376674602765e-01   
4.022000000000000e+09    5.282503120662535e-01    -8.527875728480785e-01   
4.023000000000000e+09    5.273979342035677e-01    -8.530918426160043e-01   
4.024000000000000e+09    5.258994614029103e-01    -8.532512897041856e-01   
4.025000000000000e+09    5.244720047079814e-01    -8.539280300066323e-01   
4.026000000000000e+09    5.232136401298748e-01    -8.543060674287686e-01   
4.027000000000000e+09    5.220342103598204e-01    -8.550358211213148e-01   
4.028000000000000e+09    5.208342648687353e-01    -8.555358859461529e-01   
4.029000000000000e+09    5.193482565167585e-01    -8.557154952144588e-01   
4.030000000000000e+09    5.178545652345665e-01    -8.561081571673751e-01   
4.031000000000000e+09    5.169552568455487e-01    -8.566355060591012e-01   
4.032000000000000e+09    5.153141937553443e-01    -8.569540142685450e-01   
4.033000000000000e+09    5.140922677477048e-01    -8.572333021517714e-01   
4.034000000000000e+09    5.128013649477895e-01    -8.581612397302376e-01   
4.035000000000000e+09    5.112572730853002e-01    -8.582005359680490e-01   
4.036000000000000e+09    5.099053571598351e-01    -8.588300460189546e-01   
4.037000000000000e+09    5.084395429430493e-01    -8.591743187717179e-01   
4.038000000000000e+09    5.071809923537121e-01    -8.595375216177173e-01   
4.039000000000000e+09    5.060003250738891e-01    -8.601376910180637e-01   
4.040000000000000e+09    5.045768245560965e-01    -8.609586792586499e-01   
4.041000000000000e+09    5.028796982997571e-01    -8.615506646123257e-01   
4.042000000000000e+09    5.017367500241984e-01    -8.617156889674847e-01   
4.043000000000000e+09    5.006312081962458e-01    -8.626140161185769e-01   
4.044000000000000e+09    4.991922135857867e-01    -8.634267297874857e-01   
4.045000000000000e+09    4.979734978950891e-01    -8.637871288885309e-01   
4.046000000000000e+09    4.969205741166878e-01    -8.645462531381126e-01   
4.047000000000000e+09    4.954445168643929e-01    -8.651926488186220e-01   
4.048000000000000e+09    4.946003772107121e-01    -8.660808490226415e-01   
4.049000000000000e+09    4.930032735620574e-01    -8.664734670201466e-01   
4.050000000000000e+09    4.922335359315227e-01    -8.675726165690048e-01   
4.051000000000000e+09    4.913839353112937e-01    -8.683895856242517e-01   
4.052000000000000e+09    4.902148216577345e-01    -8.690855970501956e-01   
4.053000000000000e+09    4.891101897955433e-01    -8.699484537680919e-01   
4.054000000000000e+09    4.881563161419467e-01    -8.707742004858428e-01   
4.055000000000000e+09    4.872400318708962e-01    -8.713201267073627e-01   
4.056000000000000e+09    4.864809744670077e-01    -8.724466691717792e-01   
4.057000000000000e+09    4.856963817084215e-01    -8.731101670374186e-01   
4.058000000000000e+09    4.845935660196200e-01    -8.737513244324193e-01   
4.059000000000000e+09    4.841200367143438e-01    -8.748536467118998e-01   
4.060000000000000e+09    4.832890143007529e-01    -8.753968751946236e-01   
4.061000000000000e+09    4.824066639035123e-01    -8.763555118242631e-01   
4.062000000000000e+09    4.815990896005895e-01    -8.771456049880639e-01   
4.063000000000000e+09    4.807683438293827e-01    -8.778429159748086e-01   
4.064000000000000e+09    4.804330983220106e-01    -8.785165557066972e-01   
4.065000000000000e+09    4.797210147605946e-01    -8.795240931361248e-01   
4.066000000000000e+09    4.789658585408013e-01    -8.803152053229183e-01   
4.067000000000000e+09    4.782636510594144e-01    -8.810404903786800e-01   
4.068000000000000e+09    4.780616115983923e-01    -8.816168795750584e-01   
4.069000000000000e+09    4.771337641376908e-01    -8.825681622725788e-01   
4.070000000000000e+09    4.765670396627880e-01    -8.830967346604057e-01   
4.071000000000000e+09    4.760788055976334e-01    -8.841843245100893e-01   
4.072000000000000e+09    4.752601283002089e-01    -8.845838556435942e-01   
4.073000000000000e+09    4.748037924837125e-01    -8.852506069132771e-01   
4.074000000000000e+09    4.740294398501153e-01    -8.861304115615165e-01   
4.075000000000000e+09    4.737145363219000e-01    -8.869756856703587e-01   
4.076000000000000e+09    4.730699512461862e-01    -8.874866635592148e-01   
4.077000000000000e+09    4.724519773076700e-01    -8.884197177937974e-01   
4.078000000000000e+09    4.718877898569329e-01    -8.892406218990190e-01   
4.079000000000000e+09    4.710730264203009e-01    -8.894974589459608e-01   
4.080000000000000e+09    4.707334065924671e-01    -8.903197485781655e-01   
4.081000000000000e+09    4.704456137529986e-01    -8.908190404546363e-01   
4.082000000000000e+09    4.695172953540863e-01    -8.915745317579246e-01   
4.083000000000000e+09    4.689187869651538e-01    -8.921777020855285e-01   
4.084000000000000e+09    4.682165635428143e-01    -8.928211654519738e-01   
4.085000000000000e+09    4.673043333953945e-01    -8.938957379520418e-01   
4.086000000000000e+09    4.669459370719792e-01    -8.936217238135402e-01   
4.087000000000000e+09    4.660710329679811e-01    -8.945848697960745e-01   
4.088000000000000e+09    4.654807349878715e-01    -8.951008565371256e-01   
4.089000000000000e+09    4.647282403284032e-01    -8.955737098592078e-01   
4.090000000000000e+09    4.637269427608676e-01    -8.959910942092711e-01   
4.091000000000000e+09    4.632940877993781e-01    -8.964603249417878e-01   
4.092000000000000e+09    4.625305420513709e-01    -8.973349441947345e-01   
4.093000000000000e+09    4.618965055887269e-01    -8.977191948712944e-01   
4.094000000000000e+09    4.607724914517391e-01    -8.978695736169862e-01   
4.095000000000000e+09    4.601990265095718e-01    -8.979968321270198e-01   
4.096000000000000e+09    4.588351341199917e-01    -8.980780118506717e-01   
4.097000000000000e+09    4.587031065454347e-01    -8.989667097902790e-01   
4.098000000000000e+09    4.577042399901670e-01    -8.992628078175512e-01   
4.099000000000000e+09    4.569519418762527e-01    -8.995640592941530e-01   
4.100000000000000e+09    4.558464790743061e-01    -8.997329148282902e-01   
4.101000000000000e+09    4.549947555573177e-01    -8.999820805403915e-01   
4.102000000000000e+09    4.537438958990975e-01    -9.003460238881950e-01   
4.103000000000000e+09    4.529459176889356e-01    -9.004529710257980e-01   
4.104000000000000e+09    4.525750132099339e-01    -9.007861165723902e-01   
4.105000000000000e+09    4.511079421503495e-01    -9.008182081058330e-01   
4.106000000000000e+09    4.500415937517483e-01    -9.011509497849457e-01   
4.107000000000000e+09    4.490620424267753e-01    -9.008931161105634e-01   
4.108000000000000e+09    4.476374658970560e-01    -9.010538004666413e-01   
4.109000000000000e+09    4.468507923971748e-01    -9.012532099962048e-01   
4.110000000000000e+09    4.457515072645452e-01    -9.013680184613477e-01   
4.111000000000000e+09    4.446104763619061e-01    -9.015041952781229e-01   
4.112000000000000e+09    4.434460427572396e-01    -9.019081744692237e-01   
4.113000000000000e+09    4.424045503267680e-01    -9.017022828758158e-01   
4.114000000000000e+09    4.413428053571077e-01    -9.020566038871666e-01   
4.115000000000000e+09    4.399584703257860e-01    -9.019745896035073e-01   
4.116000000000000e+09    4.386111602900345e-01    -9.020311829070655e-01   
4.117000000000000e+09    4.372788700543941e-01    -9.024087307515155e-01   
4.118000000000000e+09    4.356812493133613e-01    -9.020999083189621e-01   
4.119000000000000e+09    4.341980208751909e-01    -9.025637807809028e-01   
4.120000000000000e+09    4.329703372232181e-01    -9.024394771987139e-01   
4.121000000000000e+09    4.312789012425781e-01    -9.029722802355650e-01   
4.122000000000000e+09    4.298965938486809e-01    -9.031643080474008e-01   
4.123000000000000e+09    4.284921934474801e-01    -9.029910522181176e-01   
4.124000000000000e+09    4.266330172014081e-01    -9.034749410419644e-01   
4.125000000000000e+09    4.250532878648338e-01    -9.038417785635282e-01   
4.126000000000000e+09    4.234053985391326e-01    -9.040659016506586e-01   
4.127000000000000e+09    4.217976520477234e-01    -9.046221959948370e-01   
4.128000000000000e+09    4.204425475466562e-01    -9.046912046330242e-01   
4.129000000000000e+09    4.183467105373981e-01    -9.055526408483028e-01   
4.130000000000000e+09    4.167372005310261e-01    -9.057516869797140e-01   
4.131000000000000e+09    4.150262249595831e-01    -9.066495610919507e-01   
4.132000000000000e+09    4.134798425113013e-01    -9.071370140475423e-01   
4.133000000000000e+09    4.118447482156266e-01    -9.073767564889869e-01   
4.134000000000000e+09    4.102932797995430e-01    -9.083022893931374e-01   
4.135000000000000e+09    4.086565979841538e-01    -9.085489942292170e-01   
4.136000000000000e+09    4.066105316075506e-01    -9.095182533094733e-01   
4.137000000000000e+09    4.053155735734050e-01    -9.102990010970945e-01   
4.138000000000000e+09    4.033756168513381e-01    -9.109412196181939e-01   
4.139000000000000e+09    4.023694512877274e-01    -9.116440948040384e-01   
4.140000000000000e+09    4.007236509946995e-01    -9.124881262166304e-01   
4.141000000000000e+09    3.991285431856978e-01    -9.132449297835725e-01   
4.142000000000000e+09    3.975746067982351e-01    -9.142068263084715e-01   
4.143000000000000e+09    3.962929819889996e-01    -9.150300035949341e-01   
4.144000000000000e+09    3.946234102666316e-01    -9.157468907087625e-01   
4.145000000000000e+09    3.931988875922149e-01    -9.166137826489419e-01   
4.146000000000000e+09    3.917968960004617e-01    -9.176210250968769e-01   
4.147000000000000e+09    3.905078292240852e-01    -9.184289319073955e-01   
4.148000000000000e+09    3.892777924012530e-01    -9.195609281307839e-01   
4.149000000000000e+09    3.878619962316831e-01    -9.202193842373646e-01   
4.150000000000000e+09    3.863754113684226e-01    -9.210828013881636e-01   
4.151000000000000e+09    3.852032989989813e-01    -9.221608616608712e-01   
4.152000000000000e+09    3.843498862511705e-01    -9.229736721152784e-01   
4.153000000000000e+09    3.825839789195051e-01    -9.242941788455614e-01   
4.154000000000000e+09    3.812935607352431e-01    -9.251356418650504e-01   
4.155000000000000e+09    3.803187716509284e-01    -9.262409163811531e-01   
4.156000000000000e+09    3.792138348675157e-01    -9.266636180444185e-01   
4.157000000000000e+09    3.781959504047576e-01    -9.278146876844355e-01   
4.158000000000000e+09    3.769132715903055e-01    -9.284179264603175e-01   
4.159000000000000e+09    3.757413891454592e-01    -9.291216667647180e-01   
4.160000000000000e+09    3.748495139522653e-01    -9.302595341313217e-01   
4.161000000000000e+09    3.734817503662367e-01    -9.308893115297209e-01   
4.162000000000000e+09    3.725376621163856e-01    -9.317625957155616e-01   
4.163000000000000e+09    3.718738348245696e-01    -9.324791753616170e-01   
4.164000000000000e+09    3.708299529849906e-01    -9.329509973457596e-01   
4.165000000000000e+09    3.698176714454873e-01    -9.338766499560442e-01   
4.166000000000000e+09    3.689901658481357e-01    -9.345788966600465e-01   
4.167000000000000e+09    3.678970922405079e-01    -9.353393300442551e-01   
4.168000000000000e+09    3.670386456330957e-01    -9.357546412919763e-01   
4.169000000000000e+09    3.659118512736885e-01    -9.365168811777793e-01   
4.170000000000000e+09    3.647646307156760e-01    -9.369101799464494e-01   
4.171000000000000e+09    3.639140701662210e-01    -9.375920817662793e-01   
4.172000000000000e+09    3.633172656326396e-01    -9.383634461897861e-01   
4.173000000000000e+09    3.625536196680836e-01    -9.386362975461027e-01   
4.174000000000000e+09    3.616348773766733e-01    -9.394716846840157e-01   
4.175000000000000e+09    3.606976614574419e-01    -9.399297388089436e-01   
4.176000000000000e+09    3.600013069989380e-01    -9.400684503341896e-01   
4.177000000000000e+09    3.590478615317342e-01    -9.404453363833247e-01   
4.178000000000000e+09    3.583770466089478e-01    -9.411354724576858e-01   
4.179000000000000e+09    3.574598888719492e-01    -9.414914542221813e-01   
4.180000000000000e+09    3.569961011104706e-01    -9.420003261677639e-01   
4.181000000000000e+09    3.558249549434842e-01    -9.424191059362518e-01   
4.182000000000000e+09    3.552901005933717e-01    -9.424679136415341e-01   
4.183000000000000e+09    3.547797070268174e-01    -9.427507739806599e-01   
4.184000000000000e+09    3.538761667104848e-01    -9.425113047430405e-01   
4.185000000000000e+09    3.536731717868591e-01    -9.432796865293924e-01   
4.186000000000000e+09    3.523767988508784e-01    -9.430886415986712e-01   
4.187000000000000e+09    3.520743449704324e-01    -9.433454067987421e-01   
4.188000000000000e+09    3.511899259246463e-01    -9.439738339736899e-01   
4.189000000000000e+09    3.508084560774277e-01    -9.437330998882758e-01   
4.190000000000000e+09    3.497225743834321e-01    -9.438832345200781e-01   
4.191000000000000e+09    3.494594496831805e-01    -9.441983519108256e-01   
4.192000000000000e+09    3.489298008591462e-01    -9.442205071351147e-01   
4.193000000000000e+09    3.480197385909286e-01    -9.440900006426527e-01   
4.194000000000000e+09    3.472318624623014e-01    -9.443323895761631e-01   
4.195000000000000e+09    3.468185832489494e-01    -9.440871651577047e-01   
4.196000000000000e+09    3.462306712782408e-01    -9.442634543919227e-01   
4.197000000000000e+09    3.453588993784922e-01    -9.441243037179757e-01   
4.198000000000000e+09    3.447906279659246e-01    -9.438125688104433e-01   
4.199000000000000e+09    3.439854583573801e-01    -9.439775807375841e-01   
4.200000000000000e+09    3.431376853258114e-01    -9.441208852339208e-01   
4.201000000000000e+09    3.417364767877524e-01    -9.460868549488036e-01   
4.202000000000000e+09    3.404854151707549e-01    -9.461991168897396e-01   
4.203000000000000e+09    3.400315966569057e-01    -9.461904619768426e-01   
4.204000000000000e+09    3.393647365561868e-01    -9.458721005982822e-01   
4.205000000000000e+09    3.385525664481200e-01    -9.459003077885495e-01   
4.206000000000000e+09    3.375500070709567e-01    -9.460674207632460e-01   
4.207000000000000e+09    3.370712954816671e-01    -9.458028121684267e-01   
4.208000000000000e+09    3.361027200361359e-01    -9.458290807051847e-01   
4.209000000000000e+09    3.351600245424045e-01    -9.460333255177953e-01   
4.210000000000000e+09    3.342405181545574e-01    -9.457396248115706e-01   
4.211000000000000e+09    3.331791171033610e-01    -9.458283586750571e-01   
4.212000000000000e+09    3.323166054754376e-01    -9.462548353052601e-01   
4.213000000000000e+09    3.309673639456956e-01    -9.460628632538196e-01   
4.214000000000000e+09    3.299116576815540e-01    -9.456603958768394e-01   
4.215000000000000e+09    3.287736874185407e-01    -9.462003356943917e-01   
4.216000000000000e+09    3.275747386224993e-01    -9.461951406082068e-01   
4.217000000000000e+09    3.264539128482258e-01    -9.463763256850581e-01   
4.218000000000000e+09    3.253696434682246e-01    -9.469045530142133e-01   
4.219000000000000e+09    3.239548946141695e-01    -9.471179123236364e-01   
4.220000000000000e+09    3.228775866390702e-01    -9.475052221943304e-01   
4.221000000000000e+09    3.215993152284235e-01    -9.476161221852791e-01   
4.222000000000000e+09    3.200729145676664e-01    -9.480521586026540e-01   
4.223000000000000e+09    3.188321272157363e-01    -9.483248277321358e-01   
4.224000000000000e+09    3.176904367529496e-01    -9.485913250238954e-01   
4.225000000000000e+09    3.167375558482354e-01    -9.491712892073036e-01   
4.226000000000000e+09    3.152471353644786e-01    -9.492593628629415e-01   
4.227000000000000e+09    3.136674424445259e-01    -9.501080710687272e-01   
4.228000000000000e+09    3.123919073267320e-01    -9.506649853240016e-01   
4.229000000000000e+09    3.110946216234630e-01    -9.512060638774197e-01   
4.230000000000000e+09    3.097566081207593e-01    -9.516599573075696e-01   
4.231000000000000e+09    3.081920472949459e-01    -9.520024824298892e-01   
4.232000000000000e+09    3.068171588893346e-01    -9.524507303593525e-01   
4.233000000000000e+09    3.060167771875002e-01    -9.531317762111795e-01   
4.234000000000000e+09    3.038413105909966e-01    -9.538099149041347e-01   
4.235000000000000e+09    3.027257549685000e-01    -9.539147436732703e-01   
4.236000000000000e+09    3.011247088508294e-01    -9.544339849427367e-01   
4.237000000000000e+09    2.997693292793927e-01    -9.549255446513523e-01   
4.238000000000000e+09    2.984115389886104e-01    -9.553493723339641e-01   
4.239000000000000e+09    2.969127912899873e-01    -9.560615708187246e-01   
4.240000000000000e+09    2.953067768701749e-01    -9.566373308972954e-01   
4.241000000000000e+09    2.937591831193870e-01    -9.570097553802105e-01   
4.242000000000000e+09    2.920760423737081e-01    -9.575750368741497e-01   
4.243000000000000e+09    2.908594052078457e-01    -9.580653432572244e-01   
4.244000000000000e+09    2.887575879884205e-01    -9.586926034063227e-01   
4.245000000000000e+09    2.877418366828382e-01    -9.590045521290510e-01   
4.246000000000000e+09    2.862653730773138e-01    -9.595833276581827e-01   
4.247000000000000e+09    2.845255812360728e-01    -9.597162904499026e-01   
4.248000000000000e+09    2.828905361481586e-01    -9.600823197563517e-01   
4.249000000000000e+09    2.814415807806593e-01    -9.608181354937517e-01   
4.250000000000000e+09    2.797196605836205e-01    -9.614436678082215e-01   
4.251000000000000e+09    2.779626396061283e-01    -9.617793585952390e-01   
4.252000000000000e+09    2.759677118045926e-01    -9.626984702741105e-01   
4.253000000000000e+09    2.742773714422121e-01    -9.632249841610935e-01   
4.254000000000000e+09    2.729364518095285e-01    -9.632732179479745e-01   
4.255000000000000e+09    2.710995217209437e-01    -9.636122387088979e-01   
4.256000000000000e+09    2.695680388646967e-01    -9.637290251814115e-01   
