[Version] 2.0
! Rohde & Schwarz Vector Network Analyzer
! Rohde-Schwarz,ZNL20-2Port,1323001220200009,1.71.1.10-23.02.1.238
! 
! Port Assignments:
! Nominal Port -> Actual Test Port
! --------------------------------
!   1 -> 1

! Created: GMT+2 2025-01-17 12:47:26

# Hz S RI R 50

[Number of Ports] 1
[Number of Frequencies] 16001

[Network Data] 
! freq[Hz]               S11[Re]                  S11[Im]                  
4.000000000000000e+09    5.561226487710950e-01    -8.365334625035044e-01   
4.001000000000000e+09    5.543692245506054e-01    -8.376613442422387e-01   
4.002000000000000e+09    5.540599432904019e-01    -8.382379357329903e-01   
4.003000000000000e+09    5.526718928375106e-01    -8.388838633444764e-01   
4.004000000000000e+09    5.513448921982270e-01    -8.399548690707923e-01   
4.005000000000000e+09    5.497542724917163e-01    -8.408850153666368e-01   
4.006000000000000e+09    5.487699782449394e-01    -8.415846296567190e-01   
4.007000000000000e+09    5.477137043608439e-01    -8.421925370655584e-01   
4.008000000000000e+09    5.462758973127789e-01    -8.436242862290807e-01   
4.009000000000000e+09    5.451507033986662e-01    -8.438252898026133e-01   
4.010000000000000e+09    5.436396147367879e-01    -8.448117288824728e-01   
4.011000000000000e+09    5.423229516804940e-01    -8.455484286674114e-01   
4.012000000000000e+09    5.414037389364857e-01    -8.464170259250938e-01   
4.013000000000000e+09    5.399754664643682e-01    -8.470177483543184e-01   
4.014000000000000e+09    5.383308946173689e-01    -8.479261817577993e-01   
4.015000000000000e+09    5.372434391156560e-01    -8.485566028233750e-01   
4.016000000000000e+09    5.361562468122159e-01    -8.493240069526860e-01   
4.017000000000000e+09    5.349257070064779e-01    -8.497396425773336e-01   
4.018000000000000e+09    5.336340917813593e-01    -8.502556869295668e-01   
4.019000000000000e+09    5.325919719740658e-01    -8.506177133496661e-01   
4.020000000000000e+09    5.313081084683445e-01    -8.514546434174045e-01   
4.021000000000000e+09    5.298708988475405e-01    -8.519005296926168e-01   
4.022000000000000e+09    5.285514808764624e-01    -8.525090725616931e-01   
4.023000000000000e+09    5.274309928097204e-01    -8.531082925327418e-01   
4.024000000000000e+09    5.259539387294426e-01    -8.533256707234628e-01   
4.025000000000000e+09    5.247837635067215e-01    -8.537740146373743e-01   
4.026000000000000e+09    5.231084205421667e-01    -8.544449336509102e-01   
4.027000000000000e+09    5.222459594728833e-01    -8.548636403607467e-01   
4.028000000000000e+09    5.208943553260096e-01    -8.550686064180359e-01   
4.029000000000000e+09    5.195749712748190e-01    -8.557845757162035e-01   
4.030000000000000e+09    5.181333839195457e-01    -8.560571452668660e-01   
4.031000000000000e+09    5.169516320781969e-01    -8.563153011449187e-01   
4.032000000000000e+09    5.155381771084991e-01    -8.568861710082490e-01   
4.033000000000000e+09    5.143189063046452e-01    -8.573673831219673e-01   
4.034000000000000e+09    5.127170181102637e-01    -8.579784470754629e-01   
4.035000000000000e+09    5.114358050210538e-01    -8.581911225018382e-01   
4.036000000000000e+09    5.098025425901773e-01    -8.586328081454012e-01   
4.037000000000000e+09    5.085534190272296e-01    -8.592851314938083e-01   
4.038000000000000e+09    5.074688651916887e-01    -8.595918470791691e-01   
4.039000000000000e+09    5.059256529658401e-01    -8.603565708661813e-01   
4.040000000000000e+09    5.042259906628040e-01    -8.607729480798917e-01   
4.041000000000000e+09    5.031667274850991e-01    -8.612306579008968e-01   
4.042000000000000e+09    5.018131291516249e-01    -8.617729711313051e-01   
4.043000000000000e+09    5.006550330795543e-01    -8.626702430163331e-01   
4.044000000000000e+09    4.990632107160911e-01    -8.630285633200612e-01   
4.045000000000000e+09    4.982122408839985e-01    -8.640302481423748e-01   
4.046000000000000e+09    4.967625555038478e-01    -8.646006740002001e-01   
4.047000000000000e+09    4.957567369150193e-01    -8.651772489136521e-01   
4.048000000000000e+09    4.942460603831298e-01    -8.658861537074168e-01   
4.049000000000000e+09    4.931600805670373e-01    -8.665907420545278e-01   
4.050000000000000e+09    4.922252839269143e-01    -8.675661116626312e-01   
4.051000000000000e+09    4.912284711625950e-01    -8.682642833087091e-01   
4.052000000000000e+09    4.900065413313534e-01    -8.691890289434849e-01   
4.053000000000000e+09    4.890203502110079e-01    -8.696737270378931e-01   
4.054000000000000e+09    4.880475210129256e-01    -8.706197791283784e-01   
4.055000000000000e+09    4.874769051543101e-01    -8.713353372140605e-01   
4.056000000000000e+09    4.864481861347730e-01    -8.724725816930996e-01   
4.057000000000000e+09    4.855470519647741e-01    -8.728674183979109e-01   
4.058000000000000e+09    4.844879768088285e-01    -8.737126939804154e-01   
4.059000000000000e+09    4.838522877170078e-01    -8.747949399881192e-01   
4.060000000000000e+09    4.828883412692027e-01    -8.752716207363420e-01   
4.061000000000000e+09    4.824340895749546e-01    -8.762251678331060e-01   
4.062000000000000e+09    4.817080605556492e-01    -8.769936096789049e-01   
4.063000000000000e+09    4.809672628487022e-01    -8.780021912919530e-01   
4.064000000000000e+09    4.801181456513122e-01    -8.783967969022749e-01   
4.065000000000000e+09    4.795563518351127e-01    -8.794808770714061e-01   
4.066000000000000e+09    4.792002256839931e-01    -8.801049913328964e-01   
4.067000000000000e+09    4.784438382734284e-01    -8.806903518953537e-01   
4.068000000000000e+09    4.779245529729542e-01    -8.814894040692627e-01   
4.069000000000000e+09    4.772618672701260e-01    -8.827014389287554e-01   
4.070000000000000e+09    4.768036584353186e-01    -8.831508664085447e-01   
4.071000000000000e+09    4.758172834952802e-01    -8.838631806741374e-01   
4.072000000000000e+09    4.755419450953629e-01    -8.844811487571315e-01   
4.073000000000000e+09    4.749976905718921e-01    -8.851210789354458e-01   
4.074000000000000e+09    4.742341902081667e-01    -8.859791420527658e-01   
4.075000000000000e+09    4.734837273712558e-01    -8.870087077009572e-01   
4.076000000000000e+09    4.730919270885415e-01    -8.874886495091896e-01   
4.077000000000000e+09    4.727024061413658e-01    -8.879673917989184e-01   
4.078000000000000e+09    4.720628636181908e-01    -8.890295843045504e-01   
4.079000000000000e+09    4.712109381999334e-01    -8.894346168416881e-01   
4.080000000000000e+09    4.709665004560051e-01    -8.901870750470584e-01   
4.081000000000000e+09    4.699792533787721e-01    -8.906638747784552e-01   
4.082000000000000e+09    4.695086519168259e-01    -8.911965460345409e-01   
4.083000000000000e+09    4.689936948905014e-01    -8.921422234198124e-01   
4.084000000000000e+09    4.684281870584930e-01    -8.927544433586614e-01   
4.085000000000000e+09    4.675974301135048e-01    -8.934876808035570e-01   
4.086000000000000e+09    4.667130524896599e-01    -8.937518100199240e-01   
4.087000000000000e+09    4.659924632626220e-01    -8.943428712548933e-01   
4.088000000000000e+09    4.656074895449863e-01    -8.950486796482150e-01   
4.089000000000000e+09    4.647388818941340e-01    -8.957092462208335e-01   
4.090000000000000e+09    4.640846736019962e-01    -8.958354337054965e-01   
4.091000000000000e+09    4.635706474278301e-01    -8.965184503262008e-01   
4.092000000000000e+09    4.626761508463144e-01    -8.966308209475808e-01   
4.093000000000000e+09    4.619578910644178e-01    -8.972909087008853e-01   
4.094000000000000e+09    4.610627705900269e-01    -8.975595838023469e-01   
4.095000000000000e+09    4.599654147326876e-01    -8.982044591910721e-01   
4.096000000000000e+09    4.591432026607015e-01    -8.984390290382829e-01   
4.097000000000000e+09    4.585817609469601e-01    -8.988444169893052e-01   
4.098000000000000e+09    4.572326854273178e-01    -8.993035085482096e-01   
4.099000000000000e+09    4.568477454830268e-01    -8.992586707660092e-01   
4.100000000000000e+09    4.557110547502290e-01    -8.997503816911991e-01   
4.101000000000000e+09    4.550031018039133e-01    -9.000998532345231e-01   
4.102000000000000e+09    4.539688041876714e-01    -9.000464527698379e-01   
4.103000000000000e+09    4.531672050164858e-01    -9.005767179740918e-01   
4.104000000000000e+09    4.523880727819214e-01    -9.004221225832301e-01   
4.105000000000000e+09    4.509616418755606e-01    -9.008395271397034e-01   
4.106000000000000e+09    4.500931537180354e-01    -9.008966995141683e-01   
4.107000000000000e+09    4.494978223711935e-01    -9.010518204249663e-01   
4.108000000000000e+09    4.479349203452135e-01    -9.010734661262626e-01   
4.109000000000000e+09    4.470779789229207e-01    -9.012348922741765e-01   
4.110000000000000e+09    4.458610425024299e-01    -9.014280105459215e-01   
4.111000000000000e+09    4.449194485570387e-01    -9.013582726928310e-01   
4.112000000000000e+09    4.436221752225678e-01    -9.018031963216961e-01   
4.113000000000000e+09    4.421394317264732e-01    -9.018118463712241e-01   
4.114000000000000e+09    4.411947505911993e-01    -9.021598379232879e-01   
4.115000000000000e+09    4.397830344515485e-01    -9.020707692266130e-01   
4.116000000000000e+09    4.387048243316732e-01    -9.022527780203641e-01   
4.117000000000000e+09    4.373225785416176e-01    -9.021081679843129e-01   
4.118000000000000e+09    4.358740287857328e-01    -9.022967459371862e-01   
4.119000000000000e+09    4.342478368993317e-01    -9.025055081930670e-01   
4.120000000000000e+09    4.328048092144421e-01    -9.026049393623465e-01   
4.121000000000000e+09    4.313938873361695e-01    -9.027020667561089e-01   
4.122000000000000e+09    4.299161393784619e-01    -9.030616480179573e-01   
4.123000000000000e+09    4.286552237617667e-01    -9.030072413046163e-01   
4.124000000000000e+09    4.268192477700703e-01    -9.034140358430955e-01   
4.125000000000000e+09    4.252145031175943e-01    -9.038099168925936e-01   
4.126000000000000e+09    4.235257801192112e-01    -9.039553378465731e-01   
4.127000000000000e+09    4.219077661009625e-01    -9.045393706148139e-01   
4.128000000000000e+09    4.204203307930736e-01    -9.047538468221227e-01   
4.129000000000000e+09    4.186378134602068e-01    -9.053548023529233e-01   
4.130000000000000e+09    4.168303493526435e-01    -9.056746477667548e-01   
4.131000000000000e+09    4.153052369328024e-01    -9.063123889587112e-01   
4.132000000000000e+09    4.136717336229870e-01    -9.068903861601570e-01   
4.133000000000000e+09    4.121452144569131e-01    -9.076576536096367e-01   
4.134000000000000e+09    4.103868362894284e-01    -9.080438583383073e-01   
4.135000000000000e+09    4.085797678829438e-01    -9.088556361147138e-01   
4.136000000000000e+09    4.069348121203739e-01    -9.095111898790086e-01   
4.137000000000000e+09    4.055437534632909e-01    -9.101126290499766e-01   
4.138000000000000e+09    4.038769888584512e-01    -9.105729816818149e-01   
4.139000000000000e+09    4.019283783690776e-01    -9.116701269924756e-01   
4.140000000000000e+09    4.007752131360359e-01    -9.122905661288366e-01   
4.141000000000000e+09    3.992142147855167e-01    -9.132399826683101e-01   
4.142000000000000e+09    3.977885615890361e-01    -9.140401279003848e-01   
4.143000000000000e+09    3.962932802378156e-01    -9.148935167648252e-01   
4.144000000000000e+09    3.945049161932236e-01    -9.158603911268908e-01   
4.145000000000000e+09    3.933509086109055e-01    -9.162377919496059e-01   
4.146000000000000e+09    3.921293491882689e-01    -9.174846951000056e-01   
4.147000000000000e+09    3.903312317872694e-01    -9.185576271310321e-01   
4.148000000000000e+09    3.889838412659968e-01    -9.194325500815291e-01   
4.149000000000000e+09    3.879475945683510e-01    -9.201030625584835e-01   
4.150000000000000e+09    3.866808979175637e-01    -9.211521490820879e-01   
4.151000000000000e+09    3.854586088920329e-01    -9.219990335627557e-01   
4.152000000000000e+09    3.839959192652407e-01    -9.227523697110952e-01   
4.153000000000000e+09    3.826947575186179e-01    -9.244041372913582e-01   
4.154000000000000e+09    3.812370769100481e-01    -9.252073052168311e-01   
4.155000000000000e+09    3.801751315482121e-01    -9.257631997667648e-01   
4.156000000000000e+09    3.793592412837647e-01    -9.268304811566511e-01   
4.157000000000000e+09    3.779001465954184e-01    -9.277556130001060e-01   
4.158000000000000e+09    3.770109329707980e-01    -9.285428489520562e-01   
4.159000000000000e+09    3.759260357574849e-01    -9.293960172546240e-01   
4.160000000000000e+09    3.749770136262640e-01    -9.300900141379498e-01   
4.161000000000000e+09    3.737262925696215e-01    -9.310237767944988e-01   
4.162000000000000e+09    3.727639151599691e-01    -9.315955248905271e-01   
4.163000000000000e+09    3.718326563285888e-01    -9.322773457695237e-01   
4.164000000000000e+09    3.706032182057444e-01    -9.330821004286511e-01   
4.165000000000000e+09    3.695174221137215e-01    -9.337067260455632e-01   
4.166000000000000e+09    3.687563808023643e-01    -9.346660048820977e-01   
4.167000000000000e+09    3.678932163067700e-01    -9.351642354146750e-01   
4.168000000000000e+09    3.671090938236912e-01    -9.361467176576852e-01   
4.169000000000000e+09    3.662791218891653e-01    -9.365822997387240e-01   
4.170000000000000e+09    3.651084690969180e-01    -9.371123866769835e-01   
4.171000000000000e+09    3.641330947869234e-01    -9.379022319129316e-01   
4.172000000000000e+09    3.635168957414932e-01    -9.378330451885292e-01   
4.173000000000000e+09    3.624476472936999e-01    -9.391830888907060e-01   
4.174000000000000e+09    3.616161020743458e-01    -9.392929027145215e-01   
4.175000000000000e+09    3.605787912279496e-01    -9.399829308699674e-01   
4.176000000000000e+09    3.600298426573982e-01    -9.405797736434758e-01   
4.177000000000000e+09    3.592637789733063e-01    -9.407439600711142e-01   
4.178000000000000e+09    3.583480225645452e-01    -9.410744771638926e-01   
4.179000000000000e+09    3.575293638166509e-01    -9.418831868000339e-01   
4.180000000000000e+09    3.570754971383012e-01    -9.420743098429180e-01   
4.181000000000000e+09    3.562208390638641e-01    -9.422527663798068e-01   
4.182000000000000e+09    3.553605013463657e-01    -9.426592628656406e-01   
4.183000000000000e+09    3.543094064600710e-01    -9.426847217743914e-01   
4.184000000000000e+09    3.539237074431286e-01    -9.430408746982111e-01   
4.185000000000000e+09    3.535519488666915e-01    -9.432158831208866e-01   
4.186000000000000e+09    3.525670738682198e-01    -9.431700194651296e-01   
4.187000000000000e+09    3.519520035085722e-01    -9.431652835687019e-01   
4.188000000000000e+09    3.509806020038799e-01    -9.435133119321014e-01   
4.189000000000000e+09    3.508725331728824e-01    -9.435542999377100e-01   
4.190000000000000e+09    3.498015931089189e-01    -9.437875768797686e-01   
4.191000000000000e+09    3.493103826543775e-01    -9.439367164369161e-01   
4.192000000000000e+09    3.487277724460174e-01    -9.441486368354444e-01   
4.193000000000000e+09    3.478092707712543e-01    -9.441476589088413e-01   
4.194000000000000e+09    3.477255614673279e-01    -9.440213668414303e-01   
4.195000000000000e+09    3.470327156948678e-01    -9.439802075775358e-01   
4.196000000000000e+09    3.460574370543663e-01    -9.442195667498567e-01   
4.197000000000000e+09    3.455296882662196e-01    -9.442499602860479e-01   
4.198000000000000e+09    3.447734469199598e-01    -9.437701358695546e-01   
4.199000000000000e+09    3.440692135862781e-01    -9.438480787889867e-01   
4.200000000000000e+09    3.431461918200123e-01    -9.443246744199846e-01   
4.201000000000000e+09    3.414371381712716e-01    -9.463529243195909e-01   
4.202000000000000e+09    3.409680441589742e-01    -9.463651037149944e-01   
4.203000000000000e+09    3.400975967997013e-01    -9.459478359632054e-01   
4.204000000000000e+09    3.393355499250106e-01    -9.458269539258102e-01   
4.205000000000000e+09    3.386738006909123e-01    -9.458220329038290e-01   
4.206000000000000e+09    3.376843657464246e-01    -9.457210336869506e-01   
4.207000000000000e+09    3.364869801252437e-01    -9.458730789957766e-01   
4.208000000000000e+09    3.360732305951231e-01    -9.456003676778144e-01   
4.209000000000000e+09    3.351163385868513e-01    -9.459675125311146e-01   
4.210000000000000e+09    3.339050512659141e-01    -9.457948515640230e-01   
4.211000000000000e+09    3.329222752288026e-01    -9.457686166427769e-01   
4.212000000000000e+09    3.323214396541955e-01    -9.457599839675664e-01   
4.213000000000000e+09    3.313901042298825e-01    -9.459964721074933e-01   
4.214000000000000e+09    3.300686891896085e-01    -9.462095250936149e-01   
4.215000000000000e+09    3.288919035055274e-01    -9.462150879154770e-01   
4.216000000000000e+09    3.277139129834491e-01    -9.463073917524339e-01   
4.217000000000000e+09    3.266811570092596e-01    -9.465925068243739e-01   
4.218000000000000e+09    3.255215125194930e-01    -9.468041792288564e-01   
4.219000000000000e+09    3.242449511217775e-01    -9.470858316747909e-01   
4.220000000000000e+09    3.227010907190458e-01    -9.475825233673634e-01   
4.221000000000000e+09    3.216212398114842e-01    -9.474933122860777e-01   
4.222000000000000e+09    3.201884163781050e-01    -9.476950568825215e-01   
4.223000000000000e+09    3.189536436132988e-01    -9.481827908676965e-01   
4.224000000000000e+09    3.179851375506942e-01    -9.487845444737418e-01   
4.225000000000000e+09    3.165874712582437e-01    -9.490621526548951e-01   
4.226000000000000e+09    3.151020131630494e-01    -9.495840641862116e-01   
4.227000000000000e+09    3.138458933703250e-01    -9.501303128937708e-01   
4.228000000000000e+09    3.124100588063979e-01    -9.509321733068979e-01   
4.229000000000000e+09    3.108479276696650e-01    -9.510240511179859e-01   
4.230000000000000e+09    3.098017212575067e-01    -9.515745756716955e-01   
4.231000000000000e+09    3.081698442629524e-01    -9.520268953454930e-01   
4.232000000000000e+09    3.066980155073856e-01    -9.525105023141224e-01   
4.233000000000000e+09    3.058007144046717e-01    -9.527964183509758e-01   
4.234000000000000e+09    3.039609666086121e-01    -9.537919635439718e-01   
4.235000000000000e+09    3.026178224804077e-01    -9.537892871584396e-01   
4.236000000000000e+09    3.012052476865441e-01    -9.544649338514233e-01   
4.237000000000000e+09    2.998992533289235e-01    -9.550607390420370e-01   
4.238000000000000e+09    2.983311234549758e-01    -9.556155279569205e-01   
4.239000000000000e+09    2.970175692876426e-01    -9.558611767062311e-01   
4.240000000000000e+09    2.953981350654817e-01    -9.565678821344639e-01   
4.241000000000000e+09    2.940903306429141e-01    -9.567877313375461e-01   
4.242000000000000e+09    2.923958861149917e-01    -9.574361120050435e-01   
4.243000000000000e+09    2.906917951230780e-01    -9.579502213293122e-01   
4.244000000000000e+09    2.891665131301515e-01    -9.584434934628897e-01   
4.245000000000000e+09    2.879088964347186e-01    -9.589168951567609e-01   
4.246000000000000e+09    2.861093502068749e-01    -9.592542329648756e-01   
4.247000000000000e+09    2.844844044012691e-01    -9.596912968873565e-01   
4.248000000000000e+09    2.827484283080364e-01    -9.602589326023917e-01   
4.249000000000000e+09    2.811921689005881e-01    -9.607606427517921e-01   
4.250000000000000e+09    2.798934414306097e-01    -9.612778967745842e-01   
4.251000000000000e+09    2.781444411308423e-01    -9.616920640893615e-01   
4.252000000000000e+09    2.761355401403973e-01    -9.621341939518109e-01   
4.253000000000000e+09    2.745995653872050e-01    -9.631867792227291e-01   
4.254000000000000e+09    2.731310692347340e-01    -9.631470511963051e-01   
4.255000000000000e+09    2.711151507706780e-01    -9.639217174887428e-01   
4.256000000000000e+09    2.694111211100040e-01    -9.642876659183378e-01   
