[Version] 2.0
! Rohde & Schwarz Vector Network Analyzer
! Rohde-Schwarz,ZNL20-2Port,1323001220200009,1.71.1.10-23.02.1.238
! 
! Port Assignments:
! Nominal Port -> Actual Test Port
! --------------------------------
!   1 -> 1

! Created: GMT+2 2025-01-17 12:48:05

# Hz S RI R 50

[Number of Ports] 1
[Number of Frequencies] 16001

[Network Data] 
! freq[Hz]               S11[Re]                  S11[Im]                  
4.000000000000000e+09    5.562067576571295e-01    -8.365258302787271e-01   
4.001000000000000e+09    5.546671178487881e-01    -8.374733385307696e-01   
4.002000000000000e+09    5.536715469259488e-01    -8.382938990130174e-01   
4.003000000000000e+09    5.525618252318303e-01    -8.392675292755121e-01   
4.004000000000000e+09    5.515020536143925e-01    -8.397501453053018e-01   
4.005000000000000e+09    5.501171285276090e-01    -8.408357223235318e-01   
4.006000000000000e+09    5.485938860754033e-01    -8.415633217506666e-01   
4.007000000000000e+09    5.476591645025340e-01    -8.425742930254856e-01   
4.008000000000000e+09    5.463405571030927e-01    -8.435941273048199e-01   
4.009000000000000e+09    5.453932858881814e-01    -8.443164030750359e-01   
4.010000000000000e+09    5.438463363787652e-01    -8.446452341070544e-01   
4.011000000000000e+09    5.425885023914285e-01    -8.455584056811348e-01   
4.012000000000000e+09    5.413439333070372e-01    -8.465512777472494e-01   
4.013000000000000e+09    5.399971944768895e-01    -8.473798218293791e-01   
4.014000000000000e+09    5.388169166011696e-01    -8.479452718755189e-01   
4.015000000000000e+09    5.373095684255561e-01    -8.486273416111524e-01   
4.016000000000000e+09    5.362586828600870e-01    -8.489331654413655e-01   
4.017000000000000e+09    5.350318185152607e-01    -8.496574527684893e-01   
4.018000000000000e+09    5.337607574051043e-01    -8.506006632068396e-01   
4.019000000000000e+09    5.324848555967446e-01    -8.507455148607778e-01   
4.020000000000000e+09    5.313366026092390e-01    -8.515573366486053e-01   
4.021000000000000e+09    5.297387277827199e-01    -8.519749078152485e-01   
4.022000000000000e+09    5.286563257252147e-01    -8.526967889414863e-01   
4.023000000000000e+09    5.276815529808599e-01    -8.532220133484605e-01   
4.024000000000000e+09    5.260583829742422e-01    -8.534944171737486e-01   
4.025000000000000e+09    5.248280324199217e-01    -8.539808644521983e-01   
4.026000000000000e+09    5.233448941476129e-01    -8.542062156667680e-01   
4.027000000000000e+09    5.220593885490193e-01    -8.546572980110212e-01   
4.028000000000000e+09    5.207728829883234e-01    -8.552228094325620e-01   
4.029000000000000e+09    5.196717758645354e-01    -8.556227546183927e-01   
4.030000000000000e+09    5.183420817495573e-01    -8.562160264482326e-01   
4.031000000000000e+09    5.169437917688516e-01    -8.565912486125058e-01   
4.032000000000000e+09    5.155457271340969e-01    -8.568438553150141e-01   
4.033000000000000e+09    5.140572356832395e-01    -8.573186640815105e-01   
4.034000000000000e+09    5.128506422717259e-01    -8.578986727051977e-01   
4.035000000000000e+09    5.114097126517965e-01    -8.582869362229363e-01   
4.036000000000000e+09    5.101307248952807e-01    -8.586408723892642e-01   
4.037000000000000e+09    5.086666956313887e-01    -8.593708057853729e-01   
4.038000000000000e+09    5.071231856525980e-01    -8.595508361899710e-01   
4.039000000000000e+09    5.057281800284001e-01    -8.601594047060900e-01   
4.040000000000000e+09    5.046744466557174e-01    -8.607376461404428e-01   
4.041000000000000e+09    5.033587223527120e-01    -8.609665155936316e-01   
4.042000000000000e+09    5.017600494789144e-01    -8.617470469376604e-01   
4.043000000000000e+09    5.008355216393684e-01    -8.624431841536319e-01   
4.044000000000000e+09    4.995077385278379e-01    -8.630576702601914e-01   
4.045000000000000e+09    4.981961539252464e-01    -8.636807092444975e-01   
4.046000000000000e+09    4.967173513510768e-01    -8.643665270684037e-01   
4.047000000000000e+09    4.957110269094045e-01    -8.651923045393929e-01   
4.048000000000000e+09    4.943877029698117e-01    -8.659804857905113e-01   
4.049000000000000e+09    4.932977325268245e-01    -8.666109747467616e-01   
4.050000000000000e+09    4.923453221370734e-01    -8.671784040176147e-01   
4.051000000000000e+09    4.914234312508620e-01    -8.682270885311205e-01   
4.052000000000000e+09    4.903114588116114e-01    -8.690854361880446e-01   
4.053000000000000e+09    4.891457117776699e-01    -8.697343219566364e-01   
4.054000000000000e+09    4.881918381494149e-01    -8.707228503790732e-01   
4.055000000000000e+09    4.873306730200598e-01    -8.712553520894490e-01   
4.056000000000000e+09    4.866103337457299e-01    -8.722777389479274e-01   
4.057000000000000e+09    4.856542284364483e-01    -8.727896760109614e-01   
4.058000000000000e+09    4.846948847736735e-01    -8.734548657637019e-01   
4.059000000000000e+09    4.839432895968563e-01    -8.748079667740257e-01   
4.060000000000000e+09    4.833185437356851e-01    -8.752957350402367e-01   
4.061000000000000e+09    4.821345691085768e-01    -8.759399244350697e-01   
4.062000000000000e+09    4.817104031073963e-01    -8.770819389345478e-01   
4.063000000000000e+09    4.809747452810028e-01    -8.779234498049702e-01   
4.064000000000000e+09    4.803017811687749e-01    -8.787643287030678e-01   
4.065000000000000e+09    4.797891926254703e-01    -8.793284743674661e-01   
4.066000000000000e+09    4.791241028455709e-01    -8.800955665336394e-01   
4.067000000000000e+09    4.784965253722563e-01    -8.807420556638347e-01   
4.068000000000000e+09    4.777831107148490e-01    -8.816979684043716e-01   
4.069000000000000e+09    4.771715213978228e-01    -8.822943682288366e-01   
4.070000000000000e+09    4.765855694066973e-01    -8.829269062688120e-01   
4.071000000000000e+09    4.759909679961887e-01    -8.838801959531650e-01   
4.072000000000000e+09    4.751998875109108e-01    -8.845484878733109e-01   
4.073000000000000e+09    4.748955474167408e-01    -8.850578441113750e-01   
4.074000000000000e+09    4.745916552894279e-01    -8.857700866732929e-01   
4.075000000000000e+09    4.735925592019893e-01    -8.868328241605201e-01   
4.076000000000000e+09    4.729197155423139e-01    -8.873591300871075e-01   
4.077000000000000e+09    4.724843740698959e-01    -8.882078696940469e-01   
4.078000000000000e+09    4.721755925041168e-01    -8.887729505430745e-01   
4.079000000000000e+09    4.713219229901102e-01    -8.896340154377500e-01   
4.080000000000000e+09    4.709177865180211e-01    -8.901493477377173e-01   
4.081000000000000e+09    4.704914294757132e-01    -8.907721169064832e-01   
4.082000000000000e+09    4.697531718056137e-01    -8.912710042949613e-01   
4.083000000000000e+09    4.687380675959363e-01    -8.921901267361395e-01   
4.084000000000000e+09    4.683825005442270e-01    -8.927384583636158e-01   
4.085000000000000e+09    4.673205331115603e-01    -8.933262895616586e-01   
4.086000000000000e+09    4.667720433325503e-01    -8.939295125281711e-01   
4.087000000000000e+09    4.659635107743819e-01    -8.944380589987264e-01   
4.088000000000000e+09    4.657084950041523e-01    -8.947918291431258e-01   
4.089000000000000e+09    4.647840073535991e-01    -8.954709826086332e-01   
4.090000000000000e+09    4.640525667266685e-01    -8.958628644220091e-01   
4.091000000000000e+09    4.631008020491182e-01    -8.966507922914092e-01   
4.092000000000000e+09    4.627662759777113e-01    -8.966707428228369e-01   
4.093000000000000e+09    4.616923105238593e-01    -8.972769631665244e-01   
4.094000000000000e+09    4.608833793487056e-01    -8.975226162018064e-01   
4.095000000000000e+09    4.600623196849654e-01    -8.982863452992924e-01   
4.096000000000000e+09    4.591664655919532e-01    -8.979635189372218e-01   
4.097000000000000e+09    4.589124867992428e-01    -8.990783739355910e-01   
4.098000000000000e+09    4.576294280208271e-01    -8.993647942236720e-01   
4.099000000000000e+09    4.566270304903414e-01    -8.994721358670916e-01   
4.100000000000000e+09    4.559475519457394e-01    -8.996195475329040e-01   
4.101000000000000e+09    4.551657839088008e-01    -8.997533604489896e-01   
4.102000000000000e+09    4.535370756930168e-01    -9.002199508350696e-01   
4.103000000000000e+09    4.533089941202642e-01    -9.004835589998995e-01   
4.104000000000000e+09    4.521947037282713e-01    -9.005296850121977e-01   
4.105000000000000e+09    4.516692829431427e-01    -9.009270341170725e-01   
4.106000000000000e+09    4.504084824275511e-01    -9.013110238634380e-01   
4.107000000000000e+09    4.493967195653929e-01    -9.009178368287833e-01   
4.108000000000000e+09    4.484097423510770e-01    -9.015244226040278e-01   
4.109000000000000e+09    4.471554067057678e-01    -9.011585689785763e-01   
4.110000000000000e+09    4.460521006260607e-01    -9.019405892069259e-01   
4.111000000000000e+09    4.448688125553643e-01    -9.018313015163729e-01   
4.112000000000000e+09    4.437294052628651e-01    -9.019445027055828e-01   
4.113000000000000e+09    4.425666489398309e-01    -9.019698778403032e-01   
4.114000000000000e+09    4.410118654386720e-01    -9.020707306661592e-01   
4.115000000000000e+09    4.401809330793632e-01    -9.020518994176291e-01   
4.116000000000000e+09    4.387546171515619e-01    -9.021773330726752e-01   
4.117000000000000e+09    4.373855046339596e-01    -9.022984370985808e-01   
4.118000000000000e+09    4.359793836364715e-01    -9.022638194857828e-01   
4.119000000000000e+09    4.346871140749408e-01    -9.023904922592495e-01   
4.120000000000000e+09    4.330081214950138e-01    -9.026781726490530e-01   
4.121000000000000e+09    4.319593369295663e-01    -9.027985947912469e-01   
4.122000000000000e+09    4.300585514735558e-01    -9.028362163269232e-01   
4.123000000000000e+09    4.286239964635656e-01    -9.029505985713933e-01   
4.124000000000000e+09    4.268302413029185e-01    -9.032258468191470e-01   
4.125000000000000e+09    4.253780914569751e-01    -9.037795950986430e-01   
4.126000000000000e+09    4.237583212276766e-01    -9.039473751584528e-01   
4.127000000000000e+09    4.219171913925653e-01    -9.044161198796316e-01   
4.128000000000000e+09    4.206135359175350e-01    -9.046700483115332e-01   
4.129000000000000e+09    4.186916340977626e-01    -9.052839822865295e-01   
4.130000000000000e+09    4.170317940955903e-01    -9.054656021299118e-01   
4.131000000000000e+09    4.149943554920755e-01    -9.063566808697314e-01   
4.132000000000000e+09    4.137833623500639e-01    -9.068848011697621e-01   
4.133000000000000e+09    4.122944488555720e-01    -9.075880395131122e-01   
4.134000000000000e+09    4.103552141892364e-01    -9.081096170166191e-01   
4.135000000000000e+09    4.087981953560819e-01    -9.088628481945574e-01   
4.136000000000000e+09    4.068075705254258e-01    -9.091873659686400e-01   
4.137000000000000e+09    4.056251359959263e-01    -9.101162071363922e-01   
4.138000000000000e+09    4.038657726004615e-01    -9.106667846312972e-01   
4.139000000000000e+09    4.020158530222494e-01    -9.114020086729130e-01   
4.140000000000000e+09    4.007734304932754e-01    -9.122837350194023e-01   
4.141000000000000e+09    3.989806038791976e-01    -9.131212873610213e-01   
4.142000000000000e+09    3.975663753160220e-01    -9.140860819318062e-01   
4.143000000000000e+09    3.963915171735200e-01    -9.147307431408614e-01   
4.144000000000000e+09    3.946491205364374e-01    -9.158399104796707e-01   
4.145000000000000e+09    3.933909522863585e-01    -9.165219156261015e-01   
4.146000000000000e+09    3.917227856919722e-01    -9.173521138327184e-01   
4.147000000000000e+09    3.906220220371187e-01    -9.182104227572849e-01   
4.148000000000000e+09    3.891153063274098e-01    -9.192852590116788e-01   
4.149000000000000e+09    3.878400674675306e-01    -9.204101558236479e-01   
4.150000000000000e+09    3.867308539655806e-01    -9.213191851304995e-01   
4.151000000000000e+09    3.855050297281639e-01    -9.218910503811767e-01   
4.152000000000000e+09    3.844681064699947e-01    -9.227496033435356e-01   
4.153000000000000e+09    3.827706274137613e-01    -9.240170362073131e-01   
4.154000000000000e+09    3.815964718492940e-01    -9.248688262322565e-01   
4.155000000000000e+09    3.803078840721607e-01    -9.259184600649520e-01   
4.156000000000000e+09    3.793140339767499e-01    -9.266116027725757e-01   
4.157000000000000e+09    3.781148062547993e-01    -9.275625309869496e-01   
4.158000000000000e+09    3.771377826162623e-01    -9.284125512284276e-01   
4.159000000000000e+09    3.761963997108227e-01    -9.291902555066740e-01   
4.160000000000000e+09    3.748667426566851e-01    -9.299604498712053e-01   
4.161000000000000e+09    3.738001884406813e-01    -9.313445321365318e-01   
4.162000000000000e+09    3.730622600838022e-01    -9.315506533088955e-01   
4.163000000000000e+09    3.719583170283564e-01    -9.324024367946504e-01   
4.164000000000000e+09    3.710106866233915e-01    -9.330842961742918e-01   
4.165000000000000e+09    3.698144245317784e-01    -9.339427840199184e-01   
4.166000000000000e+09    3.689930616599431e-01    -9.344286416271227e-01   
4.167000000000000e+09    3.680541246847252e-01    -9.351987564990960e-01   
4.168000000000000e+09    3.672679135136815e-01    -9.358067232505076e-01   
4.169000000000000e+09    3.658690307419794e-01    -9.366961921504244e-01   
4.170000000000000e+09    3.652533495233569e-01    -9.372835143061061e-01   
4.171000000000000e+09    3.642645817523377e-01    -9.376280058940798e-01   
4.172000000000000e+09    3.637144078748123e-01    -9.383770164925177e-01   
4.173000000000000e+09    3.626439064659890e-01    -9.391748143106919e-01   
4.174000000000000e+09    3.614739455042063e-01    -9.392579962605794e-01   
4.175000000000000e+09    3.608040444400100e-01    -9.397963945161520e-01   
4.176000000000000e+09    3.597320030287586e-01    -9.404989450700750e-01   
4.177000000000000e+09    3.593012018938607e-01    -9.404397092606259e-01   
4.178000000000000e+09    3.585130853235337e-01    -9.411594012678297e-01   
4.179000000000000e+09    3.578066438437013e-01    -9.417513288754498e-01   
4.180000000000000e+09    3.568459936310942e-01    -9.417015365027425e-01   
4.181000000000000e+09    3.562840034646668e-01    -9.420434642436613e-01   
4.182000000000000e+09    3.551467193813307e-01    -9.424644901491233e-01   
4.183000000000000e+09    3.547989085460149e-01    -9.427277140506283e-01   
4.184000000000000e+09    3.542786709426007e-01    -9.428155620162871e-01   
4.185000000000000e+09    3.533279531087092e-01    -9.433049507814351e-01   
4.186000000000000e+09    3.529835641297095e-01    -9.433551106326369e-01   
4.187000000000000e+09    3.520585614024521e-01    -9.432765050018640e-01   
4.188000000000000e+09    3.512053768596309e-01    -9.435678250228010e-01   
4.189000000000000e+09    3.506195909283528e-01    -9.433751426178401e-01   
4.190000000000000e+09    3.499433858014794e-01    -9.437343971066490e-01   
4.191000000000000e+09    3.494040128584540e-01    -9.440556873666880e-01   
4.192000000000000e+09    3.491121001500299e-01    -9.442192074439050e-01   
4.193000000000000e+09    3.482346889726676e-01    -9.442394806752564e-01   
4.194000000000000e+09    3.476321494846493e-01    -9.441051982598352e-01   
4.195000000000000e+09    3.466726739558049e-01    -9.441264769033257e-01   
4.196000000000000e+09    3.460935937516690e-01    -9.441520309023270e-01   
4.197000000000000e+09    3.456511423387593e-01    -9.444726011425297e-01   
4.198000000000000e+09    3.448258668974554e-01    -9.439127005846655e-01   
4.199000000000000e+09    3.443720761466210e-01    -9.440027534783807e-01   
4.200000000000000e+09    3.431690381804615e-01    -9.439864249053950e-01   
4.201000000000000e+09    3.416687020691050e-01    -9.463241577827102e-01   
4.202000000000000e+09    3.409918152528538e-01    -9.462986546924358e-01   
4.203000000000000e+09    3.402907744612246e-01    -9.459541689839943e-01   
4.204000000000000e+09    3.395584912405322e-01    -9.459992604936169e-01   
4.205000000000000e+09    3.388747694999769e-01    -9.461887589244290e-01   
4.206000000000000e+09    3.379630704014597e-01    -9.457932221741686e-01   
4.207000000000000e+09    3.370211377573108e-01    -9.456210669471151e-01   
4.208000000000000e+09    3.361177825078710e-01    -9.456292221368827e-01   
4.209000000000000e+09    3.352738028724669e-01    -9.457024682678064e-01   
4.210000000000000e+09    3.345202719171599e-01    -9.456534120764045e-01   
4.211000000000000e+09    3.331598000403204e-01    -9.459714733148072e-01   
4.212000000000000e+09    3.324707241230289e-01    -9.458773743924563e-01   
4.213000000000000e+09    3.311409954519313e-01    -9.457642489885419e-01   
4.214000000000000e+09    3.300283518444145e-01    -9.458488751786748e-01   
4.215000000000000e+09    3.290185272568318e-01    -9.458532532568917e-01   
4.216000000000000e+09    3.275558117301833e-01    -9.459056968647090e-01   
4.217000000000000e+09    3.265598511756704e-01    -9.461509517271524e-01   
4.218000000000000e+09    3.255358538417576e-01    -9.466535292848258e-01   
4.219000000000000e+09    3.241449371575205e-01    -9.468345950607020e-01   
4.220000000000000e+09    3.230343405393780e-01    -9.474738135319942e-01   
4.221000000000000e+09    3.217009675737521e-01    -9.475568657908594e-01   
4.222000000000000e+09    3.202404514422530e-01    -9.481375255023843e-01   
4.223000000000000e+09    3.190411859692472e-01    -9.481739953214253e-01   
4.224000000000000e+09    3.176974104850045e-01    -9.487776563342486e-01   
4.225000000000000e+09    3.167530881401306e-01    -9.490507906153971e-01   
4.226000000000000e+09    3.150420450444363e-01    -9.495491782695631e-01   
4.227000000000000e+09    3.139999660599673e-01    -9.501834564095281e-01   
4.228000000000000e+09    3.125770651566323e-01    -9.504765673304096e-01   
4.229000000000000e+09    3.108744641049458e-01    -9.506164308680889e-01   
4.230000000000000e+09    3.096876067698386e-01    -9.515521692544726e-01   
4.231000000000000e+09    3.080581020369988e-01    -9.520261463239876e-01   
4.232000000000000e+09    3.069796808090990e-01    -9.524555047031215e-01   
4.233000000000000e+09    3.057081160931460e-01    -9.527529863675314e-01   
4.234000000000000e+09    3.040307267304432e-01    -9.537028184182600e-01   
4.235000000000000e+09    3.026733474505233e-01    -9.539842157735322e-01   
4.236000000000000e+09    3.012957862207875e-01    -9.541343765520887e-01   
4.237000000000000e+09    2.999579915404255e-01    -9.547021156142763e-01   
4.238000000000000e+09    2.986944117984577e-01    -9.554661684758143e-01   
4.239000000000000e+09    2.969546536208833e-01    -9.559506460815382e-01   
4.240000000000000e+09    2.954064810667543e-01    -9.564553298740587e-01   
4.241000000000000e+09    2.940979111053444e-01    -9.569455953533547e-01   
4.242000000000000e+09    2.923931276952700e-01    -9.573096392024815e-01   
4.243000000000000e+09    2.909441189008249e-01    -9.580507032692817e-01   
4.244000000000000e+09    2.893841566029484e-01    -9.585054449965570e-01   
4.245000000000000e+09    2.876968456153448e-01    -9.591002459906891e-01   
4.246000000000000e+09    2.860956759996068e-01    -9.594993635287054e-01   
4.247000000000000e+09    2.843329397441238e-01    -9.600256546556836e-01   
4.248000000000000e+09    2.830438814797208e-01    -9.600841861155038e-01   
4.249000000000000e+09    2.815986443955247e-01    -9.606446357666463e-01   
4.250000000000000e+09    2.801350386874300e-01    -9.611392576792623e-01   
4.251000000000000e+09    2.780505574856900e-01    -9.619552287959016e-01   
4.252000000000000e+09    2.765362714555317e-01    -9.623713720751584e-01   
4.253000000000000e+09    2.746337519622915e-01    -9.628743464306153e-01   
4.254000000000000e+09    2.729080826012604e-01    -9.632150484729247e-01   
4.255000000000000e+09    2.711713830706532e-01    -9.638570376718468e-01   
4.256000000000000e+09    2.694656357338374e-01    -9.636682370651642e-01   
