[Version] 2.0
! Rohde & Schwarz Vector Network Analyzer
! Rohde-Schwarz,ZNL20-2Port,1323001220200009,1.71.1.10-23.02.1.238
! 
! Port Assignments:
! Nominal Port -> Actual Test Port
! --------------------------------
!   1 -> 1

! Created: GMT+2 2025-01-17 12:48:26

# Hz S RI R 50

[Number of Ports] 1
[Number of Frequencies] 16001

[Network Data] 
! freq[Hz]               S11[Re]                  S11[Im]                  
4.000000000000000e+09    5.563649873718891e-01    -8.364527875516042e-01   
4.001000000000000e+09    5.548944239311627e-01    -8.373915113198275e-01   
4.002000000000000e+09    5.538991512618318e-01    -8.384010121813373e-01   
4.003000000000000e+09    5.523085344837070e-01    -8.392679619826288e-01   
4.004000000000000e+09    5.513532680430212e-01    -8.399648135469441e-01   
4.005000000000000e+09    5.501517014592935e-01    -8.409505057410074e-01   
4.006000000000000e+09    5.491620722309521e-01    -8.416674935683733e-01   
4.007000000000000e+09    5.479876883419937e-01    -8.426807849253308e-01   
4.008000000000000e+09    5.462655367879323e-01    -8.433834116665688e-01   
4.009000000000000e+09    5.452901340776548e-01    -8.441109235676599e-01   
4.010000000000000e+09    5.440025814501959e-01    -8.453182196723530e-01   
4.011000000000000e+09    5.426167286205207e-01    -8.459025741418390e-01   
4.012000000000000e+09    5.417037737951903e-01    -8.465233551488366e-01   
4.013000000000000e+09    5.400761580281224e-01    -8.470115950884396e-01   
4.014000000000000e+09    5.387512694179745e-01    -8.476584760133469e-01   
4.015000000000000e+09    5.376217841899382e-01    -8.484262212249194e-01   
4.016000000000000e+09    5.358126703052594e-01    -8.488084365165224e-01   
4.017000000000000e+09    5.351650041046203e-01    -8.496950781603666e-01   
4.018000000000000e+09    5.335519771651085e-01    -8.504267909753969e-01   
4.019000000000000e+09    5.324252336301084e-01    -8.505899778509224e-01   
4.020000000000000e+09    5.310038085831994e-01    -8.512413387208144e-01   
4.021000000000000e+09    5.297697170624844e-01    -8.518591438926405e-01   
4.022000000000000e+09    5.286336196286072e-01    -8.527241471898104e-01   
4.023000000000000e+09    5.275058181856087e-01    -8.532776949022857e-01   
4.024000000000000e+09    5.260374891682739e-01    -8.532856279919478e-01   
4.025000000000000e+09    5.247831719406346e-01    -8.538568016501927e-01   
4.026000000000000e+09    5.235372420227936e-01    -8.542599125822473e-01   
4.027000000000000e+09    5.220957541094242e-01    -8.548646817386638e-01   
4.028000000000000e+09    5.207843115190675e-01    -8.549842960541980e-01   
4.029000000000000e+09    5.196712594780962e-01    -8.558812056554873e-01   
4.030000000000000e+09    5.182550429004490e-01    -8.561024418370223e-01   
4.031000000000000e+09    5.170519543739238e-01    -8.567175296780249e-01   
4.032000000000000e+09    5.157567842860636e-01    -8.570602577165899e-01   
4.033000000000000e+09    5.141834427790984e-01    -8.573283715985530e-01   
4.034000000000000e+09    5.128678578820762e-01    -8.579346520616288e-01   
4.035000000000000e+09    5.114741020568945e-01    -8.581188535482114e-01   
4.036000000000000e+09    5.102475227657816e-01    -8.586608417548738e-01   
4.037000000000000e+09    5.086600796569778e-01    -8.590358065207478e-01   
4.038000000000000e+09    5.071367941212556e-01    -8.594504915874507e-01   
4.039000000000000e+09    5.059047183417007e-01    -8.599284984954457e-01   
4.040000000000000e+09    5.045873351555271e-01    -8.608163390075583e-01   
4.041000000000000e+09    5.033420702556476e-01    -8.612841269186812e-01   
4.042000000000000e+09    5.020174924214453e-01    -8.615958497407453e-01   
4.043000000000000e+09    5.009970346580606e-01    -8.624539129412666e-01   
4.044000000000000e+09    4.993440832177527e-01    -8.631469157268408e-01   
4.045000000000000e+09    4.981489835278447e-01    -8.635522621805524e-01   
4.046000000000000e+09    4.969483755210045e-01    -8.644319031479882e-01   
4.047000000000000e+09    4.958534295507744e-01    -8.653329346527030e-01   
4.048000000000000e+09    4.945226478981767e-01    -8.658034802312331e-01   
4.049000000000000e+09    4.934467578056867e-01    -8.664882254855614e-01   
4.050000000000000e+09    4.924687314640883e-01    -8.673751533926491e-01   
4.051000000000000e+09    4.912641895358901e-01    -8.680625315476415e-01   
4.052000000000000e+09    4.904475856224472e-01    -8.692687185841800e-01   
4.053000000000000e+09    4.893183413799034e-01    -8.697386831172116e-01   
4.054000000000000e+09    4.882398217891167e-01    -8.705736279889289e-01   
4.055000000000000e+09    4.875661785725065e-01    -8.712196870689902e-01   
4.056000000000000e+09    4.864162622638191e-01    -8.720376040229370e-01   
4.057000000000000e+09    4.856335467228620e-01    -8.728222437079389e-01   
4.058000000000000e+09    4.847919973218028e-01    -8.734575810872178e-01   
4.059000000000000e+09    4.838712366540519e-01    -8.747681159206926e-01   
4.060000000000000e+09    4.831540908708793e-01    -8.751026777835164e-01   
4.061000000000000e+09    4.821718181432096e-01    -8.760642635780855e-01   
4.062000000000000e+09    4.819648806298986e-01    -8.769339311189117e-01   
4.063000000000000e+09    4.810584179532282e-01    -8.779412841249922e-01   
4.064000000000000e+09    4.802578611761375e-01    -8.786230820588695e-01   
4.065000000000000e+09    4.797360409498525e-01    -8.793686556855843e-01   
4.066000000000000e+09    4.789722597217667e-01    -8.801024524160870e-01   
4.067000000000000e+09    4.783414819110083e-01    -8.809219688740159e-01   
4.068000000000000e+09    4.779330484500168e-01    -8.815943672173079e-01   
4.069000000000000e+09    4.773966265776370e-01    -8.827680367122376e-01   
4.070000000000000e+09    4.767669581356763e-01    -8.831853232509811e-01   
4.071000000000000e+09    4.762832276208371e-01    -8.838242502553226e-01   
4.072000000000000e+09    4.756564861864138e-01    -8.846464244649124e-01   
4.073000000000000e+09    4.748980676478957e-01    -8.856227971570713e-01   
4.074000000000000e+09    4.742506682208396e-01    -8.860082806123275e-01   
4.075000000000000e+09    4.740089227832527e-01    -8.868767812019305e-01   
4.076000000000000e+09    4.731883813647067e-01    -8.874734160185918e-01   
4.077000000000000e+09    4.725407294172121e-01    -8.882774465015588e-01   
4.078000000000000e+09    4.720552400053450e-01    -8.892088683328097e-01   
4.079000000000000e+09    4.714110985838247e-01    -8.898569746064536e-01   
4.080000000000000e+09    4.709431177005254e-01    -8.903431659127089e-01   
4.081000000000000e+09    4.702212553957810e-01    -8.910229727164609e-01   
4.082000000000000e+09    4.696907758670146e-01    -8.912732746261328e-01   
4.083000000000000e+09    4.690904696582999e-01    -8.925006060609815e-01   
4.084000000000000e+09    4.683655950498600e-01    -8.931582669994496e-01   
4.085000000000000e+09    4.677769545478407e-01    -8.932789774581742e-01   
4.086000000000000e+09    4.670651508309299e-01    -8.937207048646462e-01   
4.087000000000000e+09    4.663074817930249e-01    -8.943975083650032e-01   
4.088000000000000e+09    4.655310744551956e-01    -8.949343920460270e-01   
4.089000000000000e+09    4.649666456378653e-01    -8.952918938850117e-01   
4.090000000000000e+09    4.641103520328413e-01    -8.960850032565663e-01   
4.091000000000000e+09    4.632426457285132e-01    -8.962756860102951e-01   
4.092000000000000e+09    4.628934900815328e-01    -8.970836490314440e-01   
4.093000000000000e+09    4.620386462413357e-01    -8.972757992487754e-01   
4.094000000000000e+09    4.612737288478725e-01    -8.977929603575270e-01   
4.095000000000000e+09    4.602818242413944e-01    -8.984269554627315e-01   
4.096000000000000e+09    4.595085220385048e-01    -8.985271637059228e-01   
4.097000000000000e+09    4.582140096615328e-01    -8.988767595114567e-01   
4.098000000000000e+09    4.579277542069158e-01    -8.990327932272619e-01   
4.099000000000000e+09    4.567135272331750e-01    -8.993831215236106e-01   
4.100000000000000e+09    4.559428163888991e-01    -8.997765674502101e-01   
4.101000000000000e+09    4.552410940825329e-01    -9.001716329995326e-01   
4.102000000000000e+09    4.539981404905019e-01    -8.999074124102442e-01   
4.103000000000000e+09    4.533659494596889e-01    -9.003210737957758e-01   
4.104000000000000e+09    4.521584822640751e-01    -9.004837553531279e-01   
4.105000000000000e+09    4.511973475500878e-01    -9.012244628401920e-01   
4.106000000000000e+09    4.502160160318746e-01    -9.011026216831298e-01   
4.107000000000000e+09    4.493849671095904e-01    -9.007127424402217e-01   
4.108000000000000e+09    4.484934001064012e-01    -9.013856337697663e-01   
4.109000000000000e+09    4.469283164336991e-01    -9.012303535045985e-01   
4.110000000000000e+09    4.457474505062028e-01    -9.015164175651900e-01   
4.111000000000000e+09    4.448028319290362e-01    -9.016780752905775e-01   
4.112000000000000e+09    4.438060842942700e-01    -9.018141859401385e-01   
4.113000000000000e+09    4.428705163682182e-01    -9.017955660146766e-01   
4.114000000000000e+09    4.411872408229699e-01    -9.018991587912251e-01   
4.115000000000000e+09    4.403559270662795e-01    -9.018515069262790e-01   
4.116000000000000e+09    4.387993872718766e-01    -9.021689885411154e-01   
4.117000000000000e+09    4.373648359227436e-01    -9.020140319866184e-01   
4.118000000000000e+09    4.356040066474509e-01    -9.021645092073095e-01   
4.119000000000000e+09    4.346607510114586e-01    -9.025054872929280e-01   
4.120000000000000e+09    4.333007668970925e-01    -9.024180931122258e-01   
4.121000000000000e+09    4.314471439467090e-01    -9.028312921070961e-01   
4.122000000000000e+09    4.302141003318702e-01    -9.028093317763551e-01   
4.123000000000000e+09    4.287393323438214e-01    -9.026394914113081e-01   
4.124000000000000e+09    4.269953435933603e-01    -9.036265854570142e-01   
4.125000000000000e+09    4.254259009301690e-01    -9.034980145234838e-01   
4.126000000000000e+09    4.238355474180235e-01    -9.038674379849627e-01   
4.127000000000000e+09    4.220738109405286e-01    -9.042636202638188e-01   
4.128000000000000e+09    4.204808381656523e-01    -9.045104336066753e-01   
4.129000000000000e+09    4.186734497726776e-01    -9.052750748311782e-01   
4.130000000000000e+09    4.170684518990442e-01    -9.054097091335825e-01   
4.131000000000000e+09    4.153042802965463e-01    -9.065492193389243e-01   
4.132000000000000e+09    4.137159765079257e-01    -9.070270498135133e-01   
4.133000000000000e+09    4.122297082824218e-01    -9.072552007025122e-01   
4.134000000000000e+09    4.107702744664432e-01    -9.081088223492717e-01   
4.135000000000000e+09    4.087291021475090e-01    -9.085537338446026e-01   
4.136000000000000e+09    4.069742266190822e-01    -9.093067079552427e-01   
4.137000000000000e+09    4.055091189230970e-01    -9.102212001750370e-01   
4.138000000000000e+09    4.038093180055562e-01    -9.105181253264715e-01   
4.139000000000000e+09    4.022663553183876e-01    -9.117112118825189e-01   
4.140000000000000e+09    4.008061189111314e-01    -9.124384143344642e-01   
4.141000000000000e+09    3.994412406150216e-01    -9.131878713881055e-01   
4.142000000000000e+09    3.977447654592955e-01    -9.140226495222684e-01   
4.143000000000000e+09    3.962234214313755e-01    -9.149867286136569e-01   
4.144000000000000e+09    3.947348239270101e-01    -9.160205504423696e-01   
4.145000000000000e+09    3.933694540273044e-01    -9.166186998960499e-01   
4.146000000000000e+09    3.918968439985009e-01    -9.174298148239322e-01   
4.147000000000000e+09    3.906491766219368e-01    -9.183494669394656e-01   
4.148000000000000e+09    3.893013822802801e-01    -9.191902530028170e-01   
4.149000000000000e+09    3.880951900958757e-01    -9.204761013494013e-01   
4.150000000000000e+09    3.867870298900548e-01    -9.209895796852873e-01   
4.151000000000000e+09    3.854883738417337e-01    -9.220745866815071e-01   
4.152000000000000e+09    3.840045761234561e-01    -9.227981772563630e-01   
4.153000000000000e+09    3.824902163035398e-01    -9.239231041289491e-01   
4.154000000000000e+09    3.813952238628098e-01    -9.250681680459859e-01   
4.155000000000000e+09    3.802302970000710e-01    -9.259932915882384e-01   
4.156000000000000e+09    3.792267045777856e-01    -9.267211429068719e-01   
4.157000000000000e+09    3.780265569820768e-01    -9.274329827042078e-01   
4.158000000000000e+09    3.770873582335121e-01    -9.283095833237606e-01   
4.159000000000000e+09    3.758573562592734e-01    -9.291257887414955e-01   
4.160000000000000e+09    3.753164973788392e-01    -9.303320379332539e-01   
4.161000000000000e+09    3.738746039023447e-01    -9.309063483217853e-01   
4.162000000000000e+09    3.728273144901349e-01    -9.316842347001735e-01   
4.163000000000000e+09    3.720413805631966e-01    -9.324686188791409e-01   
4.164000000000000e+09    3.709395089154301e-01    -9.331469784885277e-01   
4.165000000000000e+09    3.698352271225792e-01    -9.339211681635929e-01   
4.166000000000000e+09    3.688331098726883e-01    -9.345431412566576e-01   
4.167000000000000e+09    3.683278004771905e-01    -9.349701666754550e-01   
4.168000000000000e+09    3.673580714358878e-01    -9.359686667090212e-01   
4.169000000000000e+09    3.659329781562650e-01    -9.367033871934923e-01   
4.170000000000000e+09    3.652284421775487e-01    -9.370086094196209e-01   
4.171000000000000e+09    3.644314234263578e-01    -9.377045228444040e-01   
4.172000000000000e+09    3.638228067961187e-01    -9.382624614717989e-01   
4.173000000000000e+09    3.623883916334502e-01    -9.389562769363194e-01   
4.174000000000000e+09    3.617632629621852e-01    -9.393112174712569e-01   
4.175000000000000e+09    3.608443587631569e-01    -9.398690098064663e-01   
4.176000000000000e+09    3.602551604911176e-01    -9.401706530250196e-01   
4.177000000000000e+09    3.593851811443782e-01    -9.405780457454741e-01   
4.178000000000000e+09    3.589399192780127e-01    -9.409798461765535e-01   
4.179000000000000e+09    3.576018533746212e-01    -9.416734147241722e-01   
4.180000000000000e+09    3.570731001164720e-01    -9.418318451312130e-01   
4.181000000000000e+09    3.566015925903250e-01    -9.421567874470181e-01   
4.182000000000000e+09    3.557938452966122e-01    -9.422645778028056e-01   
4.183000000000000e+09    3.549235759213181e-01    -9.426937897140620e-01   
4.184000000000000e+09    3.540556144398399e-01    -9.426968104902640e-01   
4.185000000000000e+09    3.537282240063777e-01    -9.431510866094146e-01   
4.186000000000000e+09    3.525129898630422e-01    -9.434511576691179e-01   
4.187000000000000e+09    3.526941029951849e-01    -9.432940123095207e-01   
4.188000000000000e+09    3.518585509919031e-01    -9.433814289110189e-01   
4.189000000000000e+09    3.510255330628774e-01    -9.435925917204637e-01   
4.190000000000000e+09    3.504970220442106e-01    -9.439190280461877e-01   
4.191000000000000e+09    3.496978094095733e-01    -9.441608255730604e-01   
4.192000000000000e+09    3.491487500813640e-01    -9.440684160362058e-01   
4.193000000000000e+09    3.483935892712468e-01    -9.440743174118700e-01   
4.194000000000000e+09    3.475886728521812e-01    -9.439164744324958e-01   
4.195000000000000e+09    3.472111442807189e-01    -9.440521427202877e-01   
4.196000000000000e+09    3.462496809842207e-01    -9.441167817525855e-01   
4.197000000000000e+09    3.458205537861151e-01    -9.444340740115267e-01   
4.198000000000000e+09    3.450860121431094e-01    -9.439394157563986e-01   
4.199000000000000e+09    3.438869629462655e-01    -9.440853461751818e-01   
4.200000000000000e+09    3.433994847224263e-01    -9.442435187924240e-01   
4.201000000000000e+09    3.415584907045959e-01    -9.463471646949587e-01   
4.202000000000000e+09    3.413031263004674e-01    -9.458293650861664e-01   
4.203000000000000e+09    3.402807758320198e-01    -9.458929977409123e-01   
4.204000000000000e+09    3.395715646243307e-01    -9.459340150624876e-01   
4.205000000000000e+09    3.386230791605433e-01    -9.458783694320335e-01   
4.206000000000000e+09    3.378529916214197e-01    -9.457958317109343e-01   
4.207000000000000e+09    3.371429373336853e-01    -9.455862592884234e-01   
4.208000000000000e+09    3.361527077730322e-01    -9.457082060902068e-01   
4.209000000000000e+09    3.352655808716677e-01    -9.455653212915291e-01   
4.210000000000000e+09    3.341289454606275e-01    -9.457137356754216e-01   
4.211000000000000e+09    3.335685485881581e-01    -9.457123478175748e-01   
4.212000000000000e+09    3.322895922081805e-01    -9.456319675398513e-01   
4.213000000000000e+09    3.312723981762131e-01    -9.454519987077370e-01   
4.214000000000000e+09    3.300500937162339e-01    -9.459938171904121e-01   
4.215000000000000e+09    3.292448666849768e-01    -9.459934500680917e-01   
4.216000000000000e+09    3.278380033091436e-01    -9.462430486851318e-01   
4.217000000000000e+09    3.266356708772802e-01    -9.466035500955612e-01   
4.218000000000000e+09    3.255365084455788e-01    -9.466753948737715e-01   
4.219000000000000e+09    3.243102930006720e-01    -9.468724712682811e-01   
4.220000000000000e+09    3.229890909250592e-01    -9.472461302226381e-01   
4.221000000000000e+09    3.217703349040912e-01    -9.476804104793768e-01   
4.222000000000000e+09    3.204485039179571e-01    -9.479593744719016e-01   
4.223000000000000e+09    3.190212263076765e-01    -9.480793476459238e-01   
4.224000000000000e+09    3.180795985205483e-01    -9.487808454101991e-01   
4.225000000000000e+09    3.165458029158472e-01    -9.492163096655040e-01   
4.226000000000000e+09    3.152773094533027e-01    -9.494072806568868e-01   
4.227000000000000e+09    3.137870351671208e-01    -9.501971900262228e-01   
4.228000000000000e+09    3.124107146564337e-01    -9.505147908795770e-01   
4.229000000000000e+09    3.113741530393055e-01    -9.509783758567604e-01   
4.230000000000000e+09    3.096612578753186e-01    -9.515399545378280e-01   
4.231000000000000e+09    3.085126108429176e-01    -9.521713990817211e-01   
4.232000000000000e+09    3.071967910232389e-01    -9.522151848753431e-01   
4.233000000000000e+09    3.059547878488723e-01    -9.530044078239044e-01   
4.234000000000000e+09    3.039008713812640e-01    -9.536410753874686e-01   
4.235000000000000e+09    3.027461828483044e-01    -9.539706886434709e-01   
4.236000000000000e+09    3.014007214082077e-01    -9.542436436021683e-01   
4.237000000000000e+09    3.000155718314687e-01    -9.550654274130977e-01   
4.238000000000000e+09    2.986580954132497e-01    -9.555964243813186e-01   
4.239000000000000e+09    2.971054449337425e-01    -9.560346811527669e-01   
4.240000000000000e+09    2.955849283517424e-01    -9.563857163980511e-01   
4.241000000000000e+09    2.940132445496435e-01    -9.566557032633292e-01   
4.242000000000000e+09    2.923851537923500e-01    -9.574868278268044e-01   
4.243000000000000e+09    2.909859112556287e-01    -9.578351933895446e-01   
4.244000000000000e+09    2.893573954423997e-01    -9.584544229348217e-01   
4.245000000000000e+09    2.877178894744695e-01    -9.589592879685538e-01   
4.246000000000000e+09    2.863335096984277e-01    -9.591781642344388e-01   
4.247000000000000e+09    2.849858549569927e-01    -9.598778475896833e-01   
4.248000000000000e+09    2.832828414010047e-01    -9.602965821275337e-01   
4.249000000000000e+09    2.817854757128749e-01    -9.605769927653758e-01   
4.250000000000000e+09    2.797742769890640e-01    -9.613003029743181e-01   
4.251000000000000e+09    2.781584739051480e-01    -9.619724807077005e-01   
4.252000000000000e+09    2.764550860951923e-01    -9.623139151787660e-01   
4.253000000000000e+09    2.746366555685804e-01    -9.627144047880470e-01   
4.254000000000000e+09    2.730772543653960e-01    -9.629840692742021e-01   
4.255000000000000e+09    2.714687269390323e-01    -9.634666996605259e-01   
4.256000000000000e+09    2.696518597884905e-01    -9.641214685253043e-01   
