[Version] 2.0
! Rohde & Schwarz Vector Network Analyzer
! Rohde-Schwarz,ZNL20-2Port,1323001220200009,1.71.1.10-23.02.1.238
! 
! Port Assignments:
! Nominal Port -> Actual Test Port
! --------------------------------
!   1 -> 1

! Created: GMT+2 2025-01-17 12:48:47

# Hz S RI R 50

[Number of Ports] 1
[Number of Frequencies] 16001

[Network Data] 
! freq[Hz]               S11[Re]                  S11[Im]                  
4.000000000000000e+09    5.563076488492394e-01    -8.363822755173397e-01   
4.001000000000000e+09    5.549189923746313e-01    -8.374564332981472e-01   
4.002000000000000e+09    5.541347204789645e-01    -8.377979069662681e-01   
4.003000000000000e+09    5.529594620709315e-01    -8.390583993540479e-01   
4.004000000000000e+09    5.516345332835849e-01    -8.399188011006564e-01   
4.005000000000000e+09    5.503943598885749e-01    -8.404229567023279e-01   
4.006000000000000e+09    5.492183907393791e-01    -8.416751515173068e-01   
4.007000000000000e+09    5.477549403519199e-01    -8.422641838607832e-01   
4.008000000000000e+09    5.464004533399924e-01    -8.435359600442137e-01   
4.009000000000000e+09    5.456034123455809e-01    -8.441625316832446e-01   
4.010000000000000e+09    5.439895784576732e-01    -8.448425196755338e-01   
4.011000000000000e+09    5.426768031008368e-01    -8.455823267527783e-01   
4.012000000000000e+09    5.413865898444206e-01    -8.462169033237703e-01   
4.013000000000000e+09    5.401113073342377e-01    -8.469676540011657e-01   
4.014000000000000e+09    5.388834656639967e-01    -8.477019877243769e-01   
4.015000000000000e+09    5.371903892609394e-01    -8.483303828725585e-01   
4.016000000000000e+09    5.362425466746018e-01    -8.489852904096499e-01   
4.017000000000000e+09    5.354226417301345e-01    -8.496111652046666e-01   
4.018000000000000e+09    5.337813027515662e-01    -8.505543496655428e-01   
4.019000000000000e+09    5.325158442402287e-01    -8.504242245215458e-01   
4.020000000000000e+09    5.312653249718919e-01    -8.511922768541605e-01   
4.021000000000000e+09    5.300100920484070e-01    -8.520146945905441e-01   
4.022000000000000e+09    5.286003011827816e-01    -8.524243181121932e-01   
4.023000000000000e+09    5.276961475667845e-01    -8.529318454841012e-01   
4.024000000000000e+09    5.259304733518689e-01    -8.534069378607715e-01   
4.025000000000000e+09    5.247736401960676e-01    -8.540570375656181e-01   
4.026000000000000e+09    5.235635197737643e-01    -8.544005739824165e-01   
4.027000000000000e+09    5.223763538240095e-01    -8.548294725809823e-01   
4.028000000000000e+09    5.208474750042359e-01    -8.553330592613914e-01   
4.029000000000000e+09    5.196592902096010e-01    -8.556439956269080e-01   
4.030000000000000e+09    5.183510499624776e-01    -8.561526052190114e-01   
4.031000000000000e+09    5.167797877144826e-01    -8.563838321097196e-01   
4.032000000000000e+09    5.157908571899840e-01    -8.567744361711032e-01   
4.033000000000000e+09    5.142100444048681e-01    -8.570592724161329e-01   
4.034000000000000e+09    5.127881706206019e-01    -8.580327103717742e-01   
4.035000000000000e+09    5.114142143132985e-01    -8.582706602419924e-01   
4.036000000000000e+09    5.104278185343917e-01    -8.584556984359708e-01   
4.037000000000000e+09    5.086586898172728e-01    -8.590527806197420e-01   
4.038000000000000e+09    5.075233533470991e-01    -8.594806711887882e-01   
4.039000000000000e+09    5.061534989574326e-01    -8.599562967943274e-01   
4.040000000000000e+09    5.049422301478571e-01    -8.605640299801771e-01   
4.041000000000000e+09    5.032714437899364e-01    -8.612656146752304e-01   
4.042000000000000e+09    5.020998154404345e-01    -8.617377167924912e-01   
4.043000000000000e+09    5.006722691777707e-01    -8.622560879805869e-01   
4.044000000000000e+09    4.993023796412721e-01    -8.628893967879593e-01   
4.045000000000000e+09    4.982116302420070e-01    -8.637849102994827e-01   
4.046000000000000e+09    4.970479637665440e-01    -8.643162491901847e-01   
4.047000000000000e+09    4.959386840578074e-01    -8.653748745879738e-01   
4.048000000000000e+09    4.945412117238044e-01    -8.659823959762528e-01   
4.049000000000000e+09    4.935229891027385e-01    -8.664811360694589e-01   
4.050000000000000e+09    4.924512604975728e-01    -8.673479698407081e-01   
4.051000000000000e+09    4.912874545873781e-01    -8.681535391840911e-01   
4.052000000000000e+09    4.903867123195519e-01    -8.691444220478762e-01   
4.053000000000000e+09    4.890810424973240e-01    -8.696248986732736e-01   
4.054000000000000e+09    4.882902083788266e-01    -8.704127688300727e-01   
4.055000000000000e+09    4.873876121102870e-01    -8.711729002100984e-01   
4.056000000000000e+09    4.866708868345878e-01    -8.721190773541324e-01   
4.057000000000000e+09    4.855605326911049e-01    -8.728440928116902e-01   
4.058000000000000e+09    4.846274257240276e-01    -8.735828035090961e-01   
4.059000000000000e+09    4.841041740476011e-01    -8.746787213511483e-01   
4.060000000000000e+09    4.831366202156958e-01    -8.753921942963905e-01   
4.061000000000000e+09    4.822832505797991e-01    -8.761876696699565e-01   
4.062000000000000e+09    4.816867391327035e-01    -8.768901698725416e-01   
4.063000000000000e+09    4.810125284976809e-01    -8.777200072267628e-01   
4.064000000000000e+09    4.800108995662813e-01    -8.784279054317592e-01   
4.065000000000000e+09    4.799258361775628e-01    -8.792229278214597e-01   
4.066000000000000e+09    4.789585619273701e-01    -8.799173492922358e-01   
4.067000000000000e+09    4.782718474221066e-01    -8.807852370390751e-01   
4.068000000000000e+09    4.781550976966015e-01    -8.815529566654026e-01   
4.069000000000000e+09    4.773069592304822e-01    -8.824664374932970e-01   
4.070000000000000e+09    4.765497519384948e-01    -8.829726273827950e-01   
4.071000000000000e+09    4.765268337416988e-01    -8.836403000550025e-01   
4.072000000000000e+09    4.755396428686169e-01    -8.845642743973746e-01   
4.073000000000000e+09    4.747291490524815e-01    -8.850316288004050e-01   
4.074000000000000e+09    4.742606357925915e-01    -8.859711075847891e-01   
4.075000000000000e+09    4.736035696557266e-01    -8.871231803671635e-01   
4.076000000000000e+09    4.734099834071198e-01    -8.874875996435914e-01   
4.077000000000000e+09    4.726643336811680e-01    -8.882618865797790e-01   
4.078000000000000e+09    4.718616323122400e-01    -8.887896085986923e-01   
4.079000000000000e+09    4.714188376374029e-01    -8.893681950165864e-01   
4.080000000000000e+09    4.708926190368514e-01    -8.900432431950887e-01   
4.081000000000000e+09    4.702496564031203e-01    -8.909009347820692e-01   
4.082000000000000e+09    4.696335790206447e-01    -8.913586889313169e-01   
4.083000000000000e+09    4.689802978774281e-01    -8.921249620654302e-01   
4.084000000000000e+09    4.687136706190738e-01    -8.926654655650746e-01   
4.085000000000000e+09    4.679133095695039e-01    -8.932830070738932e-01   
4.086000000000000e+09    4.672198888025912e-01    -8.937005438002827e-01   
4.087000000000000e+09    4.659663728449372e-01    -8.945123174672516e-01   
4.088000000000000e+09    4.656323988806721e-01    -8.946772742354867e-01   
4.089000000000000e+09    4.649150274945595e-01    -8.957520765148973e-01   
4.090000000000000e+09    4.641692582459870e-01    -8.962866343367778e-01   
4.091000000000000e+09    4.635491296932692e-01    -8.964416677390590e-01   
4.092000000000000e+09    4.628129900837060e-01    -8.969956415789661e-01   
4.093000000000000e+09    4.618958185833091e-01    -8.969996970895165e-01   
4.094000000000000e+09    4.610435832772899e-01    -8.976232383764752e-01   
4.095000000000000e+09    4.605360262311787e-01    -8.981101408354807e-01   
4.096000000000000e+09    4.592435223360751e-01    -8.983183117542490e-01   
4.097000000000000e+09    4.585588442962681e-01    -8.991415894093790e-01   
4.098000000000000e+09    4.577516575758547e-01    -8.995731369792963e-01   
4.099000000000000e+09    4.569635380310763e-01    -8.992387801640512e-01   
4.100000000000000e+09    4.555974486151222e-01    -8.995658804435458e-01   
4.101000000000000e+09    4.548482756973189e-01    -9.000537171409463e-01   
4.102000000000000e+09    4.540481709798313e-01    -8.998924914887864e-01   
4.103000000000000e+09    4.532378678867179e-01    -9.002676670812065e-01   
4.104000000000000e+09    4.523650470424947e-01    -9.002490025439297e-01   
4.105000000000000e+09    4.512522723960569e-01    -9.005716780790802e-01   
4.106000000000000e+09    4.504100325064169e-01    -9.006935607070862e-01   
4.107000000000000e+09    4.493499555322447e-01    -9.009740789604086e-01   
4.108000000000000e+09    4.484179630559412e-01    -9.009959397718469e-01   
4.109000000000000e+09    4.471763733233933e-01    -9.013578985755484e-01   
4.110000000000000e+09    4.462809134112438e-01    -9.011819133574684e-01   
4.111000000000000e+09    4.447383331021840e-01    -9.015496089790163e-01   
4.112000000000000e+09    4.438157473947387e-01    -9.017140098221120e-01   
4.113000000000000e+09    4.425928943938778e-01    -9.017599430394402e-01   
4.114000000000000e+09    4.413596419127127e-01    -9.019240566886815e-01   
4.115000000000000e+09    4.401442815630234e-01    -9.021190062180190e-01   
4.116000000000000e+09    4.388992296733088e-01    -9.021984766701323e-01   
4.117000000000000e+09    4.373172428627398e-01    -9.021868447861361e-01   
4.118000000000000e+09    4.358470039225763e-01    -9.021510722619316e-01   
4.119000000000000e+09    4.344537094636302e-01    -9.020854339731849e-01   
4.120000000000000e+09    4.329380950643443e-01    -9.027338951133789e-01   
4.121000000000000e+09    4.316772140413100e-01    -9.026454958483004e-01   
4.122000000000000e+09    4.303326970784808e-01    -9.028597501969241e-01   
4.123000000000000e+09    4.285878474334126e-01    -9.029748799334997e-01   
4.124000000000000e+09    4.268125142397918e-01    -9.032687662215433e-01   
4.125000000000000e+09    4.253434983638461e-01    -9.037526254098356e-01   
4.126000000000000e+09    4.236889811650948e-01    -9.039981685210121e-01   
4.127000000000000e+09    4.219128489912273e-01    -9.043005958486614e-01   
4.128000000000000e+09    4.204095801699037e-01    -9.045591542947078e-01   
4.129000000000000e+09    4.186830437658360e-01    -9.052101441811211e-01   
4.130000000000000e+09    4.171548060995876e-01    -9.052842779993555e-01   
4.131000000000000e+09    4.155696477716581e-01    -9.059064362930108e-01   
4.132000000000000e+09    4.136376723362642e-01    -9.066439329753828e-01   
4.133000000000000e+09    4.120021036024593e-01    -9.073275463296856e-01   
4.134000000000000e+09    4.107483057247092e-01    -9.079588220884616e-01   
4.135000000000000e+09    4.089225046903598e-01    -9.085520655541045e-01   
4.136000000000000e+09    4.074165791427821e-01    -9.093298023005606e-01   
4.137000000000000e+09    4.055153348286509e-01    -9.099757605406648e-01   
4.138000000000000e+09    4.040248641218193e-01    -9.106548911443106e-01   
4.139000000000000e+09    4.021762784936945e-01    -9.113929706902498e-01   
4.140000000000000e+09    4.009352350260874e-01    -9.125410830226575e-01   
4.141000000000000e+09    3.995519777322384e-01    -9.133971595357420e-01   
4.142000000000000e+09    3.976306206156803e-01    -9.137641278546803e-01   
4.143000000000000e+09    3.962965642459234e-01    -9.146527744197612e-01   
4.144000000000000e+09    3.948518356107678e-01    -9.159331326353535e-01   
4.145000000000000e+09    3.934837846456880e-01    -9.167319510678232e-01   
4.146000000000000e+09    3.920833050295977e-01    -9.175699449597654e-01   
4.147000000000000e+09    3.902555026880822e-01    -9.182360139479387e-01   
4.148000000000000e+09    3.894511761724974e-01    -9.195160721761352e-01   
4.149000000000000e+09    3.877546490513780e-01    -9.203125403275345e-01   
4.150000000000000e+09    3.866427800951667e-01    -9.209632769147621e-01   
4.151000000000000e+09    3.855333017379090e-01    -9.219376083611580e-01   
4.152000000000000e+09    3.841494501099701e-01    -9.228765037383405e-01   
4.153000000000000e+09    3.827787775408201e-01    -9.239797124897252e-01   
4.154000000000000e+09    3.813944599728216e-01    -9.247354880644949e-01   
4.155000000000000e+09    3.804460962505343e-01    -9.258492906491060e-01   
4.156000000000000e+09    3.793480724886363e-01    -9.265896328067100e-01   
4.157000000000000e+09    3.780951298436901e-01    -9.275541548808058e-01   
4.158000000000000e+09    3.769265176406044e-01    -9.279395112185632e-01   
4.159000000000000e+09    3.759534642574695e-01    -9.290681771323183e-01   
4.160000000000000e+09    3.749979318030507e-01    -9.302644992538162e-01   
4.161000000000000e+09    3.740971520152846e-01    -9.306970945867469e-01   
4.162000000000000e+09    3.731143414248938e-01    -9.315487741405749e-01   
4.163000000000000e+09    3.717434356176749e-01    -9.323636025047899e-01   
4.164000000000000e+09    3.709608710335199e-01    -9.331441452102144e-01   
4.165000000000000e+09    3.699564562377658e-01    -9.333825370351220e-01   
4.166000000000000e+09    3.690046729827423e-01    -9.345889599054401e-01   
4.167000000000000e+09    3.684249138018325e-01    -9.351239633354665e-01   
4.168000000000000e+09    3.674156814829217e-01    -9.356641306003026e-01   
4.169000000000000e+09    3.660709980891594e-01    -9.364717737085237e-01   
4.170000000000000e+09    3.654056006033108e-01    -9.373038481951650e-01   
4.171000000000000e+09    3.642556657579309e-01    -9.375729328367006e-01   
4.172000000000000e+09    3.633201960921459e-01    -9.380440369051226e-01   
4.173000000000000e+09    3.627357440959333e-01    -9.387496185016110e-01   
4.174000000000000e+09    3.615983674127222e-01    -9.393312929517100e-01   
4.175000000000000e+09    3.611398070293912e-01    -9.400080441379265e-01   
4.176000000000000e+09    3.600890674560199e-01    -9.402384266717165e-01   
4.177000000000000e+09    3.594294226262280e-01    -9.405679249087538e-01   
4.178000000000000e+09    3.585734750108056e-01    -9.412192561150929e-01   
4.179000000000000e+09    3.577507645863606e-01    -9.411880928839349e-01   
4.180000000000000e+09    3.569023707874492e-01    -9.419254915191300e-01   
4.181000000000000e+09    3.562931166013498e-01    -9.421952675494387e-01   
4.182000000000000e+09    3.556778798025130e-01    -9.422118322423534e-01   
4.183000000000000e+09    3.548051736958728e-01    -9.427246345287551e-01   
4.184000000000000e+09    3.540368053274013e-01    -9.430039093148720e-01   
4.185000000000000e+09    3.537977229714984e-01    -9.431606570079639e-01   
4.186000000000000e+09    3.526857636045123e-01    -9.430649027801326e-01   
4.187000000000000e+09    3.523016677516073e-01    -9.432786531632241e-01   
4.188000000000000e+09    3.514998838384061e-01    -9.431911357520082e-01   
4.189000000000000e+09    3.506942816358911e-01    -9.438294054202664e-01   
4.190000000000000e+09    3.502039921726446e-01    -9.440914410545138e-01   
4.191000000000000e+09    3.494237119081414e-01    -9.439963906200286e-01   
4.192000000000000e+09    3.490976888836981e-01    -9.441466199684361e-01   
4.193000000000000e+09    3.482585642948451e-01    -9.440156086349756e-01   
4.194000000000000e+09    3.473102158786949e-01    -9.439324998184807e-01   
4.195000000000000e+09    3.469580633119679e-01    -9.438269651179253e-01   
4.196000000000000e+09    3.463293659915378e-01    -9.441830175672520e-01   
4.197000000000000e+09    3.457676655105771e-01    -9.438864090399813e-01   
4.198000000000000e+09    3.451058382991342e-01    -9.438637639629930e-01   
4.199000000000000e+09    3.441124657146699e-01    -9.439226907638626e-01   
4.200000000000000e+09    3.436966978861526e-01    -9.440945537986967e-01   
4.201000000000000e+09    3.417792982491163e-01    -9.460627457606218e-01   
4.202000000000000e+09    3.410717879280407e-01    -9.461741094362657e-01   
4.203000000000000e+09    3.404059928864609e-01    -9.461357290013985e-01   
4.204000000000000e+09    3.397707012147816e-01    -9.461263406033504e-01   
4.205000000000000e+09    3.389098533970025e-01    -9.457215699379423e-01   
4.206000000000000e+09    3.381121571028500e-01    -9.457519191348157e-01   
4.207000000000000e+09    3.371952627727152e-01    -9.456974445858822e-01   
4.208000000000000e+09    3.361560358102614e-01    -9.453729448030798e-01   
4.209000000000000e+09    3.351835639457751e-01    -9.457823192030108e-01   
4.210000000000000e+09    3.344429615375348e-01    -9.454769480853619e-01   
4.211000000000000e+09    3.335856412856928e-01    -9.458850800456140e-01   
4.212000000000000e+09    3.324978978131691e-01    -9.460755015609700e-01   
4.213000000000000e+09    3.312378866469913e-01    -9.457925602820283e-01   
4.214000000000000e+09    3.301152693075265e-01    -9.463378437389395e-01   
4.215000000000000e+09    3.291118874031334e-01    -9.461364239275800e-01   
4.216000000000000e+09    3.277347364668537e-01    -9.462682343124728e-01   
4.217000000000000e+09    3.263975449847156e-01    -9.463748873075395e-01   
4.218000000000000e+09    3.256205272641448e-01    -9.465326037425331e-01   
4.219000000000000e+09    3.245502028182404e-01    -9.468601425222938e-01   
4.220000000000000e+09    3.229839815556579e-01    -9.473706378046369e-01   
4.221000000000000e+09    3.217892926273745e-01    -9.475193101201898e-01   
4.222000000000000e+09    3.202723561346067e-01    -9.475865982730494e-01   
4.223000000000000e+09    3.193374626414140e-01    -9.481922500720520e-01   
4.224000000000000e+09    3.179086833695671e-01    -9.485434915167703e-01   
4.225000000000000e+09    3.165291549515284e-01    -9.491104304794802e-01   
4.226000000000000e+09    3.153817936539663e-01    -9.493278284927502e-01   
4.227000000000000e+09    3.138502757884273e-01    -9.498031324877461e-01   
4.228000000000000e+09    3.126251878118049e-01    -9.506324892709284e-01   
4.229000000000000e+09    3.112796586843634e-01    -9.508193739800800e-01   
4.230000000000000e+09    3.102036002884996e-01    -9.510933002363294e-01   
4.231000000000000e+09    3.084706954745873e-01    -9.521285114335212e-01   
4.232000000000000e+09    3.072692291480097e-01    -9.523567953642050e-01   
4.233000000000000e+09    3.060897281789061e-01    -9.527681782366065e-01   
4.234000000000000e+09    3.040685734204034e-01    -9.536897127037431e-01   
4.235000000000000e+09    3.028150163242515e-01    -9.539687175372311e-01   
4.236000000000000e+09    3.012715636705692e-01    -9.541747309666491e-01   
4.237000000000000e+09    3.000268555520602e-01    -9.547949268293132e-01   
4.238000000000000e+09    2.987937265303581e-01    -9.552273525087482e-01   
4.239000000000000e+09    2.970256332660283e-01    -9.558589830599912e-01   
4.240000000000000e+09    2.956735033650189e-01    -9.565239560359146e-01   
4.241000000000000e+09    2.943182166894368e-01    -9.571308587168412e-01   
4.242000000000000e+09    2.925718635068582e-01    -9.572518652514688e-01   
4.243000000000000e+09    2.909963980409645e-01    -9.581140751798932e-01   
4.244000000000000e+09    2.892498487906275e-01    -9.585862349552278e-01   
4.245000000000000e+09    2.876859940080989e-01    -9.590931195092062e-01   
4.246000000000000e+09    2.862845349448353e-01    -9.592269262667094e-01   
4.247000000000000e+09    2.847787790482754e-01    -9.597811748312516e-01   
4.248000000000000e+09    2.831844668062545e-01    -9.601049941414322e-01   
4.249000000000000e+09    2.819686941954310e-01    -9.609017181126962e-01   
4.250000000000000e+09    2.803866370881751e-01    -9.611334774287955e-01   
4.251000000000000e+09    2.782083337144562e-01    -9.616154108306629e-01   
4.252000000000000e+09    2.765257195897133e-01    -9.620548749540798e-01   
4.253000000000000e+09    2.746886934632535e-01    -9.629834419004007e-01   
4.254000000000000e+09    2.732802842184277e-01    -9.631102755853741e-01   
4.255000000000000e+09    2.713144954777293e-01    -9.636989922295994e-01   
4.256000000000000e+09    2.698648504849441e-01    -9.640559490535531e-01   
