[Version] 2.0
! Rohde & Schwarz Vector Network Analyzer
! Rohde-Schwarz,ZNL20-2Port,1323001220200009,1.71.1.10-23.02.1.238
! 
! Port Assignments:
! Nominal Port -> Actual Test Port
! --------------------------------
!   1 -> 1

! Created: GMT+2 2025-01-17 12:49:12

# Hz S RI R 50

[Number of Ports] 1
[Number of Frequencies] 16001

[Network Data] 
! freq[Hz]               S11[Re]                  S11[Im]                  
4.000000000000000e+09    5.564773478147129e-01    -8.365388244230639e-01   
4.001000000000000e+09    5.550847462268197e-01    -8.375387001785956e-01   
4.002000000000000e+09    5.537343163358980e-01    -8.380454857567801e-01   
4.003000000000000e+09    5.527317828528461e-01    -8.389040533486953e-01   
4.004000000000000e+09    5.514860525476297e-01    -8.396097459601073e-01   
4.005000000000000e+09    5.502137368421653e-01    -8.406540966829809e-01   
4.006000000000000e+09    5.488459544102178e-01    -8.419706971912353e-01   
4.007000000000000e+09    5.481430050708879e-01    -8.426023903605219e-01   
4.008000000000000e+09    5.466941055133325e-01    -8.432481043849619e-01   
4.009000000000000e+09    5.452657657888056e-01    -8.442299958779145e-01   
4.010000000000000e+09    5.442396247175839e-01    -8.451500147796804e-01   
4.011000000000000e+09    5.430575219495213e-01    -8.454647387171756e-01   
4.012000000000000e+09    5.411943279029293e-01    -8.464916283293816e-01   
4.013000000000000e+09    5.400557385728498e-01    -8.469601433463791e-01   
4.014000000000000e+09    5.387213757014634e-01    -8.476622222049007e-01   
4.015000000000000e+09    5.373477801888367e-01    -8.487083126350521e-01   
4.016000000000000e+09    5.364398935539131e-01    -8.489399077938901e-01   
4.017000000000000e+09    5.355620454825072e-01    -8.496931066380945e-01   
4.018000000000000e+09    5.338573980826373e-01    -8.503917766727234e-01   
4.019000000000000e+09    5.327112854375924e-01    -8.507906511121872e-01   
4.020000000000000e+09    5.310053382923233e-01    -8.516446553643512e-01   
4.021000000000000e+09    5.299085407629917e-01    -8.520094623776329e-01   
4.022000000000000e+09    5.288121483054943e-01    -8.526222266841963e-01   
4.023000000000000e+09    5.274085906776864e-01    -8.530158677098644e-01   
4.024000000000000e+09    5.262570040442417e-01    -8.533774142915536e-01   
4.025000000000000e+09    5.249682654689679e-01    -8.539366885295113e-01   
4.026000000000000e+09    5.236105825667688e-01    -8.540265738593957e-01   
4.027000000000000e+09    5.223023321226552e-01    -8.546700690834734e-01   
4.028000000000000e+09    5.207298479853317e-01    -8.552484018576415e-01   
4.029000000000000e+09    5.197945107463472e-01    -8.556448566059177e-01   
4.030000000000000e+09    5.182484634092455e-01    -8.558442409845317e-01   
4.031000000000000e+09    5.171001483056342e-01    -8.563862966404379e-01   
4.032000000000000e+09    5.156564003188624e-01    -8.569467591166369e-01   
4.033000000000000e+09    5.142934645268985e-01    -8.570096216784766e-01   
4.034000000000000e+09    5.128982183145938e-01    -8.577845741161527e-01   
4.035000000000000e+09    5.114319638811488e-01    -8.582499091089254e-01   
4.036000000000000e+09    5.102670785355339e-01    -8.586043508971093e-01   
4.037000000000000e+09    5.088783759445520e-01    -8.590661209284002e-01   
4.038000000000000e+09    5.073712320638748e-01    -8.595324332714585e-01   
4.039000000000000e+09    5.062399125099230e-01    -8.600153480656770e-01   
4.040000000000000e+09    5.047899684673485e-01    -8.606004872595882e-01   
4.041000000000000e+09    5.031613557576242e-01    -8.612261534170523e-01   
4.042000000000000e+09    5.019880710218061e-01    -8.616576250808680e-01   
4.043000000000000e+09    5.006948422636176e-01    -8.622527062613353e-01   
4.044000000000000e+09    4.994010418385818e-01    -8.630140499013620e-01   
4.045000000000000e+09    4.982731503428733e-01    -8.637038324438712e-01   
4.046000000000000e+09    4.969469047759096e-01    -8.644981600388426e-01   
4.047000000000000e+09    4.959356351262384e-01    -8.651965551976074e-01   
4.048000000000000e+09    4.947258703846690e-01    -8.658510928883079e-01   
4.049000000000000e+09    4.933761131178528e-01    -8.664392851014613e-01   
4.050000000000000e+09    4.925271171242605e-01    -8.671195916129742e-01   
4.051000000000000e+09    4.914704059685592e-01    -8.682018427073249e-01   
4.052000000000000e+09    4.904972812695594e-01    -8.691336761800182e-01   
4.053000000000000e+09    4.892918304847332e-01    -8.696433434339423e-01   
4.054000000000000e+09    4.884954104508487e-01    -8.703364086411874e-01   
4.055000000000000e+09    4.875914177436794e-01    -8.710045170950014e-01   
4.056000000000000e+09    4.866308697035793e-01    -8.720516690198662e-01   
4.057000000000000e+09    4.857912847012971e-01    -8.728206067898500e-01   
4.058000000000000e+09    4.847635100012392e-01    -8.735514410439579e-01   
4.059000000000000e+09    4.840142142854440e-01    -8.745372267672707e-01   
4.060000000000000e+09    4.832439974612570e-01    -8.749920808524199e-01   
4.061000000000000e+09    4.824183910971148e-01    -8.763143717873875e-01   
4.062000000000000e+09    4.820503196129328e-01    -8.767749666681351e-01   
4.063000000000000e+09    4.809046654200405e-01    -8.775072534444444e-01   
4.064000000000000e+09    4.806493484995624e-01    -8.783031332760128e-01   
4.065000000000000e+09    4.800767923118637e-01    -8.793100123570592e-01   
4.066000000000000e+09    4.793288863487759e-01    -8.798520021590426e-01   
4.067000000000000e+09    4.784223623631574e-01    -8.806907903734988e-01   
4.068000000000000e+09    4.781775794136909e-01    -8.814482312991442e-01   
4.069000000000000e+09    4.772613138525579e-01    -8.822256744598572e-01   
4.070000000000000e+09    4.767741247123348e-01    -8.830104466263768e-01   
4.071000000000000e+09    4.763577957561809e-01    -8.837230836448567e-01   
4.072000000000000e+09    4.754558005995858e-01    -8.844157927384664e-01   
4.073000000000000e+09    4.749607214973554e-01    -8.851586015093850e-01   
4.074000000000000e+09    4.742355316373484e-01    -8.855986657818854e-01   
4.075000000000000e+09    4.738150311042958e-01    -8.867111115725652e-01   
4.076000000000000e+09    4.730352420775258e-01    -8.873507092743383e-01   
4.077000000000000e+09    4.729793937016504e-01    -8.881057179450115e-01   
4.078000000000000e+09    4.722094292455067e-01    -8.886083130095513e-01   
4.079000000000000e+09    4.717451201046889e-01    -8.895860365524682e-01   
4.080000000000000e+09    4.705299584567317e-01    -8.900702322874182e-01   
4.081000000000000e+09    4.705063367755004e-01    -8.908760130014128e-01   
4.082000000000000e+09    4.697352859973394e-01    -8.913312143110383e-01   
4.083000000000000e+09    4.693060908672622e-01    -8.921100002753992e-01   
4.084000000000000e+09    4.683490709368488e-01    -8.926982267190097e-01   
4.085000000000000e+09    4.679903708783221e-01    -8.930244486542047e-01   
4.086000000000000e+09    4.669754601547619e-01    -8.938672926585699e-01   
4.087000000000000e+09    4.665783913514214e-01    -8.945371906590532e-01   
4.088000000000000e+09    4.654578732898795e-01    -8.946265590330741e-01   
4.089000000000000e+09    4.645481671121896e-01    -8.956822649026326e-01   
4.090000000000000e+09    4.641233302791800e-01    -8.960315208979561e-01   
4.091000000000000e+09    4.637649472316592e-01    -8.964018206088999e-01   
4.092000000000000e+09    4.627016445393222e-01    -8.964238224732168e-01   
4.093000000000000e+09    4.617462875136497e-01    -8.976174018096786e-01   
4.094000000000000e+09    4.612500590365781e-01    -8.976128394901611e-01   
4.095000000000000e+09    4.603293524796770e-01    -8.981047303443038e-01   
4.096000000000000e+09    4.594238917974479e-01    -8.982406948646965e-01   
4.097000000000000e+09    4.586325960678806e-01    -8.987640088637933e-01   
4.098000000000000e+09    4.577429919232774e-01    -8.995506828364689e-01   
4.099000000000000e+09    4.569632047414537e-01    -8.992300024488390e-01   
4.100000000000000e+09    4.561933486236729e-01    -8.994531895173981e-01   
4.101000000000000e+09    4.552539875942851e-01    -8.996060016550862e-01   
4.102000000000000e+09    4.539419064661832e-01    -9.002799819445233e-01   
4.103000000000000e+09    4.532388394657522e-01    -9.000163947063650e-01   
4.104000000000000e+09    4.522052911237588e-01    -9.002975705031816e-01   
4.105000000000000e+09    4.514441564401723e-01    -9.008243950821486e-01   
4.106000000000000e+09    4.504136429831784e-01    -9.011426794716100e-01   
4.107000000000000e+09    4.495146804392249e-01    -9.008951116434720e-01   
4.108000000000000e+09    4.484680162443884e-01    -9.012458494612045e-01   
4.109000000000000e+09    4.472609746643562e-01    -9.013139060028508e-01   
4.110000000000000e+09    4.461721583409233e-01    -9.013198372359886e-01   
4.111000000000000e+09    4.451851008351738e-01    -9.016244489190106e-01   
4.112000000000000e+09    4.438150748681110e-01    -9.016324098241343e-01   
4.113000000000000e+09    4.428957858350697e-01    -9.019902106332082e-01   
4.114000000000000e+09    4.416225213997430e-01    -9.020006407080889e-01   
4.115000000000000e+09    4.399956114157135e-01    -9.017495947013949e-01   
4.116000000000000e+09    4.388262140882063e-01    -9.017250223344231e-01   
4.117000000000000e+09    4.376945944459827e-01    -9.020986439402546e-01   
4.118000000000000e+09    4.360380280036064e-01    -9.021177531717420e-01   
4.119000000000000e+09    4.347291344365320e-01    -9.021816381500390e-01   
4.120000000000000e+09    4.331939985775375e-01    -9.024327432508177e-01   
4.121000000000000e+09    4.318338464883603e-01    -9.026948873055390e-01   
4.122000000000000e+09    4.302254154352526e-01    -9.029916957731722e-01   
4.123000000000000e+09    4.285685544452784e-01    -9.027541093016543e-01   
4.124000000000000e+09    4.271045017138586e-01    -9.033685619064277e-01   
4.125000000000000e+09    4.254172487207558e-01    -9.037901723868518e-01   
4.126000000000000e+09    4.236542979533718e-01    -9.038251714861719e-01   
4.127000000000000e+09    4.222865526274458e-01    -9.043559197104475e-01   
4.128000000000000e+09    4.204985699795524e-01    -9.045978862919281e-01   
4.129000000000000e+09    4.190051799892348e-01    -9.050041855057465e-01   
4.130000000000000e+09    4.171112387172197e-01    -9.055702715629770e-01   
4.131000000000000e+09    4.153832518582521e-01    -9.064639991751731e-01   
4.132000000000000e+09    4.137031358002656e-01    -9.067776669124773e-01   
4.133000000000000e+09    4.122547045393257e-01    -9.073795112667739e-01   
4.134000000000000e+09    4.106211913716754e-01    -9.076508349257584e-01   
4.135000000000000e+09    4.088752594168126e-01    -9.085701406327946e-01   
4.136000000000000e+09    4.072592864750054e-01    -9.091321997132881e-01   
4.137000000000000e+09    4.054389906195675e-01    -9.100760445224304e-01   
4.138000000000000e+09    4.040525231256308e-01    -9.107038747630610e-01   
4.139000000000000e+09    4.021580975613118e-01    -9.117201502743355e-01   
4.140000000000000e+09    4.008744755544136e-01    -9.123028084378824e-01   
4.141000000000000e+09    3.994037874082993e-01    -9.132542486468936e-01   
4.142000000000000e+09    3.975843957589386e-01    -9.138352071667306e-01   
4.143000000000000e+09    3.965473412079675e-01    -9.149112642771436e-01   
4.144000000000000e+09    3.949636330209211e-01    -9.160006260922036e-01   
4.145000000000000e+09    3.936021207582248e-01    -9.166431161932264e-01   
4.146000000000000e+09    3.922934379678428e-01    -9.173454666391846e-01   
4.147000000000000e+09    3.907344529877094e-01    -9.182562774356586e-01   
4.148000000000000e+09    3.893988549487308e-01    -9.191836832293976e-01   
4.149000000000000e+09    3.880166593625218e-01    -9.198385583998708e-01   
4.150000000000000e+09    3.867512954561994e-01    -9.209422858385021e-01   
4.151000000000000e+09    3.855050188952152e-01    -9.216288907304712e-01   
4.152000000000000e+09    3.845074090604923e-01    -9.228058318989747e-01   
4.153000000000000e+09    3.827991753312586e-01    -9.240616697526254e-01   
4.154000000000000e+09    3.816780963267906e-01    -9.247147467022278e-01   
4.155000000000000e+09    3.805412051778808e-01    -9.257885832532089e-01   
4.156000000000000e+09    3.795770024296942e-01    -9.263106192936547e-01   
4.157000000000000e+09    3.780857830091063e-01    -9.277210753311057e-01   
4.158000000000000e+09    3.772996314141089e-01    -9.280483358544154e-01   
4.159000000000000e+09    3.759108288761581e-01    -9.288705355500035e-01   
4.160000000000000e+09    3.752824986515218e-01    -9.300796651474528e-01   
4.161000000000000e+09    3.741448704560809e-01    -9.306526848327726e-01   
4.162000000000000e+09    3.730195490169515e-01    -9.315386002719515e-01   
4.163000000000000e+09    3.720769148084404e-01    -9.323477559816528e-01   
4.164000000000000e+09    3.711855692390899e-01    -9.329320325273870e-01   
4.165000000000000e+09    3.697566848481315e-01    -9.339780894372056e-01   
4.166000000000000e+09    3.691518137520602e-01    -9.347449702179538e-01   
4.167000000000000e+09    3.682320180298482e-01    -9.348086038499430e-01   
4.168000000000000e+09    3.673378448005307e-01    -9.356304968992811e-01   
4.169000000000000e+09    3.659669893950454e-01    -9.365925273822590e-01   
4.170000000000000e+09    3.656517782591963e-01    -9.368646766639439e-01   
4.171000000000000e+09    3.643277724830956e-01    -9.373688962575052e-01   
4.172000000000000e+09    3.635040524228950e-01    -9.384809154426321e-01   
4.173000000000000e+09    3.628899404916479e-01    -9.389162708789226e-01   
4.174000000000000e+09    3.616613234075017e-01    -9.392631991188107e-01   
4.175000000000000e+09    3.611236230143040e-01    -9.397804125594270e-01   
4.176000000000000e+09    3.601773928585809e-01    -9.403618304970720e-01   
4.177000000000000e+09    3.597229643657455e-01    -9.405385949419603e-01   
4.178000000000000e+09    3.585477126769571e-01    -9.412002740734734e-01   
4.179000000000000e+09    3.579732186067343e-01    -9.415327341769636e-01   
4.180000000000000e+09    3.571169642746717e-01    -9.416661611415040e-01   
4.181000000000000e+09    3.564155906841405e-01    -9.421649188216576e-01   
4.182000000000000e+09    3.555835764252743e-01    -9.422404259384665e-01   
4.183000000000000e+09    3.547451919908736e-01    -9.426092514119903e-01   
4.184000000000000e+09    3.545451070541230e-01    -9.428355141283424e-01   
4.185000000000000e+09    3.536392786536917e-01    -9.430526979111803e-01   
4.186000000000000e+09    3.528444538025840e-01    -9.432331485402042e-01   
4.187000000000000e+09    3.523059725177904e-01    -9.431582067104757e-01   
4.188000000000000e+09    3.513628806510307e-01    -9.434314921278307e-01   
4.189000000000000e+09    3.511945173711828e-01    -9.435507695716981e-01   
4.190000000000000e+09    3.503325642785995e-01    -9.440384817354300e-01   
4.191000000000000e+09    3.494368868056199e-01    -9.438532370937359e-01   
4.192000000000000e+09    3.491759641820530e-01    -9.439543338572145e-01   
4.193000000000000e+09    3.485416018051162e-01    -9.442402203755075e-01   
4.194000000000000e+09    3.480626853487857e-01    -9.440675978042624e-01   
4.195000000000000e+09    3.471022032005825e-01    -9.442484054832803e-01   
4.196000000000000e+09    3.460594289990790e-01    -9.439977475209138e-01   
4.197000000000000e+09    3.457695071503520e-01    -9.440742370560951e-01   
4.198000000000000e+09    3.450360991686451e-01    -9.439419276861242e-01   
4.199000000000000e+09    3.440889439164851e-01    -9.439502329044065e-01   
4.200000000000000e+09    3.435130560719610e-01    -9.441309274602225e-01   
4.201000000000000e+09    3.416337898483217e-01    -9.458164035565856e-01   
4.202000000000000e+09    3.409309034751191e-01    -9.460168687616671e-01   
4.203000000000000e+09    3.403529721243369e-01    -9.460565712959700e-01   
4.204000000000000e+09    3.396286025764840e-01    -9.458503487473124e-01   
4.205000000000000e+09    3.388927952999465e-01    -9.457067115058864e-01   
4.206000000000000e+09    3.383615698210242e-01    -9.455747518642683e-01   
4.207000000000000e+09    3.373469631524330e-01    -9.456760494532309e-01   
4.208000000000000e+09    3.362749585765609e-01    -9.456298639810693e-01   
4.209000000000000e+09    3.353093116898286e-01    -9.456019948558571e-01   
4.210000000000000e+09    3.343977455213658e-01    -9.456872888509873e-01   
4.211000000000000e+09    3.334972154296750e-01    -9.458666971952880e-01   
4.212000000000000e+09    3.324586188500580e-01    -9.458890120626369e-01   
4.213000000000000e+09    3.312445221573486e-01    -9.456410026426799e-01   
4.214000000000000e+09    3.301848013700815e-01    -9.457128570862864e-01   
4.215000000000000e+09    3.292840778451181e-01    -9.461024441903265e-01   
4.216000000000000e+09    3.278090337163946e-01    -9.462333937596712e-01   
4.217000000000000e+09    3.266127239225741e-01    -9.465141949904012e-01   
4.218000000000000e+09    3.255507248706756e-01    -9.467738343990550e-01   
4.219000000000000e+09    3.244068540527635e-01    -9.467097292697305e-01   
4.220000000000000e+09    3.229537990125771e-01    -9.470885665063092e-01   
4.221000000000000e+09    3.219897436126040e-01    -9.474199220071784e-01   
4.222000000000000e+09    3.204471501476103e-01    -9.476487252765126e-01   
4.223000000000000e+09    3.193854379302185e-01    -9.483246827067323e-01   
4.224000000000000e+09    3.181404188071150e-01    -9.486324791226632e-01   
4.225000000000000e+09    3.167472954462477e-01    -9.492174549338170e-01   
4.226000000000000e+09    3.151884888031487e-01    -9.495265397071707e-01   
4.227000000000000e+09    3.139530685040106e-01    -9.501128074038159e-01   
4.228000000000000e+09    3.125609509261392e-01    -9.503146530585407e-01   
4.229000000000000e+09    3.111976066892542e-01    -9.508939419149403e-01   
4.230000000000000e+09    3.100865026596051e-01    -9.511788708474451e-01   
4.231000000000000e+09    3.086218134794803e-01    -9.516964864356262e-01   
4.232000000000000e+09    3.072475813233715e-01    -9.520378944537362e-01   
4.233000000000000e+09    3.060613001377679e-01    -9.526027346845999e-01   
4.234000000000000e+09    3.042726196434947e-01    -9.536865923658930e-01   
4.235000000000000e+09    3.029290705546801e-01    -9.538908363918175e-01   
4.236000000000000e+09    3.011175045821628e-01    -9.544038393784735e-01   
4.237000000000000e+09    3.003984976372741e-01    -9.546780420885950e-01   
4.238000000000000e+09    2.985494192617785e-01    -9.551756424617711e-01   
4.239000000000000e+09    2.972738451111269e-01    -9.560310382696325e-01   
4.240000000000000e+09    2.957950690648573e-01    -9.566145427922945e-01   
4.241000000000000e+09    2.944787070188600e-01    -9.570044054574743e-01   
4.242000000000000e+09    2.922797093715317e-01    -9.571905030855485e-01   
4.243000000000000e+09    2.907877813868837e-01    -9.580679675330139e-01   
4.244000000000000e+09    2.893865226055067e-01    -9.585187918212857e-01   
4.245000000000000e+09    2.876873116691706e-01    -9.588798777527383e-01   
4.246000000000000e+09    2.865056010070598e-01    -9.592809912020134e-01   
4.247000000000000e+09    2.848133175301236e-01    -9.595885249651306e-01   
4.248000000000000e+09    2.831956727842538e-01    -9.602101744225745e-01   
4.249000000000000e+09    2.815760022809812e-01    -9.608951455914121e-01   
4.250000000000000e+09    2.799277374393631e-01    -9.613730580328558e-01   
4.251000000000000e+09    2.781805734794757e-01    -9.614145779599401e-01   
4.252000000000000e+09    2.763516295672365e-01    -9.622606397410720e-01   
4.253000000000000e+09    2.747216101535292e-01    -9.628588886952200e-01   
4.254000000000000e+09    2.732297924930130e-01    -9.632055128712627e-01   
4.255000000000000e+09    2.714625809741307e-01    -9.638608589425041e-01   
4.256000000000000e+09    2.698616440671303e-01    -9.642886325122886e-01   
