[Version] 2.0
! Rohde & Schwarz Vector Network Analyzer
! Rohde-Schwarz,ZNL20-2Port,1323001220200009,1.71.1.10-23.02.1.238
! 
! Port Assignments:
! Nominal Port -> Actual Test Port
! --------------------------------
!   1 -> 1

! Created: GMT+2 2025-01-17 12:49:32

# Hz S RI R 50

[Number of Ports] 1
[Number of Frequencies] 16001

[Network Data] 
! freq[Hz]               S11[Re]                  S11[Im]                  
4.000000000000000e+09    5.563156959703253e-01    -8.366288529620860e-01   
4.001000000000000e+09    5.556274607613259e-01    -8.371197780907664e-01   
4.002000000000000e+09    5.541384639766951e-01    -8.381731349634782e-01   
4.003000000000000e+09    5.527988097065775e-01    -8.388731865260597e-01   
4.004000000000000e+09    5.518971981992419e-01    -8.396143084909510e-01   
4.005000000000000e+09    5.504146995613076e-01    -8.406826436444409e-01   
4.006000000000000e+09    5.493771380997950e-01    -8.413817025558296e-01   
4.007000000000000e+09    5.483553667051971e-01    -8.423231641371851e-01   
4.008000000000000e+09    5.463700819214049e-01    -8.432591420906748e-01   
4.009000000000000e+09    5.454553765608247e-01    -8.441545914742190e-01   
4.010000000000000e+09    5.444862821880084e-01    -8.445825086661252e-01   
4.011000000000000e+09    5.428776808094705e-01    -8.456010055247081e-01   
4.012000000000000e+09    5.413932833700059e-01    -8.463503428753276e-01   
4.013000000000000e+09    5.402583388949597e-01    -8.468414474106393e-01   
4.014000000000000e+09    5.391873971945286e-01    -8.476064385119321e-01   
4.015000000000000e+09    5.374217071708443e-01    -8.485131534390586e-01   
4.016000000000000e+09    5.362362784892087e-01    -8.491720548598317e-01   
4.017000000000000e+09    5.352382149210607e-01    -8.496045725877338e-01   
4.018000000000000e+09    5.337560990546166e-01    -8.500599909680938e-01   
4.019000000000000e+09    5.327852299525063e-01    -8.505126802355341e-01   
4.020000000000000e+09    5.314903607913215e-01    -8.515809730425957e-01   
4.021000000000000e+09    5.300497092174334e-01    -8.518354858074892e-01   
4.022000000000000e+09    5.283971760261114e-01    -8.522073478602468e-01   
4.023000000000000e+09    5.274946506936069e-01    -8.526236140544409e-01   
4.024000000000000e+09    5.259464448861887e-01    -8.532616509604560e-01   
4.025000000000000e+09    5.248008640157428e-01    -8.537320807307972e-01   
4.026000000000000e+09    5.235689885033492e-01    -8.543385521022527e-01   
4.027000000000000e+09    5.223967793970955e-01    -8.543045241142291e-01   
4.028000000000000e+09    5.212078574391242e-01    -8.549423830042444e-01   
4.029000000000000e+09    5.196074308759734e-01    -8.556894065508444e-01   
4.030000000000000e+09    5.184855585691357e-01    -8.558214322621994e-01   
4.031000000000000e+09    5.171189177753784e-01    -8.561159200677645e-01   
4.032000000000000e+09    5.156836460050094e-01    -8.566887186709998e-01   
4.033000000000000e+09    5.143773812503794e-01    -8.572119855216831e-01   
4.034000000000000e+09    5.129073852874153e-01    -8.577914057022323e-01   
4.035000000000000e+09    5.115745017907413e-01    -8.579981854269896e-01   
4.036000000000000e+09    5.102880674529430e-01    -8.583472697129997e-01   
4.037000000000000e+09    5.089832072491889e-01    -8.589869669457054e-01   
4.038000000000000e+09    5.075474694377549e-01    -8.595635127255858e-01   
4.039000000000000e+09    5.059112192678754e-01    -8.598455774680432e-01   
4.040000000000000e+09    5.048434293834954e-01    -8.604286342611270e-01   
4.041000000000000e+09    5.034718519184505e-01    -8.610288002270108e-01   
4.042000000000000e+09    5.019926613041296e-01    -8.617282407580057e-01   
4.043000000000000e+09    5.008891834964987e-01    -8.623312083505705e-01   
4.044000000000000e+09    4.994707185277300e-01    -8.630420028846085e-01   
4.045000000000000e+09    4.983932342699812e-01    -8.635484225748870e-01   
4.046000000000000e+09    4.967490925770185e-01    -8.643809420588326e-01   
4.047000000000000e+09    4.958252891591076e-01    -8.651228450687575e-01   
4.048000000000000e+09    4.948658052210094e-01    -8.659522200522156e-01   
4.049000000000000e+09    4.935485566250146e-01    -8.663474359964649e-01   
4.050000000000000e+09    4.927561347202048e-01    -8.672173405611894e-01   
4.051000000000000e+09    4.916293749457183e-01    -8.681134833291761e-01   
4.052000000000000e+09    4.905410290189534e-01    -8.692188486547479e-01   
4.053000000000000e+09    4.894285776642737e-01    -8.696320850065840e-01   
4.054000000000000e+09    4.884958705035732e-01    -8.704164777047773e-01   
4.055000000000000e+09    4.875943874275752e-01    -8.712641990976229e-01   
4.056000000000000e+09    4.867561473613925e-01    -8.721766091052299e-01   
4.057000000000000e+09    4.858677057669923e-01    -8.726917158844798e-01   
4.058000000000000e+09    4.848493366768901e-01    -8.736308670181908e-01   
4.059000000000000e+09    4.842487323786568e-01    -8.743196278882527e-01   
4.060000000000000e+09    4.834771223051820e-01    -8.752394339568642e-01   
4.061000000000000e+09    4.827327859257907e-01    -8.759715970239323e-01   
4.062000000000000e+09    4.819738422515586e-01    -8.769772721933148e-01   
4.063000000000000e+09    4.813371460197160e-01    -8.777182580095126e-01   
4.064000000000000e+09    4.804154678458442e-01    -8.785124522200732e-01   
4.065000000000000e+09    4.799732828859168e-01    -8.790864618624914e-01   
4.066000000000000e+09    4.794782596851139e-01    -8.799389891270746e-01   
4.067000000000000e+09    4.785068840347594e-01    -8.807730956024654e-01   
4.068000000000000e+09    4.780570959094066e-01    -8.813130682410745e-01   
4.069000000000000e+09    4.775103812438453e-01    -8.825530522978352e-01   
4.070000000000000e+09    4.768133760127010e-01    -8.827839398529249e-01   
4.071000000000000e+09    4.764479544186617e-01    -8.837792998364644e-01   
4.072000000000000e+09    4.756841026881600e-01    -8.842266044549594e-01   
4.073000000000000e+09    4.752554840442983e-01    -8.852509439387262e-01   
4.074000000000000e+09    4.743991167847963e-01    -8.860160014479570e-01   
4.075000000000000e+09    4.738783171888939e-01    -8.866575011839151e-01   
4.076000000000000e+09    4.735900181491036e-01    -8.870301634404291e-01   
4.077000000000000e+09    4.724969102889057e-01    -8.880387205095738e-01   
4.078000000000000e+09    4.722508392925079e-01    -8.887085762378538e-01   
4.079000000000000e+09    4.716069258063680e-01    -8.894529844801763e-01   
4.080000000000000e+09    4.712384196255475e-01    -8.900108294047498e-01   
4.081000000000000e+09    4.706982050563615e-01    -8.906431697328582e-01   
4.082000000000000e+09    4.700512438687005e-01    -8.909483434139979e-01   
4.083000000000000e+09    4.690315342232870e-01    -8.918926169705146e-01   
4.084000000000000e+09    4.687916936558358e-01    -8.926601968664603e-01   
4.085000000000000e+09    4.676215784313383e-01    -8.931316251612893e-01   
4.086000000000000e+09    4.674175087726498e-01    -8.934345106146988e-01   
4.087000000000000e+09    4.665011802872890e-01    -8.941642506755370e-01   
4.088000000000000e+09    4.658199899839328e-01    -8.945733561695803e-01   
4.089000000000000e+09    4.651828102476035e-01    -8.956071907270415e-01   
4.090000000000000e+09    4.642268336205498e-01    -8.958702919060277e-01   
4.091000000000000e+09    4.636184691685591e-01    -8.960895289133157e-01   
4.092000000000000e+09    4.625906123805559e-01    -8.970228648016966e-01   
4.093000000000000e+09    4.623002976304138e-01    -8.969557372926035e-01   
4.094000000000000e+09    4.612247466611267e-01    -8.972542062913890e-01   
4.095000000000000e+09    4.601586755251774e-01    -8.981220566917081e-01   
4.096000000000000e+09    4.593447200852931e-01    -8.978330356790699e-01   
4.097000000000000e+09    4.588190505181355e-01    -8.986663706245173e-01   
4.098000000000000e+09    4.576078162338195e-01    -8.991648627912385e-01   
4.099000000000000e+09    4.570175727175813e-01    -8.990302863694367e-01   
4.100000000000000e+09    4.559906582181903e-01    -8.993153121926827e-01   
4.101000000000000e+09    4.552883717444408e-01    -8.998280703826305e-01   
4.102000000000000e+09    4.540661931163544e-01    -8.995884357205185e-01   
4.103000000000000e+09    4.533450525131731e-01    -8.999291053205557e-01   
4.104000000000000e+09    4.525273615358530e-01    -9.001958786994618e-01   
4.105000000000000e+09    4.514854289615389e-01    -9.005414634388061e-01   
4.106000000000000e+09    4.505262798234268e-01    -9.008361109378373e-01   
4.107000000000000e+09    4.494475448272279e-01    -9.006913720766828e-01   
4.108000000000000e+09    4.482202351817959e-01    -9.011365339184267e-01   
4.109000000000000e+09    4.472632833753028e-01    -9.010595033593366e-01   
4.110000000000000e+09    4.461281822509985e-01    -9.012300377987144e-01   
4.111000000000000e+09    4.451178106432060e-01    -9.011549054450185e-01   
4.112000000000000e+09    4.439920050543543e-01    -9.014296729685733e-01   
4.113000000000000e+09    4.428570147959956e-01    -9.017160692109804e-01   
4.114000000000000e+09    4.413850068291373e-01    -9.018442489386300e-01   
4.115000000000000e+09    4.401529779016295e-01    -9.018890543775834e-01   
4.116000000000000e+09    4.389328735696023e-01    -9.019625253116710e-01   
4.117000000000000e+09    4.375960194300161e-01    -9.021078112809828e-01   
4.118000000000000e+09    4.361705725116649e-01    -9.018366013100584e-01   
4.119000000000000e+09    4.346674004339938e-01    -9.023383624407212e-01   
4.120000000000000e+09    4.333269154929280e-01    -9.025607709501954e-01   
4.121000000000000e+09    4.317069756292547e-01    -9.026024968539138e-01   
4.122000000000000e+09    4.299726886668898e-01    -9.028999355452714e-01   
4.123000000000000e+09    4.286811583310446e-01    -9.030268773230453e-01   
4.124000000000000e+09    4.270304031586113e-01    -9.032243633259114e-01   
4.125000000000000e+09    4.257261425147461e-01    -9.034810739637688e-01   
4.126000000000000e+09    4.235930642512074e-01    -9.038623476726609e-01   
4.127000000000000e+09    4.220375352969621e-01    -9.043661766139623e-01   
4.128000000000000e+09    4.203848086953235e-01    -9.044367616321549e-01   
4.129000000000000e+09    4.188713481689048e-01    -9.051005420443110e-01   
4.130000000000000e+09    4.172106506749900e-01    -9.054870061032108e-01   
4.131000000000000e+09    4.155115526150988e-01    -9.062733670753814e-01   
4.132000000000000e+09    4.140575432942048e-01    -9.067085502034651e-01   
4.133000000000000e+09    4.122644286468418e-01    -9.073278491913277e-01   
4.134000000000000e+09    4.105953874740324e-01    -9.076602893625842e-01   
4.135000000000000e+09    4.086867800902900e-01    -9.085989868668018e-01   
4.136000000000000e+09    4.072253902233257e-01    -9.094292640044401e-01   
4.137000000000000e+09    4.057831149407201e-01    -9.101631846861303e-01   
4.138000000000000e+09    4.040098060902629e-01    -9.104251474017557e-01   
4.139000000000000e+09    4.025212779837377e-01    -9.115419164400389e-01   
4.140000000000000e+09    4.009407905794867e-01    -9.121659219542740e-01   
4.141000000000000e+09    3.995071446510116e-01    -9.132583144991294e-01   
4.142000000000000e+09    3.976482411047854e-01    -9.141138599939244e-01   
4.143000000000000e+09    3.964665730758056e-01    -9.148117263970619e-01   
4.144000000000000e+09    3.950609961097564e-01    -9.156330180698677e-01   
4.145000000000000e+09    3.932988625957470e-01    -9.164923377939873e-01   
4.146000000000000e+09    3.921488839342457e-01    -9.171838054589928e-01   
4.147000000000000e+09    3.908075352779616e-01    -9.182171400468903e-01   
4.148000000000000e+09    3.895832682582723e-01    -9.190840839132255e-01   
4.149000000000000e+09    3.883425609831704e-01    -9.200244625382273e-01   
4.150000000000000e+09    3.869741111625639e-01    -9.209712711314898e-01   
4.151000000000000e+09    3.857650292100163e-01    -9.219102486192247e-01   
4.152000000000000e+09    3.843283030112960e-01    -9.227576930532231e-01   
4.153000000000000e+09    3.829702765637890e-01    -9.239295566671393e-01   
4.154000000000000e+09    3.818037757124172e-01    -9.249406534345478e-01   
4.155000000000000e+09    3.805209236410665e-01    -9.256490197255899e-01   
4.156000000000000e+09    3.796919647676532e-01    -9.261815912928760e-01   
4.157000000000000e+09    3.783335874110063e-01    -9.274709958748333e-01   
4.158000000000000e+09    3.775927635093760e-01    -9.283076937477993e-01   
4.159000000000000e+09    3.759684013951690e-01    -9.289762363881482e-01   
4.160000000000000e+09    3.752530260534871e-01    -9.298385334244482e-01   
4.161000000000000e+09    3.743551175669174e-01    -9.308701154061132e-01   
4.162000000000000e+09    3.730544652202848e-01    -9.313981531827791e-01   
4.163000000000000e+09    3.722391080278023e-01    -9.323671410167602e-01   
4.164000000000000e+09    3.713117337259058e-01    -9.330082043100855e-01   
4.165000000000000e+09    3.702821201353641e-01    -9.338132386666197e-01   
4.166000000000000e+09    3.693725249223929e-01    -9.348003167929497e-01   
4.167000000000000e+09    3.686200245683822e-01    -9.350434895340862e-01   
4.168000000000000e+09    3.675004050341613e-01    -9.356199073910942e-01   
4.169000000000000e+09    3.664590825712929e-01    -9.364225416284083e-01   
4.170000000000000e+09    3.656283947299747e-01    -9.368288134293126e-01   
4.171000000000000e+09    3.644843031569128e-01    -9.375225698557825e-01   
4.172000000000000e+09    3.640009188940004e-01    -9.378369177363627e-01   
4.173000000000000e+09    3.627744206110760e-01    -9.389689840406982e-01   
4.174000000000000e+09    3.620464476765613e-01    -9.394061221043725e-01   
4.175000000000000e+09    3.612826054666460e-01    -9.398397802720416e-01   
4.176000000000000e+09    3.601897682562776e-01    -9.400830560593622e-01   
4.177000000000000e+09    3.595616639008225e-01    -9.403505025942706e-01   
4.178000000000000e+09    3.585328135335832e-01    -9.407512938676623e-01   
4.179000000000000e+09    3.576390001075112e-01    -9.414280706437759e-01   
4.180000000000000e+09    3.572298391376499e-01    -9.417219578890471e-01   
4.181000000000000e+09    3.564530484448169e-01    -9.420910025821385e-01   
4.182000000000000e+09    3.558678981263393e-01    -9.423525231275272e-01   
4.183000000000000e+09    3.551813638907100e-01    -9.425673468079429e-01   
4.184000000000000e+09    3.541450221441151e-01    -9.426651653015711e-01   
4.185000000000000e+09    3.541115553106571e-01    -9.428721982294314e-01   
4.186000000000000e+09    3.529945126706542e-01    -9.432848340067734e-01   
4.187000000000000e+09    3.525994878955717e-01    -9.429756463580180e-01   
4.188000000000000e+09    3.515538472151229e-01    -9.430539229685291e-01   
4.189000000000000e+09    3.510114089013497e-01    -9.435357592922872e-01   
4.190000000000000e+09    3.503518953615284e-01    -9.433906956090433e-01   
4.191000000000000e+09    3.498572282215356e-01    -9.436709450906093e-01   
4.192000000000000e+09    3.494556377817135e-01    -9.439448901158511e-01   
4.193000000000000e+09    3.486890680566135e-01    -9.441360283238708e-01   
4.194000000000000e+09    3.477083824165796e-01    -9.439526440834868e-01   
4.195000000000000e+09    3.475317761665697e-01    -9.436912360888845e-01   
4.196000000000000e+09    3.466498265654923e-01    -9.442071297980215e-01   
4.197000000000000e+09    3.458471633523529e-01    -9.440809388767939e-01   
4.198000000000000e+09    3.454046473707610e-01    -9.438299152285081e-01   
4.199000000000000e+09    3.445946577612102e-01    -9.438115827677872e-01   
4.200000000000000e+09    3.438925839492136e-01    -9.443648689590801e-01   
4.201000000000000e+09    3.418483507443553e-01    -9.458432467737643e-01   
4.202000000000000e+09    3.411039728557874e-01    -9.460025761482065e-01   
4.203000000000000e+09    3.406560228934368e-01    -9.460233863072766e-01   
4.204000000000000e+09    3.399313141616555e-01    -9.456895829886942e-01   
4.205000000000000e+09    3.390577565951676e-01    -9.457443367887505e-01   
4.206000000000000e+09    3.382738078267388e-01    -9.457848377649322e-01   
4.207000000000000e+09    3.373014831432268e-01    -9.452986167318785e-01   
4.208000000000000e+09    3.362784922452831e-01    -9.454658138595462e-01   
4.209000000000000e+09    3.351463051263414e-01    -9.456772812960968e-01   
4.210000000000000e+09    3.347878544933772e-01    -9.456660318643686e-01   
4.211000000000000e+09    3.337049692074242e-01    -9.455801865273665e-01   
4.212000000000000e+09    3.324858815623152e-01    -9.457193369604627e-01   
4.213000000000000e+09    3.312554348556604e-01    -9.458634486188927e-01   
4.214000000000000e+09    3.303511818084647e-01    -9.460610035287764e-01   
4.215000000000000e+09    3.292470484196872e-01    -9.460037543689062e-01   
4.216000000000000e+09    3.279807421004003e-01    -9.462795443751632e-01   
4.217000000000000e+09    3.267489229567445e-01    -9.464939569103553e-01   
4.218000000000000e+09    3.257111010019864e-01    -9.467691546691462e-01   
4.219000000000000e+09    3.247160581233434e-01    -9.470317133242682e-01   
4.220000000000000e+09    3.229534412116088e-01    -9.470716849750052e-01   
4.221000000000000e+09    3.218431754494223e-01    -9.474040035971363e-01   
4.222000000000000e+09    3.207288723140538e-01    -9.475144638129265e-01   
4.223000000000000e+09    3.192108037096484e-01    -9.479629881734065e-01   
4.224000000000000e+09    3.179459816534495e-01    -9.488689342074849e-01   
4.225000000000000e+09    3.168733381396170e-01    -9.488468386409550e-01   
4.226000000000000e+09    3.154305327678474e-01    -9.494421354325612e-01   
4.227000000000000e+09    3.141754057422846e-01    -9.500074644672792e-01   
4.228000000000000e+09    3.127907166677120e-01    -9.504930478167197e-01   
4.229000000000000e+09    3.114887239258923e-01    -9.506626237737814e-01   
4.230000000000000e+09    3.097985045795076e-01    -9.513652169089201e-01   
4.231000000000000e+09    3.085514667635877e-01    -9.516641988831750e-01   
4.232000000000000e+09    3.075596955980360e-01    -9.522843393188315e-01   
4.233000000000000e+09    3.063055689234431e-01    -9.527629613379340e-01   
4.234000000000000e+09    3.042714600304530e-01    -9.535881317105964e-01   
4.235000000000000e+09    3.030692570170648e-01    -9.538922223683214e-01   
4.236000000000000e+09    3.017349873234428e-01    -9.543737560743204e-01   
4.237000000000000e+09    3.003060254686897e-01    -9.548901128805827e-01   
4.238000000000000e+09    2.989555952418092e-01    -9.554742762281832e-01   
4.239000000000000e+09    2.974103779953107e-01    -9.560393535850624e-01   
4.240000000000000e+09    2.957060628303922e-01    -9.562361066161561e-01   
4.241000000000000e+09    2.943146053737170e-01    -9.567347697034593e-01   
4.242000000000000e+09    2.926701692783813e-01    -9.576568810875363e-01   
4.243000000000000e+09    2.912188965372489e-01    -9.578534696650988e-01   
4.244000000000000e+09    2.893555594554259e-01    -9.583271998078484e-01   
4.245000000000000e+09    2.879802244847998e-01    -9.588839452164865e-01   
4.246000000000000e+09    2.864732026941288e-01    -9.593160686523250e-01   
4.247000000000000e+09    2.849135605414642e-01    -9.597320492111916e-01   
4.248000000000000e+09    2.834005676294171e-01    -9.600189812530546e-01   
4.249000000000000e+09    2.815979991216785e-01    -9.605257754276718e-01   
4.250000000000000e+09    2.802493222975147e-01    -9.609702026545045e-01   
4.251000000000000e+09    2.785818372554031e-01    -9.616601034958427e-01   
4.252000000000000e+09    2.764799047343421e-01    -9.623392330037382e-01   
4.253000000000000e+09    2.748177471865033e-01    -9.627409569674468e-01   
4.254000000000000e+09    2.735295698279607e-01    -9.630974760421294e-01   
4.255000000000000e+09    2.715539493586587e-01    -9.636663468290926e-01   
4.256000000000000e+09    2.694438462618906e-01    -9.638840661317853e-01   
