[Version] 2.0
! Rohde & Schwarz Vector Network Analyzer
! Rohde-Schwarz,ZNL20-2Port,1323001220200009,1.71.1.10-23.02.1.238
! 
! Port Assignments:
! Nominal Port -> Actual Test Port
! --------------------------------
!   1 -> 1

! Created: GMT+2 2025-01-17 12:49:50

# Hz S RI R 50

[Number of Ports] 1
[Number of Frequencies] 16001

[Network Data] 
! freq[Hz]               S11[Re]                  S11[Im]                  
4.000000000000000e+09    5.565061001068627e-01    -8.364905828300598e-01   
4.001000000000000e+09    5.553184927895124e-01    -8.370347219828417e-01   
4.002000000000000e+09    5.540818632110130e-01    -8.380411036319397e-01   
4.003000000000000e+09    5.530895762875967e-01    -8.389225218795050e-01   
4.004000000000000e+09    5.517422737278748e-01    -8.397353667868001e-01   
4.005000000000000e+09    5.503494452957111e-01    -8.406918404505795e-01   
4.006000000000000e+09    5.491101048894305e-01    -8.409663985790901e-01   
4.007000000000000e+09    5.479826966521134e-01    -8.421566460651178e-01   
4.008000000000000e+09    5.465476346850765e-01    -8.436453592273202e-01   
4.009000000000000e+09    5.454115012197220e-01    -8.444531726981702e-01   
4.010000000000000e+09    5.441978650766772e-01    -8.445114291964710e-01   
4.011000000000000e+09    5.427130773674105e-01    -8.455351633790026e-01   
4.012000000000000e+09    5.415345623189846e-01    -8.461721625124209e-01   
4.013000000000000e+09    5.402822374657351e-01    -8.470249811159934e-01   
4.014000000000000e+09    5.388312204140060e-01    -8.476539701424316e-01   
4.015000000000000e+09    5.374560780801673e-01    -8.480681327109956e-01   
4.016000000000000e+09    5.365584259368338e-01    -8.487647882620682e-01   
4.017000000000000e+09    5.352685757902880e-01    -8.493898047907186e-01   
4.018000000000000e+09    5.339471726483599e-01    -8.503129966258732e-01   
4.019000000000000e+09    5.328974731011441e-01    -8.505054732102976e-01   
4.020000000000000e+09    5.311495600729149e-01    -8.513022151095853e-01   
4.021000000000000e+09    5.299324114352179e-01    -8.516219851122591e-01   
4.022000000000000e+09    5.285500392809129e-01    -8.524394366845605e-01   
4.023000000000000e+09    5.276424282561885e-01    -8.528697362692537e-01   
4.024000000000000e+09    5.263859552240318e-01    -8.534917444284505e-01   
4.025000000000000e+09    5.247271245122227e-01    -8.535256314646210e-01   
4.026000000000000e+09    5.237355780881729e-01    -8.544575482533509e-01   
4.027000000000000e+09    5.223541588467724e-01    -8.547924558758188e-01   
4.028000000000000e+09    5.210136303247970e-01    -8.550051636770989e-01   
4.029000000000000e+09    5.197034299343648e-01    -8.558430239972644e-01   
4.030000000000000e+09    5.183295269553334e-01    -8.558235171216517e-01   
4.031000000000000e+09    5.169480839657803e-01    -8.564679033076067e-01   
4.032000000000000e+09    5.155932274653205e-01    -8.569034371962816e-01   
4.033000000000000e+09    5.142820132260105e-01    -8.570776379548612e-01   
4.034000000000000e+09    5.131434217108171e-01    -8.578229262327015e-01   
4.035000000000000e+09    5.114583369240931e-01    -8.582211408434394e-01   
4.036000000000000e+09    5.103435134542103e-01    -8.585417100261532e-01   
4.037000000000000e+09    5.087902760382940e-01    -8.590175885758887e-01   
4.038000000000000e+09    5.075765212693680e-01    -8.594411560140265e-01   
4.039000000000000e+09    5.061359662529649e-01    -8.599751688288715e-01   
4.040000000000000e+09    5.047133452571028e-01    -8.605347700624009e-01   
4.041000000000000e+09    5.031962623891133e-01    -8.611212407805251e-01   
4.042000000000000e+09    5.021181661125592e-01    -8.616708630190438e-01   
4.043000000000000e+09    5.006612721020962e-01    -8.622782179184317e-01   
4.044000000000000e+09    4.995846618112248e-01    -8.627992381807787e-01   
4.045000000000000e+09    4.983050201978587e-01    -8.635383927703608e-01   
4.046000000000000e+09    4.969379066181199e-01    -8.643555345091122e-01   
4.047000000000000e+09    4.957805339729280e-01    -8.649884822044959e-01   
4.048000000000000e+09    4.946337885407783e-01    -8.656454235051321e-01   
4.049000000000000e+09    4.934770021670988e-01    -8.664947340918538e-01   
4.050000000000000e+09    4.926567001245588e-01    -8.671437384025907e-01   
4.051000000000000e+09    4.914765625734799e-01    -8.682193906249384e-01   
4.052000000000000e+09    4.904407286499844e-01    -8.692046405044132e-01   
4.053000000000000e+09    4.895879732187828e-01    -8.697499158391482e-01   
4.054000000000000e+09    4.885148061924298e-01    -8.704823159913102e-01   
4.055000000000000e+09    4.877330149237046e-01    -8.711732868579661e-01   
4.056000000000000e+09    4.865188388004505e-01    -8.721752431168308e-01   
4.057000000000000e+09    4.858550543544496e-01    -8.727466522031910e-01   
4.058000000000000e+09    4.848977060127597e-01    -8.736369429587572e-01   
4.059000000000000e+09    4.841271992687955e-01    -8.742512836951344e-01   
4.060000000000000e+09    4.831321555035698e-01    -8.749015951936144e-01   
4.061000000000000e+09    4.826188726449069e-01    -8.761473714775888e-01   
4.062000000000000e+09    4.818734216869482e-01    -8.768982221535995e-01   
4.063000000000000e+09    4.810557775778870e-01    -8.777061404773109e-01   
4.064000000000000e+09    4.803386426320190e-01    -8.783114899467236e-01   
4.065000000000000e+09    4.801544229495090e-01    -8.791081424942548e-01   
4.066000000000000e+09    4.792312353549134e-01    -8.801046341477716e-01   
4.067000000000000e+09    4.786175527359885e-01    -8.808179774445518e-01   
4.068000000000000e+09    4.782481684276301e-01    -8.815733379534612e-01   
4.069000000000000e+09    4.774223665583981e-01    -8.823886411787791e-01   
4.070000000000000e+09    4.767041079680074e-01    -8.828419507608842e-01   
4.071000000000000e+09    4.762698481360254e-01    -8.837267838062934e-01   
4.072000000000000e+09    4.758196524063480e-01    -8.843274802115469e-01   
4.073000000000000e+09    4.752499043351653e-01    -8.849970926459148e-01   
4.074000000000000e+09    4.742532947131842e-01    -8.857814783652734e-01   
4.075000000000000e+09    4.735961509865039e-01    -8.866813466634750e-01   
4.076000000000000e+09    4.732955124556383e-01    -8.874124898272402e-01   
4.077000000000000e+09    4.729109045454586e-01    -8.878440604051205e-01   
4.078000000000000e+09    4.719358284866895e-01    -8.886393879973871e-01   
4.079000000000000e+09    4.717118008497870e-01    -8.895908401292946e-01   
4.080000000000000e+09    4.709306143984118e-01    -8.896609847295391e-01   
4.081000000000000e+09    4.707790163863900e-01    -8.904019993664739e-01   
4.082000000000000e+09    4.700157762691299e-01    -8.908553022038952e-01   
4.083000000000000e+09    4.692741707487346e-01    -8.915189912137534e-01   
4.084000000000000e+09    4.684476314046401e-01    -8.924603110414677e-01   
4.085000000000000e+09    4.676813809437061e-01    -8.936774431133905e-01   
4.086000000000000e+09    4.673774076974079e-01    -8.935302728816142e-01   
4.087000000000000e+09    4.668761805684780e-01    -8.944550198436534e-01   
4.088000000000000e+09    4.658444715465992e-01    -8.948787374212106e-01   
4.089000000000000e+09    4.648084409545327e-01    -8.952248542904953e-01   
4.090000000000000e+09    4.642717318585879e-01    -8.960679569944405e-01   
4.091000000000000e+09    4.639344495216206e-01    -8.965035881583016e-01   
4.092000000000000e+09    4.630069764733840e-01    -8.966642484860134e-01   
4.093000000000000e+09    4.619460082252091e-01    -8.971939236632069e-01   
4.094000000000000e+09    4.609345899928072e-01    -8.977637349692555e-01   
4.095000000000000e+09    4.602170201445847e-01    -8.980314645797538e-01   
4.096000000000000e+09    4.597846545029167e-01    -8.985058095831748e-01   
4.097000000000000e+09    4.586578475274192e-01    -8.984916849741418e-01   
4.098000000000000e+09    4.577832637448036e-01    -8.992616538246132e-01   
4.099000000000000e+09    4.569258839045003e-01    -8.990884452644997e-01   
4.100000000000000e+09    4.562496530022120e-01    -8.996034745284429e-01   
4.101000000000000e+09    4.551413461347343e-01    -8.997386491852781e-01   
4.102000000000000e+09    4.538952677475076e-01    -8.999784987135521e-01   
4.103000000000000e+09    4.537784196178650e-01    -9.000712976550861e-01   
4.104000000000000e+09    4.525705078058642e-01    -9.002115476682927e-01   
4.105000000000000e+09    4.509766076546013e-01    -9.004314086497531e-01   
4.106000000000000e+09    4.503680714497355e-01    -9.007272880225986e-01   
4.107000000000000e+09    4.491573052501762e-01    -9.008587886058268e-01   
4.108000000000000e+09    4.483902479680423e-01    -9.008404381177035e-01   
4.109000000000000e+09    4.472212543747668e-01    -9.011776602781861e-01   
4.110000000000000e+09    4.459325001431031e-01    -9.012121585258656e-01   
4.111000000000000e+09    4.453183321618885e-01    -9.016525814966796e-01   
4.112000000000000e+09    4.439583280352014e-01    -9.017179397898195e-01   
4.113000000000000e+09    4.426382933135919e-01    -9.018366764210364e-01   
4.114000000000000e+09    4.414576279628319e-01    -9.016207194755369e-01   
4.115000000000000e+09    4.402753858053243e-01    -9.019491463908025e-01   
4.116000000000000e+09    4.389184913759851e-01    -9.018286433418575e-01   
4.117000000000000e+09    4.377600318997230e-01    -9.020258952603669e-01   
4.118000000000000e+09    4.360683734299693e-01    -9.023106352772424e-01   
4.119000000000000e+09    4.349748213561687e-01    -9.022901121687564e-01   
4.120000000000000e+09    4.331432792605735e-01    -9.024268859136366e-01   
4.121000000000000e+09    4.317187452546236e-01    -9.026418999292196e-01   
4.122000000000000e+09    4.303472134626015e-01    -9.027756096033946e-01   
4.123000000000000e+09    4.287797997396574e-01    -9.031288744119053e-01   
4.124000000000000e+09    4.269391713949711e-01    -9.034333830317511e-01   
4.125000000000000e+09    4.255375002918887e-01    -9.036305231775817e-01   
4.126000000000000e+09    4.236657189314072e-01    -9.039445475570870e-01   
4.127000000000000e+09    4.222319841221343e-01    -9.041837209947091e-01   
4.128000000000000e+09    4.205227209753653e-01    -9.046026922749154e-01   
4.129000000000000e+09    4.187590686107042e-01    -9.052219718009538e-01   
4.130000000000000e+09    4.173080509803928e-01    -9.054770914293655e-01   
4.131000000000000e+09    4.155253669737535e-01    -9.062910776422544e-01   
4.132000000000000e+09    4.139744169636131e-01    -9.066653433572858e-01   
4.133000000000000e+09    4.120523729225778e-01    -9.072120419612374e-01   
4.134000000000000e+09    4.106861178474950e-01    -9.077657944467710e-01   
4.135000000000000e+09    4.089833118286754e-01    -9.083241080764932e-01   
4.136000000000000e+09    4.072601007146289e-01    -9.092376305335794e-01   
4.137000000000000e+09    4.059855450706529e-01    -9.098258541051011e-01   
4.138000000000000e+09    4.040109183958698e-01    -9.105964470717050e-01   
4.139000000000000e+09    4.023264783337041e-01    -9.114303995531722e-01   
4.140000000000000e+09    4.010303566409510e-01    -9.122126360066266e-01   
4.141000000000000e+09    3.995947486856881e-01    -9.129968882850127e-01   
4.142000000000000e+09    3.980719204615231e-01    -9.140822159079991e-01   
4.143000000000000e+09    3.963869596367925e-01    -9.146120515717210e-01   
4.144000000000000e+09    3.947842602821578e-01    -9.157231706661030e-01   
4.145000000000000e+09    3.937447388006799e-01    -9.163730312915126e-01   
4.146000000000000e+09    3.920615896248971e-01    -9.174830262658055e-01   
4.147000000000000e+09    3.907074566294840e-01    -9.182271701076918e-01   
4.148000000000000e+09    3.895516988502955e-01    -9.192510372672927e-01   
4.149000000000000e+09    3.885731886647871e-01    -9.202932643038113e-01   
4.150000000000000e+09    3.867723416092441e-01    -9.210365096716457e-01   
4.151000000000000e+09    3.856324022242045e-01    -9.219973646824968e-01   
4.152000000000000e+09    3.842897533597727e-01    -9.226289481587884e-01   
4.153000000000000e+09    3.827314162580025e-01    -9.241564824091082e-01   
4.154000000000000e+09    3.815428699059148e-01    -9.249817795740256e-01   
4.155000000000000e+09    3.805793579060028e-01    -9.257119635924465e-01   
4.156000000000000e+09    3.793975578066164e-01    -9.266479830445837e-01   
4.157000000000000e+09    3.782235967187317e-01    -9.274083775895312e-01   
4.158000000000000e+09    3.774219192171308e-01    -9.283939001566955e-01   
4.159000000000000e+09    3.762950338106417e-01    -9.289209936016602e-01   
4.160000000000000e+09    3.750353427658868e-01    -9.297266837722582e-01   
4.161000000000000e+09    3.742087977430569e-01    -9.307202496182776e-01   
4.162000000000000e+09    3.732569477424209e-01    -9.314922688031063e-01   
4.163000000000000e+09    3.721486555243244e-01    -9.324057100762334e-01   
4.164000000000000e+09    3.711767747574257e-01    -9.330468710823905e-01   
4.165000000000000e+09    3.700194278088548e-01    -9.336075912075823e-01   
4.166000000000000e+09    3.692745033366419e-01    -9.342590886677067e-01   
4.167000000000000e+09    3.681416075572475e-01    -9.350185068947571e-01   
4.168000000000000e+09    3.673473769405379e-01    -9.358675109244609e-01   
4.169000000000000e+09    3.661947099954538e-01    -9.365415467399467e-01   
4.170000000000000e+09    3.652565875905355e-01    -9.372517299899811e-01   
4.171000000000000e+09    3.643495035688458e-01    -9.373771917485735e-01   
4.172000000000000e+09    3.638290266246181e-01    -9.382613125837040e-01   
4.173000000000000e+09    3.630997019980812e-01    -9.388675037940023e-01   
4.174000000000000e+09    3.620252990412595e-01    -9.391551644805977e-01   
4.175000000000000e+09    3.611232833982798e-01    -9.396792661505420e-01   
4.176000000000000e+09    3.604215245104214e-01    -9.400801875503392e-01   
4.177000000000000e+09    3.596169659349917e-01    -9.404944648957145e-01   
4.178000000000000e+09    3.590669193603256e-01    -9.409303706629844e-01   
4.179000000000000e+09    3.582192514830360e-01    -9.411767506237348e-01   
4.180000000000000e+09    3.573885598758069e-01    -9.419420664909095e-01   
4.181000000000000e+09    3.568058938891067e-01    -9.422738180248538e-01   
4.182000000000000e+09    3.557112551232048e-01    -9.420354507317034e-01   
4.183000000000000e+09    3.549525638954112e-01    -9.424628659915175e-01   
4.184000000000000e+09    3.540861380430545e-01    -9.426822286852273e-01   
4.185000000000000e+09    3.538858287837571e-01    -9.427602264487538e-01   
4.186000000000000e+09    3.530082152722145e-01    -9.431319119525770e-01   
4.187000000000000e+09    3.524189516584387e-01    -9.432841508299875e-01   
4.188000000000000e+09    3.518289877024646e-01    -9.430441847103689e-01   
4.189000000000000e+09    3.513542434689982e-01    -9.432731649544502e-01   
4.190000000000000e+09    3.507316944570992e-01    -9.437346956944170e-01   
4.191000000000000e+09    3.495875767080415e-01    -9.436423581706516e-01   
4.192000000000000e+09    3.492229273365139e-01    -9.436293398786961e-01   
4.193000000000000e+09    3.482211131239528e-01    -9.439497784044791e-01   
4.194000000000000e+09    3.478843100722812e-01    -9.439735063141693e-01   
4.195000000000000e+09    3.471839821387968e-01    -9.436631415385187e-01   
4.196000000000000e+09    3.465891914786277e-01    -9.439243532846670e-01   
4.197000000000000e+09    3.457074069352135e-01    -9.438868351074124e-01   
4.198000000000000e+09    3.450529222818897e-01    -9.439096823841878e-01   
4.199000000000000e+09    3.444580177738293e-01    -9.441814151613964e-01   
4.200000000000000e+09    3.432606674821289e-01    -9.441991899099568e-01   
4.201000000000000e+09    3.419207124325880e-01    -9.459395963429105e-01   
4.202000000000000e+09    3.410483425528099e-01    -9.458719783788005e-01   
4.203000000000000e+09    3.405216719331079e-01    -9.459987474581781e-01   
4.204000000000000e+09    3.397948006440030e-01    -9.456689914592018e-01   
4.205000000000000e+09    3.388088471084021e-01    -9.458664284767875e-01   
4.206000000000000e+09    3.379193078639195e-01    -9.457654816406448e-01   
4.207000000000000e+09    3.371468471863723e-01    -9.455229948491912e-01   
4.208000000000000e+09    3.363831866685102e-01    -9.454248310202370e-01   
4.209000000000000e+09    3.355360914520457e-01    -9.458436594059660e-01   
4.210000000000000e+09    3.347361017377787e-01    -9.457390039055946e-01   
4.211000000000000e+09    3.333675654085818e-01    -9.454984902839861e-01   
4.212000000000000e+09    3.327600308763380e-01    -9.457515628139426e-01   
4.213000000000000e+09    3.314270556625871e-01    -9.459750403752217e-01   
4.214000000000000e+09    3.303095713290167e-01    -9.459044349794713e-01   
4.215000000000000e+09    3.291692005135964e-01    -9.458059046491075e-01   
4.216000000000000e+09    3.278250928750731e-01    -9.462505511725531e-01   
4.217000000000000e+09    3.267460058713426e-01    -9.463065908190358e-01   
4.218000000000000e+09    3.256618856099719e-01    -9.467445251961397e-01   
4.219000000000000e+09    3.243594396838728e-01    -9.469549992498418e-01   
4.220000000000000e+09    3.231175919748006e-01    -9.469863240902443e-01   
4.221000000000000e+09    3.220362014116697e-01    -9.476076323735285e-01   
4.222000000000000e+09    3.203732412646474e-01    -9.476370863482525e-01   
4.223000000000000e+09    3.194497887983012e-01    -9.483350400985753e-01   
4.224000000000000e+09    3.181673010599752e-01    -9.486841353367572e-01   
4.225000000000000e+09    3.169542822095046e-01    -9.491208910584841e-01   
4.226000000000000e+09    3.151546922213798e-01    -9.496738627390535e-01   
4.227000000000000e+09    3.138517978652910e-01    -9.498524695849703e-01   
4.228000000000000e+09    3.127349062922043e-01    -9.504562577041482e-01   
4.229000000000000e+09    3.115795720961737e-01    -9.509111985919242e-01   
4.230000000000000e+09    3.097183364871515e-01    -9.513253162379607e-01   
4.231000000000000e+09    3.087814681849639e-01    -9.517392201913033e-01   
4.232000000000000e+09    3.076376267949764e-01    -9.521622855077084e-01   
4.233000000000000e+09    3.058060010852492e-01    -9.527714819431704e-01   
4.234000000000000e+09    3.041935559146101e-01    -9.533895077249608e-01   
4.235000000000000e+09    3.032006758484911e-01    -9.541073437532814e-01   
4.236000000000000e+09    3.012646572420194e-01    -9.543562718504186e-01   
4.237000000000000e+09    3.004545892943467e-01    -9.548551969485822e-01   
4.238000000000000e+09    2.990482110451705e-01    -9.555939200973603e-01   
4.239000000000000e+09    2.973046297012319e-01    -9.558018095138152e-01   
4.240000000000000e+09    2.954856529805285e-01    -9.565246172954266e-01   
4.241000000000000e+09    2.944092766088408e-01    -9.566753142082389e-01   
4.242000000000000e+09    2.923834322604466e-01    -9.573547278505908e-01   
4.243000000000000e+09    2.912244867615564e-01    -9.576110060844967e-01   
4.244000000000000e+09    2.896914634369222e-01    -9.580821894457279e-01   
4.245000000000000e+09    2.878751483918043e-01    -9.589982211655944e-01   
4.246000000000000e+09    2.865917814945588e-01    -9.591659937951038e-01   
4.247000000000000e+09    2.848771820243111e-01    -9.598087310706558e-01   
4.248000000000000e+09    2.832754812006074e-01    -9.601745454173832e-01   
4.249000000000000e+09    2.816763523153800e-01    -9.606699817134796e-01   
4.250000000000000e+09    2.799911756405098e-01    -9.610039200107784e-01   
4.251000000000000e+09    2.786710913619466e-01    -9.617828747886685e-01   
4.252000000000000e+09    2.768325790214156e-01    -9.621037882436319e-01   
4.253000000000000e+09    2.750427827649256e-01    -9.628606684649440e-01   
4.254000000000000e+09    2.734583477067343e-01    -9.629849913744087e-01   
4.255000000000000e+09    2.714351513517344e-01    -9.637206728035212e-01   
4.256000000000000e+09    2.698713171303508e-01    -9.637147339806236e-01   
