[Version] 2.0
! Rohde & Schwarz Vector Network Analyzer
! Rohde-Schwarz,ZNL20-2Port,1323001220200009,1.71.1.10-23.02.1.238
! 
! Port Assignments:
! Nominal Port -> Actual Test Port
! --------------------------------
!   1 -> 1

! Created: GMT+2 2025-01-17 12:50:09

# Hz S RI R 50

[Number of Ports] 1
[Number of Frequencies] 16001

[Network Data] 
! freq[Hz]               S11[Re]                  S11[Im]                  
4.000000000000000e+09    5.566445941880620e-01    -8.363483392870065e-01   
4.001000000000000e+09    5.553068657379171e-01    -8.374097318602449e-01   
4.002000000000000e+09    5.542550136291193e-01    -8.379435574141301e-01   
4.003000000000000e+09    5.526266677833118e-01    -8.390069576150555e-01   
4.004000000000000e+09    5.513631393997953e-01    -8.392749325874592e-01   
4.005000000000000e+09    5.505691916913169e-01    -8.408948132350652e-01   
4.006000000000000e+09    5.491655437099032e-01    -8.410721721427994e-01   
4.007000000000000e+09    5.481079397557562e-01    -8.421229916797843e-01   
4.008000000000000e+09    5.467126404882948e-01    -8.430002210069094e-01   
4.009000000000000e+09    5.450498550966852e-01    -8.441567559041340e-01   
4.010000000000000e+09    5.440461922961989e-01    -8.447709250874488e-01   
4.011000000000000e+09    5.427956200027065e-01    -8.456822244504733e-01   
4.012000000000000e+09    5.417846513062095e-01    -8.462045673944039e-01   
4.013000000000000e+09    5.400027700504082e-01    -8.466253686571341e-01   
4.014000000000000e+09    5.388079141380220e-01    -8.475709414793200e-01   
4.015000000000000e+09    5.376905517041363e-01    -8.483347101619287e-01   
4.016000000000000e+09    5.362485000003878e-01    -8.489474002123976e-01   
4.017000000000000e+09    5.352887032340256e-01    -8.493685725624456e-01   
4.018000000000000e+09    5.339149330822354e-01    -8.500894187555165e-01   
4.019000000000000e+09    5.328283481015500e-01    -8.508238201555099e-01   
4.020000000000000e+09    5.315129656483519e-01    -8.512647627569224e-01   
4.021000000000000e+09    5.303684671515846e-01    -8.517961174585527e-01   
4.022000000000000e+09    5.287201824032787e-01    -8.523811253742762e-01   
4.023000000000000e+09    5.278415230510811e-01    -8.532456946398126e-01   
4.024000000000000e+09    5.262310458097791e-01    -8.533369682291954e-01   
4.025000000000000e+09    5.250422988094052e-01    -8.536680901016694e-01   
4.026000000000000e+09    5.234625221019250e-01    -8.542676326026557e-01   
4.027000000000000e+09    5.224071847868763e-01    -8.545410728375344e-01   
4.028000000000000e+09    5.210357929562595e-01    -8.551457236066979e-01   
4.029000000000000e+09    5.197697387079976e-01    -8.557445645522113e-01   
4.030000000000000e+09    5.183931442328800e-01    -8.561209102337326e-01   
4.031000000000000e+09    5.172462689036139e-01    -8.565587038854886e-01   
4.032000000000000e+09    5.155975569180061e-01    -8.565535773168500e-01   
4.033000000000000e+09    5.142417361575440e-01    -8.572457768522656e-01   
4.034000000000000e+09    5.130347375287744e-01    -8.575418926755818e-01   
4.035000000000000e+09    5.116923409038148e-01    -8.581137701935078e-01   
4.036000000000000e+09    5.102791414461477e-01    -8.584912788272848e-01   
4.037000000000000e+09    5.088523336596017e-01    -8.589104965947457e-01   
4.038000000000000e+09    5.076858789239089e-01    -8.595099200393056e-01   
4.039000000000000e+09    5.063348754095781e-01    -8.600161636481818e-01   
4.040000000000000e+09    5.048439699515966e-01    -8.604066124003641e-01   
4.041000000000000e+09    5.035181364716705e-01    -8.608822187671034e-01   
4.042000000000000e+09    5.019633896722829e-01    -8.616210924719144e-01   
4.043000000000000e+09    5.009152331089157e-01    -8.622481701815221e-01   
4.044000000000000e+09    4.995997974737665e-01    -8.629312159634124e-01   
4.045000000000000e+09    4.982303679095523e-01    -8.636058529628388e-01   
4.046000000000000e+09    4.970291047324739e-01    -8.642461209353858e-01   
4.047000000000000e+09    4.958162762609078e-01    -8.648875394733153e-01   
4.048000000000000e+09    4.946511978494361e-01    -8.656773533482861e-01   
4.049000000000000e+09    4.934770513887454e-01    -8.667022188412324e-01   
4.050000000000000e+09    4.928834673780888e-01    -8.673129071374932e-01   
4.051000000000000e+09    4.916063358955307e-01    -8.681507824271322e-01   
4.052000000000000e+09    4.905527696604544e-01    -8.689079245486374e-01   
4.053000000000000e+09    4.895283795778198e-01    -8.694281298205935e-01   
4.054000000000000e+09    4.886006245108434e-01    -8.703024388606605e-01   
4.055000000000000e+09    4.876408031472115e-01    -8.711147962327475e-01   
4.056000000000000e+09    4.867521268594378e-01    -8.722468695022199e-01   
4.057000000000000e+09    4.858874240962764e-01    -8.728065184197733e-01   
4.058000000000000e+09    4.848380236124231e-01    -8.736116408698100e-01   
4.059000000000000e+09    4.843371793066346e-01    -8.745425238643052e-01   
4.060000000000000e+09    4.835250937882281e-01    -8.751633532021820e-01   
4.061000000000000e+09    4.826652399409216e-01    -8.760971389507273e-01   
4.062000000000000e+09    4.819479936556483e-01    -8.766955053006430e-01   
4.063000000000000e+09    4.812258333015964e-01    -8.777049118592806e-01   
4.064000000000000e+09    4.804566348916285e-01    -8.783705888758273e-01   
4.065000000000000e+09    4.800952183003250e-01    -8.789909783866261e-01   
4.066000000000000e+09    4.794089054442595e-01    -8.801486465550750e-01   
4.067000000000000e+09    4.788189840835236e-01    -8.807126170223427e-01   
4.068000000000000e+09    4.780316295748547e-01    -8.814379186899323e-01   
4.069000000000000e+09    4.776192903147417e-01    -8.822616891613362e-01   
4.070000000000000e+09    4.767418052709957e-01    -8.828831290908473e-01   
4.071000000000000e+09    4.765163850547085e-01    -8.834964929302116e-01   
4.072000000000000e+09    4.758092598976711e-01    -8.844792762374671e-01   
4.073000000000000e+09    4.752067675288775e-01    -8.849730050836954e-01   
4.074000000000000e+09    4.746520238711430e-01    -8.856531746066703e-01   
4.075000000000000e+09    4.742234743986599e-01    -8.866159183331487e-01   
4.076000000000000e+09    4.736735431696920e-01    -8.872189624523117e-01   
4.077000000000000e+09    4.727299207314422e-01    -8.878635486771945e-01   
4.078000000000000e+09    4.722655437196331e-01    -8.882518518847003e-01   
4.079000000000000e+09    4.715281364280038e-01    -8.896138995530644e-01   
4.080000000000000e+09    4.710647189424811e-01    -8.899724924950088e-01   
4.081000000000000e+09    4.705316376706203e-01    -8.907746591208195e-01   
4.082000000000000e+09    4.699382913071306e-01    -8.908836362266576e-01   
4.083000000000000e+09    4.690841727550227e-01    -8.918599146643482e-01   
4.084000000000000e+09    4.687137511671461e-01    -8.924027514352342e-01   
4.085000000000000e+09    4.681751899803925e-01    -8.930703450626999e-01   
4.086000000000000e+09    4.673024894013327e-01    -8.933645755707557e-01   
4.087000000000000e+09    4.665873198834646e-01    -8.942555102891399e-01   
4.088000000000000e+09    4.658242225329337e-01    -8.943992559634808e-01   
4.089000000000000e+09    4.650716054465396e-01    -8.955552786464375e-01   
4.090000000000000e+09    4.642032714696434e-01    -8.956757552740923e-01   
4.091000000000000e+09    4.636886994036274e-01    -8.964346909503024e-01   
4.092000000000000e+09    4.628541785485832e-01    -8.968184177288623e-01   
4.093000000000000e+09    4.623017041726844e-01    -8.967904618655156e-01   
4.094000000000000e+09    4.613867204644852e-01    -8.975025490274496e-01   
4.095000000000000e+09    4.604998465002563e-01    -8.978422374693403e-01   
4.096000000000000e+09    4.595569545083933e-01    -8.981821378259642e-01   
4.097000000000000e+09    4.590408004524520e-01    -8.987892625400681e-01   
4.098000000000000e+09    4.580343687507794e-01    -8.988639445745298e-01   
4.099000000000000e+09    4.569938813490834e-01    -8.991458503390550e-01   
4.100000000000000e+09    4.560510984556046e-01    -8.994680927339245e-01   
4.101000000000000e+09    4.554371089363493e-01    -9.000132775459214e-01   
4.102000000000000e+09    4.540425598538271e-01    -8.999735834046466e-01   
4.103000000000000e+09    4.535890744613217e-01    -8.999645788416298e-01   
4.104000000000000e+09    4.524617446445732e-01    -9.003468039818012e-01   
4.105000000000000e+09    4.517436749054479e-01    -9.002825941574555e-01   
4.106000000000000e+09    4.506721117024796e-01    -9.009533167578397e-01   
4.107000000000000e+09    4.494663330771207e-01    -9.004964098078243e-01   
4.108000000000000e+09    4.479838821751043e-01    -9.010725606891826e-01   
4.109000000000000e+09    4.473653394762651e-01    -9.013106797965442e-01   
4.110000000000000e+09    4.461438167672151e-01    -9.010660992307986e-01   
4.111000000000000e+09    4.452834999389120e-01    -9.014620983850231e-01   
4.112000000000000e+09    4.439181414127005e-01    -9.013259631262338e-01   
4.113000000000000e+09    4.423762972568478e-01    -9.018229308251632e-01   
4.114000000000000e+09    4.416095271765919e-01    -9.015830281274042e-01   
4.115000000000000e+09    4.403040326089033e-01    -9.016828075244779e-01   
4.116000000000000e+09    4.386729139765840e-01    -9.021275447168901e-01   
4.117000000000000e+09    4.376657581843117e-01    -9.021779504985024e-01   
4.118000000000000e+09    4.358960208207200e-01    -9.019714541761021e-01   
4.119000000000000e+09    4.347674783793373e-01    -9.020267838828109e-01   
4.120000000000000e+09    4.332031675355663e-01    -9.024102396097430e-01   
4.121000000000000e+09    4.319206172021453e-01    -9.027917512415496e-01   
4.122000000000000e+09    4.306123310895989e-01    -9.025321263974141e-01   
4.123000000000000e+09    4.289744139788525e-01    -9.028676526650738e-01   
4.124000000000000e+09    4.271817692289303e-01    -9.032705735821498e-01   
4.125000000000000e+09    4.255091739958609e-01    -9.034729624701040e-01   
4.126000000000000e+09    4.237517418568495e-01    -9.038363711825772e-01   
4.127000000000000e+09    4.221631787372754e-01    -9.041700157276902e-01   
4.128000000000000e+09    4.206632741821820e-01    -9.047087739654803e-01   
4.129000000000000e+09    4.189446510421846e-01    -9.051694858535186e-01   
4.130000000000000e+09    4.173915675975619e-01    -9.054749944854646e-01   
4.131000000000000e+09    4.155637410852994e-01    -9.061364695048725e-01   
4.132000000000000e+09    4.137994322190668e-01    -9.067001628388371e-01   
4.133000000000000e+09    4.123077358503943e-01    -9.074530438809210e-01   
4.134000000000000e+09    4.106696182747643e-01    -9.078495022182125e-01   
4.135000000000000e+09    4.088379047749356e-01    -9.085299302766348e-01   
4.136000000000000e+09    4.071478538755582e-01    -9.090632007431436e-01   
4.137000000000000e+09    4.058697393106934e-01    -9.100739076142936e-01   
4.138000000000000e+09    4.041312378620271e-01    -9.104416890419201e-01   
4.139000000000000e+09    4.023948618084733e-01    -9.114146305653417e-01   
4.140000000000000e+09    4.008998570495926e-01    -9.125887928681536e-01   
4.141000000000000e+09    3.993925343158982e-01    -9.130501758175279e-01   
4.142000000000000e+09    3.977692476350786e-01    -9.137352676384282e-01   
4.143000000000000e+09    3.966049659747286e-01    -9.147772131211523e-01   
4.144000000000000e+09    3.950874573088716e-01    -9.158864466282746e-01   
4.145000000000000e+09    3.936849146780919e-01    -9.166136534926608e-01   
4.146000000000000e+09    3.920805720557299e-01    -9.174373448458805e-01   
4.147000000000000e+09    3.908673742213164e-01    -9.181968423184187e-01   
4.148000000000000e+09    3.896748891724311e-01    -9.190829722916039e-01   
4.149000000000000e+09    3.881025274836336e-01    -9.201808316333324e-01   
4.150000000000000e+09    3.868356737409993e-01    -9.211870676341224e-01   
4.151000000000000e+09    3.857121371970565e-01    -9.217914038002765e-01   
4.152000000000000e+09    3.844158943963196e-01    -9.225993412159312e-01   
4.153000000000000e+09    3.830143437688435e-01    -9.241790793334096e-01   
4.154000000000000e+09    3.816023874902952e-01    -9.249101310915003e-01   
4.155000000000000e+09    3.806575021689564e-01    -9.259163413676146e-01   
4.156000000000000e+09    3.798323196982057e-01    -9.265542041724091e-01   
4.157000000000000e+09    3.781618681500400e-01    -9.271801002388290e-01   
4.158000000000000e+09    3.775019278368917e-01    -9.282931872471210e-01   
4.159000000000000e+09    3.760765813535975e-01    -9.288836780777294e-01   
4.160000000000000e+09    3.752461591085355e-01    -9.300112199131163e-01   
4.161000000000000e+09    3.742808036724837e-01    -9.307000002302455e-01   
4.162000000000000e+09    3.733556916535238e-01    -9.314805364828533e-01   
4.163000000000000e+09    3.723621966513642e-01    -9.322575007169985e-01   
4.164000000000000e+09    3.708952078387329e-01    -9.329406387397832e-01   
4.165000000000000e+09    3.702323864623635e-01    -9.333391808762682e-01   
4.166000000000000e+09    3.695698119018455e-01    -9.345534706402226e-01   
4.167000000000000e+09    3.687545426447316e-01    -9.349002745979604e-01   
4.168000000000000e+09    3.675310014433205e-01    -9.357340232708601e-01   
4.169000000000000e+09    3.666273392148512e-01    -9.363084861409189e-01   
4.170000000000000e+09    3.656172720666620e-01    -9.371826307162815e-01   
4.171000000000000e+09    3.646575042507979e-01    -9.371081845795398e-01   
4.172000000000000e+09    3.635789909245366e-01    -9.383078585951251e-01   
4.173000000000000e+09    3.628627586714225e-01    -9.386659071406386e-01   
4.174000000000000e+09    3.616818624741268e-01    -9.393510576589950e-01   
4.175000000000000e+09    3.610237711547264e-01    -9.397090749307151e-01   
4.176000000000000e+09    3.603762716641906e-01    -9.401982008278142e-01   
4.177000000000000e+09    3.596453009441776e-01    -9.405474387112113e-01   
4.178000000000000e+09    3.589114707157499e-01    -9.409087203860885e-01   
4.179000000000000e+09    3.582019858240496e-01    -9.413238012687878e-01   
4.180000000000000e+09    3.571245106577675e-01    -9.416784882693356e-01   
4.181000000000000e+09    3.564263776164041e-01    -9.418517405662636e-01   
4.182000000000000e+09    3.558276205992018e-01    -9.418616129593944e-01   
4.183000000000000e+09    3.550004626252444e-01    -9.425108819350002e-01   
4.184000000000000e+09    3.543195663611146e-01    -9.428875727033184e-01   
4.185000000000000e+09    3.537393727903741e-01    -9.430308340323340e-01   
4.186000000000000e+09    3.531301579985708e-01    -9.429033549038781e-01   
4.187000000000000e+09    3.525814901569849e-01    -9.431065243594745e-01   
4.188000000000000e+09    3.518634987623036e-01    -9.435007887340358e-01   
4.189000000000000e+09    3.509058559980106e-01    -9.435335432524178e-01   
4.190000000000000e+09    3.503438970864307e-01    -9.433979170987450e-01   
4.191000000000000e+09    3.498966229907204e-01    -9.435849772065739e-01   
4.192000000000000e+09    3.491985009637809e-01    -9.436976870565225e-01   
4.193000000000000e+09    3.486724894411580e-01    -9.438764813358240e-01   
4.194000000000000e+09    3.477826811094383e-01    -9.441356287678373e-01   
4.195000000000000e+09    3.472034468733008e-01    -9.438365231153264e-01   
4.196000000000000e+09    3.463577560562733e-01    -9.439379734394873e-01   
4.197000000000000e+09    3.458473854965244e-01    -9.439465710635384e-01   
4.198000000000000e+09    3.451261145078912e-01    -9.437926454267330e-01   
4.199000000000000e+09    3.443345483713103e-01    -9.439207141570940e-01   
4.200000000000000e+09    3.434445254525174e-01    -9.441323493768650e-01   
4.201000000000000e+09    3.417887760920470e-01    -9.458184765775303e-01   
4.202000000000000e+09    3.414952625868992e-01    -9.460853320562916e-01   
4.203000000000000e+09    3.403735475510298e-01    -9.459984843730319e-01   
4.204000000000000e+09    3.398082348917164e-01    -9.458894569808657e-01   
4.205000000000000e+09    3.390289526322609e-01    -9.454867954101956e-01   
4.206000000000000e+09    3.380456602232890e-01    -9.456934853929473e-01   
4.207000000000000e+09    3.373770432898628e-01    -9.455192357578600e-01   
4.208000000000000e+09    3.363643145117114e-01    -9.455467893358025e-01   
4.209000000000000e+09    3.356604886142013e-01    -9.458180893854878e-01   
4.210000000000000e+09    3.344479245745038e-01    -9.455923692692114e-01   
4.211000000000000e+09    3.334667128219476e-01    -9.456245889242690e-01   
4.212000000000000e+09    3.326658074003573e-01    -9.458925969424881e-01   
4.213000000000000e+09    3.316197628786033e-01    -9.458396909972789e-01   
4.214000000000000e+09    3.302243104628297e-01    -9.457827693509464e-01   
4.215000000000000e+09    3.296570697141132e-01    -9.458661479937853e-01   
4.216000000000000e+09    3.278345260166261e-01    -9.461141507439591e-01   
4.217000000000000e+09    3.267849666997492e-01    -9.460255829778159e-01   
4.218000000000000e+09    3.258819265278392e-01    -9.466640116405746e-01   
4.219000000000000e+09    3.245691173317571e-01    -9.467462733696428e-01   
4.220000000000000e+09    3.234427015708037e-01    -9.470399717024800e-01   
4.221000000000000e+09    3.221355276108491e-01    -9.473114143629903e-01   
4.222000000000000e+09    3.206778984024233e-01    -9.478506221439655e-01   
4.223000000000000e+09    3.193306154228690e-01    -9.479980332006740e-01   
4.224000000000000e+09    3.179383945487570e-01    -9.486648738237404e-01   
4.225000000000000e+09    3.169089210342496e-01    -9.492053631597486e-01   
4.226000000000000e+09    3.154948311986980e-01    -9.494711246508478e-01   
4.227000000000000e+09    3.139782769469207e-01    -9.497982271444722e-01   
4.228000000000000e+09    3.128237028217634e-01    -9.503356812384905e-01   
4.229000000000000e+09    3.113469908591101e-01    -9.509069253856718e-01   
4.230000000000000e+09    3.100414132548083e-01    -9.512796656867555e-01   
4.231000000000000e+09    3.085680781309729e-01    -9.517919652698135e-01   
4.232000000000000e+09    3.074869961669978e-01    -9.521456592087887e-01   
4.233000000000000e+09    3.063554196688701e-01    -9.528025567141212e-01   
4.234000000000000e+09    3.044670957750318e-01    -9.531968732644209e-01   
4.235000000000000e+09    3.031440365863243e-01    -9.539882140510121e-01   
4.236000000000000e+09    3.016621030643424e-01    -9.542427671906609e-01   
4.237000000000000e+09    3.003635814674904e-01    -9.546555242331721e-01   
4.238000000000000e+09    2.988433752127696e-01    -9.553614630765620e-01   
4.239000000000000e+09    2.976340562147831e-01    -9.559743481500294e-01   
4.240000000000000e+09    2.956199633036265e-01    -9.563210945298032e-01   
4.241000000000000e+09    2.942776027099195e-01    -9.568869788365997e-01   
4.242000000000000e+09    2.926703771037668e-01    -9.573430581296219e-01   
4.243000000000000e+09    2.914580782027898e-01    -9.576518801121262e-01   
4.244000000000000e+09    2.898317183582511e-01    -9.581563259337379e-01   
4.245000000000000e+09    2.881000795170267e-01    -9.588011684829221e-01   
4.246000000000000e+09    2.864934298884040e-01    -9.590942344735520e-01   
4.247000000000000e+09    2.850197250358253e-01    -9.598093518208803e-01   
4.248000000000000e+09    2.834877978345195e-01    -9.597997093318741e-01   
4.249000000000000e+09    2.817079203403749e-01    -9.604987321240456e-01   
4.250000000000000e+09    2.801753246122948e-01    -9.612680224245238e-01   
4.251000000000000e+09    2.781716801436371e-01    -9.616441688765602e-01   
4.252000000000000e+09    2.763221146383855e-01    -9.621741698422402e-01   
4.253000000000000e+09    2.749880524898456e-01    -9.628478908496011e-01   
4.254000000000000e+09    2.732501844317390e-01    -9.631719205090469e-01   
4.255000000000000e+09    2.717574286762032e-01    -9.633769929572448e-01   
4.256000000000000e+09    2.699148321010206e-01    -9.637907122138710e-01   
