[Version] 2.0
! Rohde & Schwarz Vector Network Analyzer
! Rohde-Schwarz,ZNL20-2Port,1323001220200009,1.71.1.10-23.02.1.238
! 
! Port Assignments:
! Nominal Port -> Actual Test Port
! --------------------------------
!   1 -> 1

! Created: GMT+2 2025-01-17 12:50:51

# Hz S RI R 50

[Number of Ports] 1
[Number of Frequencies] 16001

[Network Data] 
! freq[Hz]               S11[Re]                  S11[Im]                  
4.000000000000000e+09    5.565238985223686e-01    -8.364489624546164e-01   
4.001000000000000e+09    5.551593694315875e-01    -8.372013653515959e-01   
4.002000000000000e+09    5.544290801387947e-01    -8.380549997951432e-01   
4.003000000000000e+09    5.527973091455862e-01    -8.386611528144753e-01   
4.004000000000000e+09    5.518061436301284e-01    -8.396310922535105e-01   
4.005000000000000e+09    5.502774484656771e-01    -8.408801150393659e-01   
4.006000000000000e+09    5.492175363333517e-01    -8.410807877976544e-01   
4.007000000000000e+09    5.481651834328601e-01    -8.421422427008723e-01   
4.008000000000000e+09    5.467142134996498e-01    -8.431181152267023e-01   
4.009000000000000e+09    5.455461977895962e-01    -8.439073106677696e-01   
4.010000000000000e+09    5.443924817206793e-01    -8.443595190396560e-01   
4.011000000000000e+09    5.428198603975563e-01    -8.453955406576666e-01   
4.012000000000000e+09    5.416244953399700e-01    -8.462992711705976e-01   
4.013000000000000e+09    5.402450796244758e-01    -8.466384680836962e-01   
4.014000000000000e+09    5.389700503107283e-01    -8.475610924317363e-01   
4.015000000000000e+09    5.376293323521971e-01    -8.481898060614045e-01   
4.016000000000000e+09    5.363122387101077e-01    -8.489780240021801e-01   
4.017000000000000e+09    5.353525372714285e-01    -8.499247560478566e-01   
4.018000000000000e+09    5.338534154786609e-01    -8.499493136549274e-01   
4.019000000000000e+09    5.328542418212313e-01    -8.504435836568617e-01   
4.020000000000000e+09    5.314358975953068e-01    -8.508645476416196e-01   
4.021000000000000e+09    5.302009471647893e-01    -8.517168908044256e-01   
4.022000000000000e+09    5.285679190455730e-01    -8.523323985381164e-01   
4.023000000000000e+09    5.278435196012681e-01    -8.528689086666587e-01   
4.024000000000000e+09    5.263768655467603e-01    -8.531854257959196e-01   
4.025000000000000e+09    5.248829445295443e-01    -8.535866614150740e-01   
4.026000000000000e+09    5.237850040794718e-01    -8.540332688861163e-01   
4.027000000000000e+09    5.225603007684533e-01    -8.545802291496899e-01   
4.028000000000000e+09    5.210114393105255e-01    -8.547976749308717e-01   
4.029000000000000e+09    5.199138145184767e-01    -8.555459446790791e-01   
4.030000000000000e+09    5.186131390282652e-01    -8.557374246955317e-01   
4.031000000000000e+09    5.170610772497646e-01    -8.563244799873030e-01   
4.032000000000000e+09    5.158626496613237e-01    -8.566742738596245e-01   
4.033000000000000e+09    5.146481922518826e-01    -8.570781164301845e-01   
4.034000000000000e+09    5.132226041335890e-01    -8.575642921857934e-01   
4.035000000000000e+09    5.118973464107260e-01    -8.582255835822495e-01   
4.036000000000000e+09    5.106049307713205e-01    -8.585039060088012e-01   
4.037000000000000e+09    5.090252081225536e-01    -8.587979861765755e-01   
4.038000000000000e+09    5.079211273107552e-01    -8.592765180640755e-01   
4.039000000000000e+09    5.061952691372201e-01    -8.599560582561392e-01   
4.040000000000000e+09    5.050341217155012e-01    -8.606749807638979e-01   
4.041000000000000e+09    5.035425121857671e-01    -8.608573701626459e-01   
4.042000000000000e+09    5.022935304286358e-01    -8.615962887548383e-01   
4.043000000000000e+09    5.009204217201317e-01    -8.621208537241425e-01   
4.044000000000000e+09    4.995731219640970e-01    -8.628834721515279e-01   
4.045000000000000e+09    4.984767900788686e-01    -8.635737126495607e-01   
4.046000000000000e+09    4.972720028310939e-01    -8.641918127102121e-01   
4.047000000000000e+09    4.958336179465416e-01    -8.649484178404377e-01   
4.048000000000000e+09    4.949026929439889e-01    -8.657897143650152e-01   
4.049000000000000e+09    4.935615641000726e-01    -8.663362972355055e-01   
4.050000000000000e+09    4.928304574227396e-01    -8.673101000634414e-01   
4.051000000000000e+09    4.914730562096824e-01    -8.682100942084932e-01   
4.052000000000000e+09    4.903087145723176e-01    -8.690987820343581e-01   
4.053000000000000e+09    4.896179410220254e-01    -8.695731215742681e-01   
4.054000000000000e+09    4.886001365807229e-01    -8.701759198425384e-01   
4.055000000000000e+09    4.875598888991017e-01    -8.710768412174495e-01   
4.056000000000000e+09    4.867221126797679e-01    -8.718579134845945e-01   
4.057000000000000e+09    4.859891828061759e-01    -8.725526132274927e-01   
4.058000000000000e+09    4.849704655207458e-01    -8.734428370252508e-01   
4.059000000000000e+09    4.841130159832451e-01    -8.743543116497966e-01   
4.060000000000000e+09    4.837700402968729e-01    -8.751450518070094e-01   
4.061000000000000e+09    4.826231505954151e-01    -8.761649246539105e-01   
4.062000000000000e+09    4.819300696721607e-01    -8.766656154600085e-01   
4.063000000000000e+09    4.816173911789993e-01    -8.776764004871137e-01   
4.064000000000000e+09    4.807031240597610e-01    -8.783916925368985e-01   
4.065000000000000e+09    4.799960796315930e-01    -8.788653612979567e-01   
4.066000000000000e+09    4.793402735024726e-01    -8.799011956481811e-01   
4.067000000000000e+09    4.783892068152247e-01    -8.806872416855894e-01   
4.068000000000000e+09    4.783446561442530e-01    -8.814532937266721e-01   
4.069000000000000e+09    4.775367931240932e-01    -8.820414186518686e-01   
4.070000000000000e+09    4.769606620964983e-01    -8.827678542043319e-01   
4.071000000000000e+09    4.766791458712643e-01    -8.835760028110162e-01   
4.072000000000000e+09    4.757180023939193e-01    -8.842560556296574e-01   
4.073000000000000e+09    4.752285878728863e-01    -8.853139965929787e-01   
4.074000000000000e+09    4.744044639141882e-01    -8.856471508651294e-01   
4.075000000000000e+09    4.740440761354498e-01    -8.866737720753143e-01   
4.076000000000000e+09    4.735303496107449e-01    -8.871756426751192e-01   
4.077000000000000e+09    4.728379471421766e-01    -8.881424699905154e-01   
4.078000000000000e+09    4.724806866501701e-01    -8.886888633373092e-01   
4.079000000000000e+09    4.716428692964471e-01    -8.895200987302526e-01   
4.080000000000000e+09    4.712988058247326e-01    -8.899216976117236e-01   
4.081000000000000e+09    4.708070624914564e-01    -8.908089778157261e-01   
4.082000000000000e+09    4.699337430528577e-01    -8.907839495227310e-01   
4.083000000000000e+09    4.692719806976661e-01    -8.917963170171332e-01   
4.084000000000000e+09    4.685837599065563e-01    -8.926653570871961e-01   
4.085000000000000e+09    4.679799467826062e-01    -8.935330157149594e-01   
4.086000000000000e+09    4.675827024246650e-01    -8.933716721634912e-01   
4.087000000000000e+09    4.667997580373349e-01    -8.939919717166344e-01   
4.088000000000000e+09    4.656961047864962e-01    -8.948622723418969e-01   
4.089000000000000e+09    4.652638803564105e-01    -8.954108663951623e-01   
4.090000000000000e+09    4.645294943023454e-01    -8.957202115021866e-01   
4.091000000000000e+09    4.637292581837234e-01    -8.959506644120028e-01   
4.092000000000000e+09    4.631326732041960e-01    -8.970221069793479e-01   
4.093000000000000e+09    4.623240224466880e-01    -8.970975488630493e-01   
4.094000000000000e+09    4.612649500593241e-01    -8.973224456570457e-01   
4.095000000000000e+09    4.604387957932364e-01    -8.978261071811839e-01   
4.096000000000000e+09    4.596449607539113e-01    -8.982157697426071e-01   
4.097000000000000e+09    4.586058930480275e-01    -8.992081796094612e-01   
4.098000000000000e+09    4.575880536629341e-01    -8.989900670539172e-01   
4.099000000000000e+09    4.567772283467194e-01    -8.993389913180795e-01   
4.100000000000000e+09    4.562239885103988e-01    -8.995635790457388e-01   
4.101000000000000e+09    4.556888515439552e-01    -9.000015043736393e-01   
4.102000000000000e+09    4.543269721130353e-01    -8.997873105487664e-01   
4.103000000000000e+09    4.538233169322201e-01    -9.003239731180475e-01   
4.104000000000000e+09    4.527309654819146e-01    -9.006184957889093e-01   
4.105000000000000e+09    4.514259884975010e-01    -9.006247781997421e-01   
4.106000000000000e+09    4.506285801332148e-01    -9.007132357502770e-01   
4.107000000000000e+09    4.495621910328159e-01    -9.007089020107413e-01   
4.108000000000000e+09    4.486003836558392e-01    -9.008257999957261e-01   
4.109000000000000e+09    4.474429980493698e-01    -9.014727189227035e-01   
4.110000000000000e+09    4.463421103398475e-01    -9.014125518491336e-01   
4.111000000000000e+09    4.450387320346900e-01    -9.016854737423133e-01   
4.112000000000000e+09    4.440537989310176e-01    -9.015084266084054e-01   
4.113000000000000e+09    4.427587171146357e-01    -9.017707491435014e-01   
4.114000000000000e+09    4.417432386260151e-01    -9.016819598454655e-01   
4.115000000000000e+09    4.403968978524729e-01    -9.017150617995017e-01   
4.116000000000000e+09    4.388011195931910e-01    -9.018930682679752e-01   
4.117000000000000e+09    4.378129919900963e-01    -9.021605431327275e-01   
4.118000000000000e+09    4.362002157880049e-01    -9.017150847946014e-01   
4.119000000000000e+09    4.349379139240576e-01    -9.023344601450073e-01   
4.120000000000000e+09    4.334484412864288e-01    -9.022967305495928e-01   
4.121000000000000e+09    4.319173682106749e-01    -9.026007701399186e-01   
4.122000000000000e+09    4.305036011311038e-01    -9.026918649056835e-01   
4.123000000000000e+09    4.287210429868067e-01    -9.029787370235340e-01   
4.124000000000000e+09    4.271018063396535e-01    -9.032538028708609e-01   
4.125000000000000e+09    4.257067331313442e-01    -9.037273193633732e-01   
4.126000000000000e+09    4.238563251880836e-01    -9.036298644508594e-01   
4.127000000000000e+09    4.227227429484615e-01    -9.042707775968049e-01   
4.128000000000000e+09    4.208992861524974e-01    -9.045683945706570e-01   
4.129000000000000e+09    4.188379691148704e-01    -9.049365575460457e-01   
4.130000000000000e+09    4.172885471892487e-01    -9.053895023129473e-01   
4.131000000000000e+09    4.159346497070399e-01    -9.061103091956274e-01   
4.132000000000000e+09    4.140418188286974e-01    -9.067147135568954e-01   
4.133000000000000e+09    4.123843834796795e-01    -9.070287886937759e-01   
4.134000000000000e+09    4.107989766713564e-01    -9.075226045872156e-01   
4.135000000000000e+09    4.089952558129192e-01    -9.084162904872128e-01   
4.136000000000000e+09    4.074983972337017e-01    -9.090204817279979e-01   
4.137000000000000e+09    4.057901229695965e-01    -9.098766075125557e-01   
4.138000000000000e+09    4.042696622121246e-01    -9.105371090709971e-01   
4.139000000000000e+09    4.026021414544808e-01    -9.112677117848982e-01   
4.140000000000000e+09    4.010848549671372e-01    -9.122634706863821e-01   
4.141000000000000e+09    3.996000770631450e-01    -9.130621874074374e-01   
4.142000000000000e+09    3.979747971957092e-01    -9.138821515093127e-01   
4.143000000000000e+09    3.966657277781267e-01    -9.148562411943066e-01   
4.144000000000000e+09    3.951913490951289e-01    -9.158763320948730e-01   
4.145000000000000e+09    3.936009170506113e-01    -9.167654224970969e-01   
4.146000000000000e+09    3.923991546630256e-01    -9.172321380012505e-01   
4.147000000000000e+09    3.908974186444714e-01    -9.182498787131581e-01   
4.148000000000000e+09    3.895346109505324e-01    -9.192871659936077e-01   
4.149000000000000e+09    3.880574839423785e-01    -9.200643279910479e-01   
4.150000000000000e+09    3.869578888421210e-01    -9.208962853382811e-01   
4.151000000000000e+09    3.857705528687158e-01    -9.216426964100292e-01   
4.152000000000000e+09    3.849719706216923e-01    -9.226207060851246e-01   
4.153000000000000e+09    3.829951424656932e-01    -9.242475393835187e-01   
4.154000000000000e+09    3.817751551028971e-01    -9.247865242295805e-01   
4.155000000000000e+09    3.809234112271819e-01    -9.258602910521341e-01   
4.156000000000000e+09    3.798351938303391e-01    -9.265105512765175e-01   
4.157000000000000e+09    3.781231992405061e-01    -9.273739860747592e-01   
4.158000000000000e+09    3.774168223617715e-01    -9.280858796014387e-01   
4.159000000000000e+09    3.762266937172751e-01    -9.291079748943412e-01   
4.160000000000000e+09    3.752941903674016e-01    -9.296123032701137e-01   
4.161000000000000e+09    3.744878870696210e-01    -9.306648413398247e-01   
4.162000000000000e+09    3.734703280624114e-01    -9.311236032225351e-01   
4.163000000000000e+09    3.721788960076792e-01    -9.322499412623620e-01   
4.164000000000000e+09    3.713378920637497e-01    -9.328754131498311e-01   
4.165000000000000e+09    3.700005596472909e-01    -9.335881376525150e-01   
4.166000000000000e+09    3.691494749383991e-01    -9.347107960953089e-01   
4.167000000000000e+09    3.684114534471941e-01    -9.350234019527605e-01   
4.168000000000000e+09    3.674402270218800e-01    -9.356833774207755e-01   
4.169000000000000e+09    3.664784003518445e-01    -9.365040734818393e-01   
4.170000000000000e+09    3.657896036069689e-01    -9.372639253577099e-01   
4.171000000000000e+09    3.647899456436125e-01    -9.377881017578280e-01   
4.172000000000000e+09    3.637816184343987e-01    -9.385360651526479e-01   
4.173000000000000e+09    3.630476589481140e-01    -9.389570821508929e-01   
4.174000000000000e+09    3.622456045445324e-01    -9.390884220871925e-01   
4.175000000000000e+09    3.609935348212296e-01    -9.397591097187985e-01   
4.176000000000000e+09    3.604983469392284e-01    -9.402038229446149e-01   
4.177000000000000e+09    3.596239964005584e-01    -9.403059610999730e-01   
4.178000000000000e+09    3.590792933047229e-01    -9.407216244278996e-01   
4.179000000000000e+09    3.581360286962708e-01    -9.410184048360964e-01   
4.180000000000000e+09    3.574464612302358e-01    -9.415022779053259e-01   
4.181000000000000e+09    3.567525548510341e-01    -9.417686174298510e-01   
4.182000000000000e+09    3.558640574757074e-01    -9.420670076911926e-01   
4.183000000000000e+09    3.549046830982949e-01    -9.425364174461089e-01   
4.184000000000000e+09    3.540985336491747e-01    -9.426921519573176e-01   
4.185000000000000e+09    3.538373849096659e-01    -9.428754284709306e-01   
4.186000000000000e+09    3.530610593521957e-01    -9.433305798406406e-01   
4.187000000000000e+09    3.524819380159836e-01    -9.429584588298843e-01   
4.188000000000000e+09    3.519622698571772e-01    -9.435494769700650e-01   
4.189000000000000e+09    3.512911961165681e-01    -9.432963283609929e-01   
4.190000000000000e+09    3.505026440945436e-01    -9.438579468219669e-01   
4.191000000000000e+09    3.498828558710359e-01    -9.436936303692295e-01   
4.192000000000000e+09    3.492405525656643e-01    -9.440636712374104e-01   
4.193000000000000e+09    3.483988308595463e-01    -9.443000298190152e-01   
4.194000000000000e+09    3.479778327338546e-01    -9.438476851384167e-01   
4.195000000000000e+09    3.472588686361212e-01    -9.437829668129936e-01   
4.196000000000000e+09    3.464226171110766e-01    -9.438528357865918e-01   
4.197000000000000e+09    3.459360765674966e-01    -9.439202879300993e-01   
4.198000000000000e+09    3.452563490562858e-01    -9.439264221972126e-01   
4.199000000000000e+09    3.446440694112036e-01    -9.439219887786751e-01   
4.200000000000000e+09    3.437329686944606e-01    -9.441532510283019e-01   
4.201000000000000e+09    3.419245512479681e-01    -9.460217521165047e-01   
4.202000000000000e+09    3.413449965493981e-01    -9.459684508426681e-01   
4.203000000000000e+09    3.404948408743266e-01    -9.457761172974133e-01   
4.204000000000000e+09    3.399314249727240e-01    -9.459094145967090e-01   
4.205000000000000e+09    3.390374260748785e-01    -9.457455815718330e-01   
4.206000000000000e+09    3.385766971723829e-01    -9.457285465403944e-01   
4.207000000000000e+09    3.373082030981054e-01    -9.456811673757390e-01   
4.208000000000000e+09    3.364990350169329e-01    -9.458142253936463e-01   
4.209000000000000e+09    3.356916448646867e-01    -9.456828268438111e-01   
4.210000000000000e+09    3.347824462195997e-01    -9.454292432906904e-01   
4.211000000000000e+09    3.336392318536729e-01    -9.454753504184356e-01   
4.212000000000000e+09    3.326084190724712e-01    -9.458230875775303e-01   
4.213000000000000e+09    3.315665517662113e-01    -9.457313947860727e-01   
4.214000000000000e+09    3.304657366005463e-01    -9.459023627496672e-01   
4.215000000000000e+09    3.292214994673144e-01    -9.459567848199307e-01   
4.216000000000000e+09    3.279697318074805e-01    -9.461303014514548e-01   
4.217000000000000e+09    3.269896038068771e-01    -9.461560985455187e-01   
4.218000000000000e+09    3.259541507979830e-01    -9.466456429792000e-01   
4.219000000000000e+09    3.247418425699989e-01    -9.472194408378658e-01   
4.220000000000000e+09    3.233542207003304e-01    -9.469979988871096e-01   
4.221000000000000e+09    3.220049624850612e-01    -9.475070037425014e-01   
4.222000000000000e+09    3.206814793379620e-01    -9.478824520623650e-01   
4.223000000000000e+09    3.192563056733353e-01    -9.480193089200304e-01   
4.224000000000000e+09    3.182193253698164e-01    -9.485314264893990e-01   
4.225000000000000e+09    3.169743489638516e-01    -9.490636695621106e-01   
4.226000000000000e+09    3.158579353547958e-01    -9.496594742677239e-01   
4.227000000000000e+09    3.142186065725542e-01    -9.498653284129536e-01   
4.228000000000000e+09    3.129559466538834e-01    -9.503548579885174e-01   
4.229000000000000e+09    3.114981983342214e-01    -9.508346178674386e-01   
4.230000000000000e+09    3.101993752289908e-01    -9.515652785463321e-01   
4.231000000000000e+09    3.088692332622687e-01    -9.519374602119811e-01   
4.232000000000000e+09    3.074583923870836e-01    -9.522081929258264e-01   
4.233000000000000e+09    3.061652758382207e-01    -9.528855195838877e-01   
4.234000000000000e+09    3.046124753153435e-01    -9.532158496395454e-01   
4.235000000000000e+09    3.033328056647669e-01    -9.539067955567326e-01   
4.236000000000000e+09    3.017336056639556e-01    -9.541266726941569e-01   
4.237000000000000e+09    3.001539660008569e-01    -9.548519748602915e-01   
4.238000000000000e+09    2.990965882065564e-01    -9.552350935738994e-01   
4.239000000000000e+09    2.974423282542213e-01    -9.560779169263255e-01   
4.240000000000000e+09    2.956429636757175e-01    -9.564305058388447e-01   
4.241000000000000e+09    2.947715884212511e-01    -9.568118138512901e-01   
4.242000000000000e+09    2.928863797535872e-01    -9.572459699443121e-01   
4.243000000000000e+09    2.914299178201026e-01    -9.577175542899148e-01   
4.244000000000000e+09    2.898556585425811e-01    -9.582571801926942e-01   
4.245000000000000e+09    2.884362532947788e-01    -9.590599489231512e-01   
4.246000000000000e+09    2.867405137558356e-01    -9.590540746088230e-01   
4.247000000000000e+09    2.851821636061346e-01    -9.596684493035577e-01   
4.248000000000000e+09    2.834880096825804e-01    -9.599346025890813e-01   
4.249000000000000e+09    2.819495510602225e-01    -9.606700501106620e-01   
4.250000000000000e+09    2.804476515226039e-01    -9.612679353052571e-01   
4.251000000000000e+09    2.786387682612910e-01    -9.617118948585192e-01   
4.252000000000000e+09    2.765627812079464e-01    -9.622936663719605e-01   
4.253000000000000e+09    2.750473855743612e-01    -9.625280222988610e-01   
4.254000000000000e+09    2.731607136733184e-01    -9.630075318773772e-01   
4.255000000000000e+09    2.717648607727058e-01    -9.636371763613166e-01   
4.256000000000000e+09    2.697422861739969e-01    -9.639453193501111e-01   
