[Version] 2.0
! Rohde & Schwarz Vector Network Analyzer
! Rohde-Schwarz,ZNL20-2Port,1323001220200009,1.71.1.10-23.02.1.238
! 
! Port Assignments:
! Nominal Port -> Actual Test Port
! --------------------------------
!   1 -> 1

! Created: GMT+2 2025-01-17 12:50:28

# Hz S RI R 50

[Number of Ports] 1
[Number of Frequencies] 16001

[Network Data] 
! freq[Hz]               S11[Re]                  S11[Im]                  
4.000000000000000e+09    5.565782568307961e-01    -8.361871904725272e-01   
4.001000000000000e+09    5.550290839212310e-01    -8.370769522679918e-01   
4.002000000000000e+09    5.540010864466353e-01    -8.381540529046546e-01   
4.003000000000000e+09    5.528815113550108e-01    -8.388563582573362e-01   
4.004000000000000e+09    5.516872522918538e-01    -8.397693866330127e-01   
4.005000000000000e+09    5.501938941401333e-01    -8.402770815169249e-01   
4.006000000000000e+09    5.493666015435859e-01    -8.412956517513436e-01   
4.007000000000000e+09    5.477153418119832e-01    -8.421075100853326e-01   
4.008000000000000e+09    5.469585684164082e-01    -8.429686495843873e-01   
4.009000000000000e+09    5.454997187760249e-01    -8.438238392029563e-01   
4.010000000000000e+09    5.442155486093613e-01    -8.445036669965855e-01   
4.011000000000000e+09    5.429132488419109e-01    -8.455541507911107e-01   
4.012000000000000e+09    5.416595472052768e-01    -8.464160199632965e-01   
4.013000000000000e+09    5.402102587484724e-01    -8.472198105143652e-01   
4.014000000000000e+09    5.390339679503423e-01    -8.475329713312315e-01   
4.015000000000000e+09    5.377948391069016e-01    -8.483915782078428e-01   
4.016000000000000e+09    5.366931213612373e-01    -8.489044244254427e-01   
4.017000000000000e+09    5.354568066164125e-01    -8.494571740004978e-01   
4.018000000000000e+09    5.338852996581454e-01    -8.497588154497246e-01   
4.019000000000000e+09    5.327877865061853e-01    -8.506312352334019e-01   
4.020000000000000e+09    5.312848167325771e-01    -8.512492728023646e-01   
4.021000000000000e+09    5.302873285769346e-01    -8.518495617631102e-01   
4.022000000000000e+09    5.287817294192304e-01    -8.523245351636675e-01   
4.023000000000000e+09    5.279119107602922e-01    -8.530012202388263e-01   
4.024000000000000e+09    5.263305588814808e-01    -8.530535269629261e-01   
4.025000000000000e+09    5.251752659361849e-01    -8.534994752365545e-01   
4.026000000000000e+09    5.236436751389097e-01    -8.541623657500912e-01   
4.027000000000000e+09    5.225317504384762e-01    -8.546857552074566e-01   
4.028000000000000e+09    5.211907011692168e-01    -8.550247805641772e-01   
4.029000000000000e+09    5.199810605964974e-01    -8.554148275833224e-01   
4.030000000000000e+09    5.185972197873808e-01    -8.560794451988926e-01   
4.031000000000000e+09    5.172091200363189e-01    -8.565356653473508e-01   
4.032000000000000e+09    5.158541889062893e-01    -8.568400373712649e-01   
4.033000000000000e+09    5.146344197020164e-01    -8.570596456208365e-01   
4.034000000000000e+09    5.128199799707184e-01    -8.576532863827563e-01   
4.035000000000000e+09    5.116583934354391e-01    -8.580125297212243e-01   
4.036000000000000e+09    5.104254951450869e-01    -8.584788023853832e-01   
4.037000000000000e+09    5.089538380724586e-01    -8.591142416278894e-01   
4.038000000000000e+09    5.075726399697799e-01    -8.594367835331130e-01   
4.039000000000000e+09    5.062682928200489e-01    -8.598728534909010e-01   
4.040000000000000e+09    5.048574025395198e-01    -8.602713677636769e-01   
4.041000000000000e+09    5.035386391921810e-01    -8.612079483435533e-01   
4.042000000000000e+09    5.022534108940071e-01    -8.615500229694090e-01   
4.043000000000000e+09    5.011647669774425e-01    -8.621610963792168e-01   
4.044000000000000e+09    4.995519595640327e-01    -8.630107652192958e-01   
4.045000000000000e+09    4.984974191290374e-01    -8.636035090385520e-01   
4.046000000000000e+09    4.970695837529879e-01    -8.642395400484216e-01   
4.047000000000000e+09    4.960851269623746e-01    -8.651298376149983e-01   
4.048000000000000e+09    4.949901079412895e-01    -8.658960332769718e-01   
4.049000000000000e+09    4.935450079012428e-01    -8.662912104056466e-01   
4.050000000000000e+09    4.927615305040320e-01    -8.670845900968029e-01   
4.051000000000000e+09    4.915977850819335e-01    -8.678912260286074e-01   
4.052000000000000e+09    4.905561764626672e-01    -8.688902974570825e-01   
4.053000000000000e+09    4.895947691248067e-01    -8.697476844789483e-01   
4.054000000000000e+09    4.886791209388299e-01    -8.705327005788518e-01   
4.055000000000000e+09    4.879066953282722e-01    -8.709329912281921e-01   
4.056000000000000e+09    4.868446746972367e-01    -8.718961342515048e-01   
4.057000000000000e+09    4.856748793708945e-01    -8.726962828773374e-01   
4.058000000000000e+09    4.849367802789439e-01    -8.733517738834581e-01   
4.059000000000000e+09    4.840132556780309e-01    -8.743755697539983e-01   
4.060000000000000e+09    4.835260366645173e-01    -8.749514022586260e-01   
4.061000000000000e+09    4.824873070335530e-01    -8.761759187895986e-01   
4.062000000000000e+09    4.819006343658722e-01    -8.768530849973101e-01   
4.063000000000000e+09    4.814737715635374e-01    -8.774545486384273e-01   
4.064000000000000e+09    4.805245077751529e-01    -8.784269803807350e-01   
4.065000000000000e+09    4.799366245993385e-01    -8.789650852698183e-01   
4.066000000000000e+09    4.793416656612604e-01    -8.798483239581052e-01   
4.067000000000000e+09    4.787484233378617e-01    -8.805988407543832e-01   
4.068000000000000e+09    4.782442407303131e-01    -8.815592889172786e-01   
4.069000000000000e+09    4.774991035482393e-01    -8.822148196835775e-01   
4.070000000000000e+09    4.767520402288979e-01    -8.828432485753447e-01   
4.071000000000000e+09    4.764633540570426e-01    -8.837173255659336e-01   
4.072000000000000e+09    4.757753933656647e-01    -8.844783741312536e-01   
4.073000000000000e+09    4.751453978408615e-01    -8.848763754223870e-01   
4.074000000000000e+09    4.746549294763769e-01    -8.854590229247056e-01   
4.075000000000000e+09    4.738788296334721e-01    -8.867243401220215e-01   
4.076000000000000e+09    4.733241857701733e-01    -8.873181674222740e-01   
4.077000000000000e+09    4.729620248932176e-01    -8.877712290095207e-01   
4.078000000000000e+09    4.722253896649160e-01    -8.887522790518019e-01   
4.079000000000000e+09    4.714982443370914e-01    -8.896657633652773e-01   
4.080000000000000e+09    4.707543036432517e-01    -8.899077259095155e-01   
4.081000000000000e+09    4.705864067111216e-01    -8.909543724630287e-01   
4.082000000000000e+09    4.701005431350497e-01    -8.909661693720377e-01   
4.083000000000000e+09    4.693167833605373e-01    -8.919393718352447e-01   
4.084000000000000e+09    4.686810272597128e-01    -8.927965042473353e-01   
4.085000000000000e+09    4.677019727680962e-01    -8.930906821450334e-01   
4.086000000000000e+09    4.675177073936403e-01    -8.936887983829123e-01   
4.087000000000000e+09    4.663840038150665e-01    -8.940870434025497e-01   
4.088000000000000e+09    4.657697746005076e-01    -8.949567779689668e-01   
4.089000000000000e+09    4.649398467737579e-01    -8.953640708912708e-01   
4.090000000000000e+09    4.641496645724026e-01    -8.958985005023126e-01   
4.091000000000000e+09    4.639860491701589e-01    -8.961634378628607e-01   
4.092000000000000e+09    4.633485106151224e-01    -8.967436792806924e-01   
4.093000000000000e+09    4.623511306313182e-01    -8.972438375879072e-01   
4.094000000000000e+09    4.612496877011114e-01    -8.975075576359972e-01   
4.095000000000000e+09    4.603674641330027e-01    -8.979925641794260e-01   
4.096000000000000e+09    4.594691073842466e-01    -8.982948723326183e-01   
4.097000000000000e+09    4.590381028419637e-01    -8.991231354510754e-01   
4.098000000000000e+09    4.581296392653886e-01    -8.988854557863947e-01   
4.099000000000000e+09    4.572238311071115e-01    -8.988582268640578e-01   
4.100000000000000e+09    4.564904816420312e-01    -8.994827025138574e-01   
4.101000000000000e+09    4.553421289411921e-01    -9.000135808775920e-01   
4.102000000000000e+09    4.543284291341670e-01    -8.999531429648580e-01   
4.103000000000000e+09    4.535994232210679e-01    -9.002776739433201e-01   
4.104000000000000e+09    4.526802186555089e-01    -9.003877243133922e-01   
4.105000000000000e+09    4.517821064530133e-01    -9.007933843175967e-01   
4.106000000000000e+09    4.508028581977629e-01    -9.007625579562140e-01   
4.107000000000000e+09    4.495324382373834e-01    -9.007026920377389e-01   
4.108000000000000e+09    4.487098377808299e-01    -9.011748929713772e-01   
4.109000000000000e+09    4.476528124203895e-01    -9.012990852473692e-01   
4.110000000000000e+09    4.464513518456287e-01    -9.013192880651881e-01   
4.111000000000000e+09    4.455996305543578e-01    -9.012772771298618e-01   
4.112000000000000e+09    4.437417560217823e-01    -9.014229277391848e-01   
4.113000000000000e+09    4.428194342401878e-01    -9.015899486973920e-01   
4.114000000000000e+09    4.415376121071287e-01    -9.018832013647601e-01   
4.115000000000000e+09    4.405409816529746e-01    -9.014672003868814e-01   
4.116000000000000e+09    4.389641260872130e-01    -9.018074258890465e-01   
4.117000000000000e+09    4.378817178101291e-01    -9.019460547758198e-01   
4.118000000000000e+09    4.362782098492322e-01    -9.021756324739871e-01   
4.119000000000000e+09    4.349409210205862e-01    -9.022513810614040e-01   
4.120000000000000e+09    4.334731828146567e-01    -9.023308633826148e-01   
4.121000000000000e+09    4.315601927669639e-01    -9.027251825582637e-01   
4.122000000000000e+09    4.303207555255157e-01    -9.027060062730362e-01   
4.123000000000000e+09    4.288224100353428e-01    -9.025437090205024e-01   
4.124000000000000e+09    4.272202190875568e-01    -9.031090457025348e-01   
4.125000000000000e+09    4.253689281438247e-01    -9.035916870670854e-01   
4.126000000000000e+09    4.240062315942970e-01    -9.038640853928881e-01   
4.127000000000000e+09    4.227032195057128e-01    -9.042861399394632e-01   
4.128000000000000e+09    4.206419632602981e-01    -9.047713475282861e-01   
4.129000000000000e+09    4.190323696355536e-01    -9.049437245087262e-01   
4.130000000000000e+09    4.175609735501843e-01    -9.053790315754273e-01   
4.131000000000000e+09    4.155756790239782e-01    -9.058753272407517e-01   
4.132000000000000e+09    4.138998493379514e-01    -9.065309996506733e-01   
4.133000000000000e+09    4.125703696887031e-01    -9.072111922420464e-01   
4.134000000000000e+09    4.105780806587164e-01    -9.077514975828567e-01   
4.135000000000000e+09    4.090943477371002e-01    -9.083828496809147e-01   
4.136000000000000e+09    4.075663588030586e-01    -9.091475819204298e-01   
4.137000000000000e+09    4.056990118619939e-01    -9.101108695056572e-01   
4.138000000000000e+09    4.039330949321465e-01    -9.104029262091264e-01   
4.139000000000000e+09    4.024580318222856e-01    -9.117542848438215e-01   
4.140000000000000e+09    4.010603337965040e-01    -9.121011593026461e-01   
4.141000000000000e+09    3.996785272602003e-01    -9.131753096529499e-01   
4.142000000000000e+09    3.979978191313144e-01    -9.138353723812320e-01   
4.143000000000000e+09    3.963628909192272e-01    -9.149580857409286e-01   
4.144000000000000e+09    3.952939359565514e-01    -9.155956148736558e-01   
4.145000000000000e+09    3.936034799729477e-01    -9.163842425936990e-01   
4.146000000000000e+09    3.921855832156321e-01    -9.171544151404135e-01   
4.147000000000000e+09    3.906562417621601e-01    -9.183617152947445e-01   
4.148000000000000e+09    3.895287854810470e-01    -9.190934677454471e-01   
4.149000000000000e+09    3.878808887751434e-01    -9.202606896216602e-01   
4.150000000000000e+09    3.868758392764535e-01    -9.212317564018949e-01   
4.151000000000000e+09    3.856503005572124e-01    -9.215891937870035e-01   
4.152000000000000e+09    3.842656670701299e-01    -9.222367057857719e-01   
4.153000000000000e+09    3.830254515476898e-01    -9.240349697588652e-01   
4.154000000000000e+09    3.816823763610830e-01    -9.249662550429261e-01   
4.155000000000000e+09    3.803830281511751e-01    -9.258374587294521e-01   
4.156000000000000e+09    3.797689580173892e-01    -9.266602234830804e-01   
4.157000000000000e+09    3.784609549527503e-01    -9.274181985706800e-01   
4.158000000000000e+09    3.771793682809336e-01    -9.281910626004860e-01   
4.159000000000000e+09    3.761133809261304e-01    -9.288806618855949e-01   
4.160000000000000e+09    3.753443514425934e-01    -9.297264693694027e-01   
4.161000000000000e+09    3.739707582871278e-01    -9.308021974562666e-01   
4.162000000000000e+09    3.731545448021102e-01    -9.313562664627351e-01   
4.163000000000000e+09    3.723798281330870e-01    -9.324408273801560e-01   
4.164000000000000e+09    3.711799186325943e-01    -9.328449363891705e-01   
4.165000000000000e+09    3.701637672166702e-01    -9.340065063855301e-01   
4.166000000000000e+09    3.695952435454254e-01    -9.344984805798021e-01   
4.167000000000000e+09    3.685863965358308e-01    -9.348577160822971e-01   
4.168000000000000e+09    3.677203766354201e-01    -9.356539367739408e-01   
4.169000000000000e+09    3.660599200468890e-01    -9.367074133447548e-01   
4.170000000000000e+09    3.655036046210171e-01    -9.369284887010026e-01   
4.171000000000000e+09    3.646091353761287e-01    -9.377638320550620e-01   
4.172000000000000e+09    3.638599540002774e-01    -9.381056412087954e-01   
4.173000000000000e+09    3.633232868662572e-01    -9.387917617179889e-01   
4.174000000000000e+09    3.619571588261667e-01    -9.391444105329670e-01   
4.175000000000000e+09    3.610471556816191e-01    -9.397037680359344e-01   
4.176000000000000e+09    3.604628968413836e-01    -9.401030126351312e-01   
4.177000000000000e+09    3.593915688156619e-01    -9.407057665054517e-01   
4.178000000000000e+09    3.588439150123687e-01    -9.407089843403271e-01   
4.179000000000000e+09    3.582962458483795e-01    -9.413568731927405e-01   
4.180000000000000e+09    3.572267551343870e-01    -9.416914496726408e-01   
4.181000000000000e+09    3.565529464061507e-01    -9.420389177959841e-01   
4.182000000000000e+09    3.554605407097581e-01    -9.423870781580265e-01   
4.183000000000000e+09    3.553443951346881e-01    -9.425266209358686e-01   
4.184000000000000e+09    3.541057398506171e-01    -9.426742373828334e-01   
4.185000000000000e+09    3.537182014338998e-01    -9.427818788353334e-01   
4.186000000000000e+09    3.532198612761264e-01    -9.433109255505183e-01   
4.187000000000000e+09    3.524537471463161e-01    -9.431177313083311e-01   
4.188000000000000e+09    3.519981143508509e-01    -9.434957882165655e-01   
4.189000000000000e+09    3.513852399982216e-01    -9.434572793734474e-01   
4.190000000000000e+09    3.503232526575272e-01    -9.436411226032806e-01   
4.191000000000000e+09    3.498893675926624e-01    -9.437717400333127e-01   
4.192000000000000e+09    3.491525054826424e-01    -9.439098925107192e-01   
4.193000000000000e+09    3.486044011824393e-01    -9.439825890341540e-01   
4.194000000000000e+09    3.480064513883307e-01    -9.439723618231671e-01   
4.195000000000000e+09    3.472808657795859e-01    -9.440354095948692e-01   
4.196000000000000e+09    3.465694076105621e-01    -9.442730670687352e-01   
4.197000000000000e+09    3.460118569081350e-01    -9.441619505235189e-01   
4.198000000000000e+09    3.453778274010445e-01    -9.437877894750485e-01   
4.199000000000000e+09    3.443592038232487e-01    -9.440492431787593e-01   
4.200000000000000e+09    3.433957207918220e-01    -9.438932804738143e-01   
4.201000000000000e+09    3.420766591390687e-01    -9.459986136770017e-01   
4.202000000000000e+09    3.412674455755767e-01    -9.460678836073807e-01   
4.203000000000000e+09    3.406989221960180e-01    -9.457685299936863e-01   
4.204000000000000e+09    3.401826760831714e-01    -9.457478443857322e-01   
4.205000000000000e+09    3.391124429549584e-01    -9.457339958759853e-01   
4.206000000000000e+09    3.380225903433662e-01    -9.454068783284506e-01   
4.207000000000000e+09    3.374651122835302e-01    -9.454259961614453e-01   
4.208000000000000e+09    3.364053407336777e-01    -9.456231172174077e-01   
4.209000000000000e+09    3.353808325144665e-01    -9.457047015778962e-01   
4.210000000000000e+09    3.345037711048783e-01    -9.455517283073485e-01   
4.211000000000000e+09    3.335823392600281e-01    -9.454778233195018e-01   
4.212000000000000e+09    3.324653611544686e-01    -9.460851770500454e-01   
4.213000000000000e+09    3.315795678189812e-01    -9.456401961838693e-01   
4.214000000000000e+09    3.307234276840733e-01    -9.460464506621482e-01   
4.215000000000000e+09    3.295370429369551e-01    -9.461004630121110e-01   
4.216000000000000e+09    3.281371612203400e-01    -9.459747144266121e-01   
4.217000000000000e+09    3.267389311043387e-01    -9.461378357846302e-01   
4.218000000000000e+09    3.258540585393248e-01    -9.465346393663144e-01   
4.219000000000000e+09    3.246379354196506e-01    -9.468074975767559e-01   
4.220000000000000e+09    3.232665920439678e-01    -9.473539190210507e-01   
4.221000000000000e+09    3.220134788108771e-01    -9.475758090703872e-01   
4.222000000000000e+09    3.208621143306843e-01    -9.478258099845044e-01   
4.223000000000000e+09    3.192777888015901e-01    -9.480680569008136e-01   
4.224000000000000e+09    3.182489064173841e-01    -9.485722293926089e-01   
4.225000000000000e+09    3.166868032261705e-01    -9.489901932056738e-01   
4.226000000000000e+09    3.155861570891989e-01    -9.494467211047829e-01   
4.227000000000000e+09    3.142623852172679e-01    -9.498768721609828e-01   
4.228000000000000e+09    3.129839181861266e-01    -9.500386100045486e-01   
4.229000000000000e+09    3.117291469235317e-01    -9.508858839534050e-01   
4.230000000000000e+09    3.103073600825804e-01    -9.513303054972777e-01   
4.231000000000000e+09    3.088298515566939e-01    -9.518854821593238e-01   
4.232000000000000e+09    3.073454832400684e-01    -9.522275709121490e-01   
4.233000000000000e+09    3.061884696500437e-01    -9.527020948264067e-01   
4.234000000000000e+09    3.042705438583106e-01    -9.530827643281853e-01   
4.235000000000000e+09    3.031496187008028e-01    -9.538241369211923e-01   
4.236000000000000e+09    3.016636078303020e-01    -9.543858912582968e-01   
4.237000000000000e+09    3.002483428997375e-01    -9.549628364069679e-01   
4.238000000000000e+09    2.991312003699388e-01    -9.553956122723217e-01   
4.239000000000000e+09    2.974412467624513e-01    -9.558719295616005e-01   
4.240000000000000e+09    2.957771158612194e-01    -9.565114249422089e-01   
4.241000000000000e+09    2.946501046775514e-01    -9.569114292764129e-01   
4.242000000000000e+09    2.927370188936181e-01    -9.573854606486194e-01   
4.243000000000000e+09    2.914492631011479e-01    -9.576239205573084e-01   
4.244000000000000e+09    2.895764043820076e-01    -9.580698579603047e-01   
4.245000000000000e+09    2.880256861432824e-01    -9.589146955171248e-01   
4.246000000000000e+09    2.865430229812986e-01    -9.594875247632674e-01   
4.247000000000000e+09    2.851435866100095e-01    -9.598591726175114e-01   
4.248000000000000e+09    2.833008339279668e-01    -9.601821748715278e-01   
4.249000000000000e+09    2.818966823695265e-01    -9.608678347284374e-01   
4.250000000000000e+09    2.802536034705528e-01    -9.608622520773336e-01   
4.251000000000000e+09    2.785647247911076e-01    -9.616080855228819e-01   
4.252000000000000e+09    2.766858115188165e-01    -9.620873670915622e-01   
4.253000000000000e+09    2.752173123016727e-01    -9.626924845898805e-01   
4.254000000000000e+09    2.734493160933026e-01    -9.630131406138278e-01   
4.255000000000000e+09    2.715771556401468e-01    -9.636745907635748e-01   
4.256000000000000e+09    2.694919405317792e-01    -9.639131900963492e-01   
