[Version] 2.0
! Rohde & Schwarz Vector Network Analyzer
! Rohde-Schwarz,ZNL20-2Port,1323001220200009,1.71.1.10-23.02.1.238
! 
! Port Assignments:
! Nominal Port -> Actual Test Port
! --------------------------------
!   1 -> 1

! Created: GMT+2 2025-01-17 12:44:34

# Hz S RI R 50

[Number of Ports] 1
[Number of Frequencies] 16001

[Network Data] 
! freq[Hz]               S11[Re]                  S11[Im]                  
4.000000000000000e+09    5.559957652836831e-01    -8.365088150701283e-01   
4.001000000000000e+09    5.545600415961797e-01    -8.374444456815966e-01   
4.002000000000000e+09    5.540658053772139e-01    -8.384125093842211e-01   
4.003000000000000e+09    5.522783996920008e-01    -8.392717000395691e-01   
4.004000000000000e+09    5.514256255655690e-01    -8.397448856655019e-01   
4.005000000000000e+09    5.499262092797764e-01    -8.409775630164331e-01   
4.006000000000000e+09    5.485515216407787e-01    -8.415130640160289e-01   
4.007000000000000e+09    5.477464113661189e-01    -8.422011058216702e-01   
4.008000000000000e+09    5.465104911025711e-01    -8.435870345573399e-01   
4.009000000000000e+09    5.451312445555493e-01    -8.443409883276909e-01   
4.010000000000000e+09    5.435950167604705e-01    -8.449449539389000e-01   
4.011000000000000e+09    5.425288985268866e-01    -8.459406541854320e-01   
4.012000000000000e+09    5.411912529706954e-01    -8.465162456860034e-01   
4.013000000000000e+09    5.399764107772297e-01    -8.471798341230780e-01   
4.014000000000000e+09    5.388483642259247e-01    -8.479468504818688e-01   
4.015000000000000e+09    5.373253882455049e-01    -8.484523874578882e-01   
4.016000000000000e+09    5.360762008110850e-01    -8.492967747118914e-01   
4.017000000000000e+09    5.351214352529747e-01    -8.499385460701746e-01   
4.018000000000000e+09    5.334498233287239e-01    -8.504905189409125e-01   
4.019000000000000e+09    5.322497995359387e-01    -8.507360442924689e-01   
4.020000000000000e+09    5.310155531875222e-01    -8.515930292432602e-01   
4.021000000000000e+09    5.296121383227329e-01    -8.518374035502295e-01   
4.022000000000000e+09    5.283571416206336e-01    -8.527669220469122e-01   
4.023000000000000e+09    5.273592284848129e-01    -8.533345356782628e-01   
4.024000000000000e+09    5.260196294304837e-01    -8.532951634344326e-01   
4.025000000000000e+09    5.242086003678321e-01    -8.537282811528522e-01   
4.026000000000000e+09    5.233339023822789e-01    -8.542653500402388e-01   
4.027000000000000e+09    5.217510008940468e-01    -8.546435595688129e-01   
4.028000000000000e+09    5.203684756663116e-01    -8.554025168569546e-01   
4.029000000000000e+09    5.196206333484098e-01    -8.559427052860171e-01   
4.030000000000000e+09    5.181568450999203e-01    -8.562103067727574e-01   
4.031000000000000e+09    5.166850984692508e-01    -8.566567870894530e-01   
4.032000000000000e+09    5.151004209536315e-01    -8.568688165939549e-01   
4.033000000000000e+09    5.140995398390038e-01    -8.571139966496020e-01   
4.034000000000000e+09    5.125530259434371e-01    -8.580163465539367e-01   
4.035000000000000e+09    5.113794272931373e-01    -8.582470495496000e-01   
4.036000000000000e+09    5.097670891881377e-01    -8.588190533355400e-01   
4.037000000000000e+09    5.083337315268822e-01    -8.591569119193565e-01   
4.038000000000000e+09    5.071748748672560e-01    -8.598606397110801e-01   
4.039000000000000e+09    5.058873195800909e-01    -8.602952289680132e-01   
4.040000000000000e+09    5.045253511791962e-01    -8.609343741712852e-01   
4.041000000000000e+09    5.030103957324290e-01    -8.613465366743784e-01   
4.042000000000000e+09    5.017398327329121e-01    -8.618265111057930e-01   
4.043000000000000e+09    5.004215657201824e-01    -8.624818589638702e-01   
4.044000000000000e+09    4.992133985937792e-01    -8.630909699793446e-01   
4.045000000000000e+09    4.978449000626619e-01    -8.638537605592141e-01   
4.046000000000000e+09    4.964919397253583e-01    -8.647216245435343e-01   
4.047000000000000e+09    4.952659681518456e-01    -8.653908968912366e-01   
4.048000000000000e+09    4.941939466992117e-01    -8.659450760991210e-01   
4.049000000000000e+09    4.930651131153496e-01    -8.668213439175978e-01   
4.050000000000000e+09    4.923241066475628e-01    -8.672632582019614e-01   
4.051000000000000e+09    4.911989814346043e-01    -8.683680299020149e-01   
4.052000000000000e+09    4.898516867713277e-01    -8.689352458243159e-01   
4.053000000000000e+09    4.889012181224066e-01    -8.701995083411994e-01   
4.054000000000000e+09    4.880206635909660e-01    -8.706273209907386e-01   
4.055000000000000e+09    4.871744613121832e-01    -8.713546934958591e-01   
4.056000000000000e+09    4.863168897751695e-01    -8.722288129826663e-01   
4.057000000000000e+09    4.852877344464062e-01    -8.730002774628890e-01   
4.058000000000000e+09    4.844489529884046e-01    -8.738517554909437e-01   
4.059000000000000e+09    4.835890063308342e-01    -8.747325778761471e-01   
4.060000000000000e+09    4.829803717077737e-01    -8.753713814000916e-01   
4.061000000000000e+09    4.820679935760826e-01    -8.763525135012927e-01   
4.062000000000000e+09    4.813457035865167e-01    -8.769252720443775e-01   
4.063000000000000e+09    4.808006316071016e-01    -8.778336651429083e-01   
4.064000000000000e+09    4.801657644804403e-01    -8.787123571087955e-01   
4.065000000000000e+09    4.796111272858966e-01    -8.793987810849624e-01   
4.066000000000000e+09    4.789686420868289e-01    -8.802059295985190e-01   
4.067000000000000e+09    4.781580879352001e-01    -8.807294376954639e-01   
4.068000000000000e+09    4.779225743369072e-01    -8.816705522921966e-01   
4.069000000000000e+09    4.770694298776580e-01    -8.823801930239478e-01   
4.070000000000000e+09    4.764122990674923e-01    -8.831630760807524e-01   
4.071000000000000e+09    4.762313194184026e-01    -8.840466248766029e-01   
4.072000000000000e+09    4.752778896131842e-01    -8.845196464206762e-01   
4.073000000000000e+09    4.747269574947029e-01    -8.852431449807453e-01   
4.074000000000000e+09    4.741690494970792e-01    -8.859019209473959e-01   
4.075000000000000e+09    4.735838947675899e-01    -8.870117915544747e-01   
4.076000000000000e+09    4.728817102011050e-01    -8.874412859944774e-01   
4.077000000000000e+09    4.724520378732830e-01    -8.882286165657465e-01   
4.078000000000000e+09    4.719380739998744e-01    -8.889028863341125e-01   
4.079000000000000e+09    4.712976247384250e-01    -8.896405505992216e-01   
4.080000000000000e+09    4.708020191014958e-01    -8.903079056939083e-01   
4.081000000000000e+09    4.702226540956376e-01    -8.910966853594285e-01   
4.082000000000000e+09    4.694510556927811e-01    -8.911662835088217e-01   
4.083000000000000e+09    4.687332880427854e-01    -8.920772223327770e-01   
4.084000000000000e+09    4.684963028606032e-01    -8.927539837552518e-01   
4.085000000000000e+09    4.674964472789036e-01    -8.937023261880789e-01   
4.086000000000000e+09    4.667531902732652e-01    -8.939045084044460e-01   
4.087000000000000e+09    4.660729898889715e-01    -8.943413879712246e-01   
4.088000000000000e+09    4.653812460161361e-01    -8.950465332741380e-01   
4.089000000000000e+09    4.648475415765741e-01    -8.957178447521672e-01   
4.090000000000000e+09    4.637502747789832e-01    -8.961368620278461e-01   
4.091000000000000e+09    4.634718042014263e-01    -8.967960705249469e-01   
4.092000000000000e+09    4.626108783940086e-01    -8.967530078143050e-01   
4.093000000000000e+09    4.617521953046553e-01    -8.977094625824674e-01   
4.094000000000000e+09    4.609959843983368e-01    -8.977067946847318e-01   
4.095000000000000e+09    4.601388036457279e-01    -8.981887153615385e-01   
4.096000000000000e+09    4.592994815768284e-01    -8.985577592003321e-01   
4.097000000000000e+09    4.581975867587141e-01    -8.985304758676621e-01   
4.098000000000000e+09    4.576589935095465e-01    -8.994941355358737e-01   
4.099000000000000e+09    4.565186354860297e-01    -8.994437299119831e-01   
4.100000000000000e+09    4.557014160802588e-01    -8.999040209038537e-01   
4.101000000000000e+09    4.550801184395469e-01    -9.001251582626610e-01   
4.102000000000000e+09    4.535473129990383e-01    -9.002054867090867e-01   
4.103000000000000e+09    4.529112141229230e-01    -9.001971141751722e-01   
4.104000000000000e+09    4.521934327057611e-01    -9.005001931486822e-01   
4.105000000000000e+09    4.511968111078075e-01    -9.010862706374855e-01   
4.106000000000000e+09    4.501810769144479e-01    -9.008080168538632e-01   
4.107000000000000e+09    4.490104827540451e-01    -9.008729642140482e-01   
4.108000000000000e+09    4.480109563254460e-01    -9.012402690619101e-01   
4.109000000000000e+09    4.469188965058978e-01    -9.014713044136075e-01   
4.110000000000000e+09    4.457091867183747e-01    -9.012959590350791e-01   
4.111000000000000e+09    4.447502032700135e-01    -9.017666913401590e-01   
4.112000000000000e+09    4.435591746089346e-01    -9.019240139411140e-01   
4.113000000000000e+09    4.424643402787010e-01    -9.018592792731857e-01   
4.114000000000000e+09    4.411584041610799e-01    -9.019291490279640e-01   
4.115000000000000e+09    4.398550313491672e-01    -9.021547219939814e-01   
4.116000000000000e+09    4.382976800199647e-01    -9.021029874247954e-01   
4.117000000000000e+09    4.370661173340529e-01    -9.022882828558413e-01   
4.118000000000000e+09    4.359047700211666e-01    -9.023161728728462e-01   
4.119000000000000e+09    4.344255222024386e-01    -9.027523457840601e-01   
4.120000000000000e+09    4.325553787014521e-01    -9.026203282837845e-01   
4.121000000000000e+09    4.313784502246627e-01    -9.027131489616971e-01   
4.122000000000000e+09    4.299663515135084e-01    -9.028737298003588e-01   
4.123000000000000e+09    4.283527427755522e-01    -9.030880395431905e-01   
4.124000000000000e+09    4.265859192691101e-01    -9.034550073554513e-01   
4.125000000000000e+09    4.251476069234937e-01    -9.039956108788706e-01   
4.126000000000000e+09    4.234002653772848e-01    -9.039098063574583e-01   
4.127000000000000e+09    4.220102889812947e-01    -9.043001963372737e-01   
4.128000000000000e+09    4.201511180035177e-01    -9.046983965098763e-01   
4.129000000000000e+09    4.185111030689486e-01    -9.053193682139219e-01   
4.130000000000000e+09    4.167358365762461e-01    -9.055906503981261e-01   
4.131000000000000e+09    4.154008833767953e-01    -9.064379821657900e-01   
4.132000000000000e+09    4.136260186399353e-01    -9.071388670245348e-01   
4.133000000000000e+09    4.117864726442194e-01    -9.075846873130912e-01   
4.134000000000000e+09    4.100070467486999e-01    -9.079776776418608e-01   
4.135000000000000e+09    4.085793919776970e-01    -9.087218958173791e-01   
4.136000000000000e+09    4.067373189127608e-01    -9.091924890370182e-01   
4.137000000000000e+09    4.053382630652987e-01    -9.099111887155900e-01   
4.138000000000000e+09    4.034535911756706e-01    -9.107280734996827e-01   
4.139000000000000e+09    4.021152072009803e-01    -9.117452349662702e-01   
4.140000000000000e+09    4.005132781437132e-01    -9.125718525727751e-01   
4.141000000000000e+09    3.990431193706981e-01    -9.130925092526024e-01   
4.142000000000000e+09    3.974001580548278e-01    -9.144409628312401e-01   
4.143000000000000e+09    3.959905764884962e-01    -9.149733076157320e-01   
4.144000000000000e+09    3.944487953201654e-01    -9.160131295987692e-01   
4.145000000000000e+09    3.933415944337190e-01    -9.164496885752677e-01   
4.146000000000000e+09    3.918863029693712e-01    -9.177603558449619e-01   
4.147000000000000e+09    3.904282058131436e-01    -9.184739901471528e-01   
4.148000000000000e+09    3.889373448008276e-01    -9.195534127931073e-01   
4.149000000000000e+09    3.880720145738158e-01    -9.203553823370171e-01   
4.150000000000000e+09    3.865394026568295e-01    -9.209525438101086e-01   
4.151000000000000e+09    3.852859320854736e-01    -9.220226809567208e-01   
4.152000000000000e+09    3.837610422280525e-01    -9.229478096259363e-01   
4.153000000000000e+09    3.825441309868887e-01    -9.240692104705432e-01   
4.154000000000000e+09    3.812926377189192e-01    -9.253748600107287e-01   
4.155000000000000e+09    3.800634241165695e-01    -9.259887961565859e-01   
4.156000000000000e+09    3.791336963928673e-01    -9.266793898763722e-01   
4.157000000000000e+09    3.780261030882110e-01    -9.274230941741851e-01   
4.158000000000000e+09    3.766868659344721e-01    -9.283524002150629e-01   
4.159000000000000e+09    3.759076735773089e-01    -9.288868598437787e-01   
4.160000000000000e+09    3.750155707265082e-01    -9.301472674327611e-01   
4.161000000000000e+09    3.737624483288516e-01    -9.308823175237507e-01   
4.162000000000000e+09    3.726583518572912e-01    -9.317924116084668e-01   
4.163000000000000e+09    3.715458128179604e-01    -9.323020176104387e-01   
4.164000000000000e+09    3.707616262997089e-01    -9.329694707715526e-01   
4.165000000000000e+09    3.694543364137400e-01    -9.337875453143530e-01   
4.166000000000000e+09    3.688411098724328e-01    -9.346189029640526e-01   
4.167000000000000e+09    3.679628747268570e-01    -9.351423604217798e-01   
4.168000000000000e+09    3.669876488523856e-01    -9.358595645314490e-01   
4.169000000000000e+09    3.659896647633148e-01    -9.366526680535476e-01   
4.170000000000000e+09    3.650743274719183e-01    -9.372504944360310e-01   
4.171000000000000e+09    3.641322251881262e-01    -9.377419116827800e-01   
4.172000000000000e+09    3.634924442610702e-01    -9.383478699836482e-01   
4.173000000000000e+09    3.627709920889393e-01    -9.389981997242951e-01   
4.174000000000000e+09    3.614366025180067e-01    -9.395640150051179e-01   
4.175000000000000e+09    3.607144681642941e-01    -9.398806076429805e-01   
4.176000000000000e+09    3.598237785665670e-01    -9.402824503838272e-01   
4.177000000000000e+09    3.590059204234655e-01    -9.407154197275298e-01   
4.178000000000000e+09    3.583479157454026e-01    -9.409556523838410e-01   
4.179000000000000e+09    3.575314743603870e-01    -9.413712725661419e-01   
4.180000000000000e+09    3.570396540989528e-01    -9.420937485165658e-01   
4.181000000000000e+09    3.558791686045111e-01    -9.421997871384683e-01   
4.182000000000000e+09    3.554455129914668e-01    -9.425987034850655e-01   
4.183000000000000e+09    3.549174224681056e-01    -9.429050751845991e-01   
4.184000000000000e+09    3.536265491665354e-01    -9.427202648128197e-01   
4.185000000000000e+09    3.531834545104911e-01    -9.431818567853900e-01   
4.186000000000000e+09    3.525142916218663e-01    -9.434604063165732e-01   
4.187000000000000e+09    3.520159689737360e-01    -9.434540768699492e-01   
4.188000000000000e+09    3.512397272382733e-01    -9.434817278000037e-01   
4.189000000000000e+09    3.507636477114576e-01    -9.432642439836001e-01   
4.190000000000000e+09    3.497970750878829e-01    -9.438851880974757e-01   
4.191000000000000e+09    3.492262706897782e-01    -9.437813092519252e-01   
4.192000000000000e+09    3.489890651874616e-01    -9.442191085423642e-01   
4.193000000000000e+09    3.481656457293468e-01    -9.441191062944648e-01   
4.194000000000000e+09    3.472321689794565e-01    -9.441847423327405e-01   
4.195000000000000e+09    3.466652183794806e-01    -9.442383696170148e-01   
4.196000000000000e+09    3.460090083582075e-01    -9.441815285507558e-01   
4.197000000000000e+09    3.455780724606458e-01    -9.441403054067542e-01   
4.198000000000000e+09    3.448227152008321e-01    -9.442198637169071e-01   
4.199000000000000e+09    3.438136027269367e-01    -9.440434516963881e-01   
4.200000000000000e+09    3.430890099721471e-01    -9.441254072145098e-01   
4.201000000000000e+09    3.413985917352263e-01    -9.463409000844268e-01   
4.202000000000000e+09    3.406323044387066e-01    -9.464056100131200e-01   
4.203000000000000e+09    3.400873730152970e-01    -9.462206331224777e-01   
4.204000000000000e+09    3.393765760946871e-01    -9.458256330190613e-01   
4.205000000000000e+09    3.382915265839846e-01    -9.460324060221948e-01   
4.206000000000000e+09    3.378398859124704e-01    -9.459593320851789e-01   
4.207000000000000e+09    3.364576703439290e-01    -9.456555853256251e-01   
4.208000000000000e+09    3.360078763252908e-01    -9.454992436204149e-01   
4.209000000000000e+09    3.348404878606130e-01    -9.460395297354959e-01   
4.210000000000000e+09    3.340261631816607e-01    -9.458024187182422e-01   
4.211000000000000e+09    3.331353732714650e-01    -9.457303518072020e-01   
4.212000000000000e+09    3.322811672032132e-01    -9.463445891150294e-01   
4.213000000000000e+09    3.308069847962375e-01    -9.459979318881736e-01   
4.214000000000000e+09    3.296200649297524e-01    -9.460800582007928e-01   
4.215000000000000e+09    3.290962608927403e-01    -9.464912457010026e-01   
4.216000000000000e+09    3.275504729877073e-01    -9.463238941164736e-01   
4.217000000000000e+09    3.263031936484062e-01    -9.466030428027395e-01   
4.218000000000000e+09    3.251157438440012e-01    -9.468296272342206e-01   
4.219000000000000e+09    3.238072744113993e-01    -9.471916470753724e-01   
4.220000000000000e+09    3.230046003817439e-01    -9.476325346734544e-01   
4.221000000000000e+09    3.212375258704907e-01    -9.476728064346372e-01   
4.222000000000000e+09    3.202202066848334e-01    -9.480173690655068e-01   
4.223000000000000e+09    3.188368216603790e-01    -9.482900953348758e-01   
4.224000000000000e+09    3.176867806854384e-01    -9.482930300730432e-01   
4.225000000000000e+09    3.163743980817161e-01    -9.493094526964225e-01   
4.226000000000000e+09    3.147404974317119e-01    -9.497617335534583e-01   
4.227000000000000e+09    3.138040251853309e-01    -9.499925290195496e-01   
4.228000000000000e+09    3.120358210342746e-01    -9.504798183127520e-01   
4.229000000000000e+09    3.110888965997182e-01    -9.508617872945481e-01   
4.230000000000000e+09    3.092830169988939e-01    -9.516468775146913e-01   
4.231000000000000e+09    3.082494651785105e-01    -9.520757883262458e-01   
4.232000000000000e+09    3.068387080530357e-01    -9.524403442361806e-01   
4.233000000000000e+09    3.056281848521047e-01    -9.530298635030852e-01   
4.234000000000000e+09    3.037450454999280e-01    -9.534391846408021e-01   
4.235000000000000e+09    3.025817361595864e-01    -9.539875179903297e-01   
4.236000000000000e+09    3.012617622839205e-01    -9.544555621466436e-01   
4.237000000000000e+09    2.999173061400195e-01    -9.548823757877632e-01   
4.238000000000000e+09    2.987518468524860e-01    -9.554015970446021e-01   
4.239000000000000e+09    2.968132203282925e-01    -9.559288000636592e-01   
4.240000000000000e+09    2.952496163451053e-01    -9.567230702901778e-01   
4.241000000000000e+09    2.939129561765232e-01    -9.570744106641765e-01   
4.242000000000000e+09    2.924047117306626e-01    -9.572618692618584e-01   
4.243000000000000e+09    2.909714286316237e-01    -9.580021313805268e-01   
4.244000000000000e+09    2.891372020420312e-01    -9.585428594260330e-01   
4.245000000000000e+09    2.877356736242367e-01    -9.591494011576486e-01   
4.246000000000000e+09    2.858417101685284e-01    -9.594997500931250e-01   
4.247000000000000e+09    2.848068376376677e-01    -9.599597368431437e-01   
4.248000000000000e+09    2.829158457533192e-01    -9.602211645017253e-01   
4.249000000000000e+09    2.814366880625964e-01    -9.606513735904479e-01   
4.250000000000000e+09    2.796077015238865e-01    -9.613153498952614e-01   
4.251000000000000e+09    2.781898080268889e-01    -9.618291507244668e-01   
4.252000000000000e+09    2.760758174647634e-01    -9.620430619394594e-01   
4.253000000000000e+09    2.742991120225658e-01    -9.629769152693370e-01   
4.254000000000000e+09    2.729979714125692e-01    -9.630385951520835e-01   
4.255000000000000e+09    2.709674908411298e-01    -9.638776310725300e-01   
4.256000000000000e+09    2.693176403300233e-01    -9.636954398999907e-01   
