[Version] 2.0
! Rohde & Schwarz Vector Network Analyzer
! Rohde-Schwarz,ZNL20-2Port,1323001220200009,1.71.1.10-23.02.1.238
! 
! Port Assignments:
! Nominal Port -> Actual Test Port
! --------------------------------
!   1 -> 1

! Created: GMT+2 2025-01-17 12:44:51

# Hz S RI R 50

[Number of Ports] 1
[Number of Frequencies] 16001

[Network Data] 
! freq[Hz]               S11[Re]                  S11[Im]                  
4.000000000000000e+09    5.559706395560726e-01    -8.364777280062990e-01   
4.001000000000000e+09    5.549281437719253e-01    -8.374746237335533e-01   
4.002000000000000e+09    5.537287697711188e-01    -8.384485998913186e-01   
4.003000000000000e+09    5.525860628640236e-01    -8.391833506297741e-01   
4.004000000000000e+09    5.514421393605772e-01    -8.397871159805023e-01   
4.005000000000000e+09    5.499453725885703e-01    -8.408254092881295e-01   
4.006000000000000e+09    5.488988629891675e-01    -8.415869906488757e-01   
4.007000000000000e+09    5.476383581444290e-01    -8.425803928627977e-01   
4.008000000000000e+09    5.464352355993309e-01    -8.436287755147563e-01   
4.009000000000000e+09    5.449978562325944e-01    -8.441455398872429e-01   
4.010000000000000e+09    5.440155021350184e-01    -8.447501886283260e-01   
4.011000000000000e+09    5.421494943265303e-01    -8.458852350292471e-01   
4.012000000000000e+09    5.413886993392876e-01    -8.460840784985431e-01   
4.013000000000000e+09    5.396914945760291e-01    -8.471782870402665e-01   
4.014000000000000e+09    5.383578890267721e-01    -8.476813577197388e-01   
4.015000000000000e+09    5.372800665938647e-01    -8.488845828726092e-01   
4.016000000000000e+09    5.357928187850990e-01    -8.493618279693059e-01   
4.017000000000000e+09    5.347205830542573e-01    -8.499646323944767e-01   
4.018000000000000e+09    5.334809407164791e-01    -8.500511358384488e-01   
4.019000000000000e+09    5.323972574990599e-01    -8.507042978941209e-01   
4.020000000000000e+09    5.309100297532151e-01    -8.514548194963467e-01   
4.021000000000000e+09    5.295871542684867e-01    -8.517671778333405e-01   
4.022000000000000e+09    5.283227246737063e-01    -8.525943867059699e-01   
4.023000000000000e+09    5.271811376468725e-01    -8.530096312266602e-01   
4.024000000000000e+09    5.257388325999139e-01    -8.535575708730982e-01   
4.025000000000000e+09    5.244080596157784e-01    -8.540466675379702e-01   
4.026000000000000e+09    5.231495858603168e-01    -8.543400360016429e-01   
4.027000000000000e+09    5.219209922818383e-01    -8.547578528440841e-01   
4.028000000000000e+09    5.204116966174347e-01    -8.551361092686769e-01   
4.029000000000000e+09    5.192769893478461e-01    -8.556723628548253e-01   
4.030000000000000e+09    5.180608567807153e-01    -8.563671291902908e-01   
4.031000000000000e+09    5.168295927173955e-01    -8.567892353476305e-01   
4.032000000000000e+09    5.153585725493115e-01    -8.568311334875295e-01   
4.033000000000000e+09    5.140758290192258e-01    -8.572305139713955e-01   
4.034000000000000e+09    5.125699842722314e-01    -8.577725209197689e-01   
4.035000000000000e+09    5.111716281061556e-01    -8.584245068232440e-01   
4.036000000000000e+09    5.097750514093148e-01    -8.588338201786803e-01   
4.037000000000000e+09    5.084869197991058e-01    -8.593243687781723e-01   
4.038000000000000e+09    5.072579562681773e-01    -8.598423517767727e-01   
4.039000000000000e+09    5.058664455268548e-01    -8.603059987671081e-01   
4.040000000000000e+09    5.045511149773000e-01    -8.608068382058462e-01   
4.041000000000000e+09    5.032274972250608e-01    -8.612101168496705e-01   
4.042000000000000e+09    5.017357880879779e-01    -8.620397291424249e-01   
4.043000000000000e+09    5.003770809099884e-01    -8.625211628299667e-01   
4.044000000000000e+09    4.991627768224390e-01    -8.631302811104473e-01   
4.045000000000000e+09    4.978203797586311e-01    -8.637729589698501e-01   
4.046000000000000e+09    4.964804445211300e-01    -8.646759906582440e-01   
4.047000000000000e+09    4.954611233463422e-01    -8.652563509471163e-01   
4.048000000000000e+09    4.941847380077354e-01    -8.661512789689141e-01   
4.049000000000000e+09    4.930948299184372e-01    -8.667266869952612e-01   
4.050000000000000e+09    4.921379558389626e-01    -8.674396894841235e-01   
4.051000000000000e+09    4.914663963680991e-01    -8.683768505500977e-01   
4.052000000000000e+09    4.901322060801021e-01    -8.692585092499097e-01   
4.053000000000000e+09    4.889208069281649e-01    -8.698533411555225e-01   
4.054000000000000e+09    4.882351047141359e-01    -8.708043702448738e-01   
4.055000000000000e+09    4.874156970027931e-01    -8.713485222443396e-01   
4.056000000000000e+09    4.861758947992191e-01    -8.724186383254913e-01   
4.057000000000000e+09    4.856990022199323e-01    -8.729155714022538e-01   
4.058000000000000e+09    4.844859753743851e-01    -8.736898799176296e-01   
4.059000000000000e+09    4.835654737145130e-01    -8.748474613115028e-01   
4.060000000000000e+09    4.829231959091454e-01    -8.756373767156364e-01   
4.061000000000000e+09    4.823105933898569e-01    -8.763919816580568e-01   
4.062000000000000e+09    4.815633076345786e-01    -8.771665400311245e-01   
4.063000000000000e+09    4.807816314055997e-01    -8.779310067646046e-01   
4.064000000000000e+09    4.802127435142449e-01    -8.784777798517025e-01   
4.065000000000000e+09    4.794827163365779e-01    -8.797336590560580e-01   
4.066000000000000e+09    4.787822032806034e-01    -8.803754921978392e-01   
4.067000000000000e+09    4.783525511190512e-01    -8.809260419044759e-01   
4.068000000000000e+09    4.778455216278171e-01    -8.815110323032536e-01   
4.069000000000000e+09    4.772126128855705e-01    -8.826390151214504e-01   
4.070000000000000e+09    4.765443613358219e-01    -8.830675908330443e-01   
4.071000000000000e+09    4.760836942714438e-01    -8.840356411740855e-01   
4.072000000000000e+09    4.753221066951296e-01    -8.847157032971781e-01   
4.073000000000000e+09    4.747293709367840e-01    -8.852680463055789e-01   
4.074000000000000e+09    4.741972245795232e-01    -8.860523726063781e-01   
4.075000000000000e+09    4.735980967474615e-01    -8.869973202522911e-01   
4.076000000000000e+09    4.732089068210154e-01    -8.874351726464528e-01   
4.077000000000000e+09    4.725264209304234e-01    -8.880834923562886e-01   
4.078000000000000e+09    4.717337004808285e-01    -8.889337877393330e-01   
4.079000000000000e+09    4.712746435568124e-01    -8.896318313559104e-01   
4.080000000000000e+09    4.707123926380972e-01    -8.904243876589250e-01   
4.081000000000000e+09    4.700403028946219e-01    -8.909509440249169e-01   
4.082000000000000e+09    4.696166850817979e-01    -8.915104327535829e-01   
4.083000000000000e+09    4.686713640882422e-01    -8.922738942813256e-01   
4.084000000000000e+09    4.681485907328153e-01    -8.925103454342908e-01   
4.085000000000000e+09    4.674001634884942e-01    -8.932000698685519e-01   
4.086000000000000e+09    4.667831420940239e-01    -8.941487809607517e-01   
4.087000000000000e+09    4.661096274106510e-01    -8.945092707137354e-01   
4.088000000000000e+09    4.655083950554152e-01    -8.948087470330495e-01   
4.089000000000000e+09    4.649782768109011e-01    -8.957976397395927e-01   
4.090000000000000e+09    4.640419861822337e-01    -8.963211524382968e-01   
4.091000000000000e+09    4.631257263930086e-01    -8.965205496063368e-01   
4.092000000000000e+09    4.628299975880308e-01    -8.972140026666887e-01   
4.093000000000000e+09    4.619307548525025e-01    -8.973286010776415e-01   
4.094000000000000e+09    4.605338564772073e-01    -8.977276196644897e-01   
4.095000000000000e+09    4.598619564943145e-01    -8.983768703824231e-01   
4.096000000000000e+09    4.591735298492997e-01    -8.983457611623191e-01   
4.097000000000000e+09    4.585823868194579e-01    -8.986872795028057e-01   
4.098000000000000e+09    4.576321722109278e-01    -8.992862120974038e-01   
4.099000000000000e+09    4.566764465331023e-01    -8.996164602900579e-01   
4.100000000000000e+09    4.554281785702607e-01    -8.998928127515046e-01   
4.101000000000000e+09    4.549339883331968e-01    -8.996893437423742e-01   
4.102000000000000e+09    4.536303046474989e-01    -9.002208628481949e-01   
4.103000000000000e+09    4.531832228282862e-01    -9.002356985883294e-01   
4.104000000000000e+09    4.516467554213926e-01    -9.004393230712660e-01   
4.105000000000000e+09    4.508982285239767e-01    -9.007470407454858e-01   
4.106000000000000e+09    4.499235190050782e-01    -9.009962489187980e-01   
4.107000000000000e+09    4.487018707710047e-01    -9.011068278164527e-01   
4.108000000000000e+09    4.477427129978760e-01    -9.013279271909422e-01   
4.109000000000000e+09    4.469742435787219e-01    -9.014769505041517e-01   
4.110000000000000e+09    4.459818755721988e-01    -9.018125895563467e-01   
4.111000000000000e+09    4.446397936892345e-01    -9.013334952909821e-01   
4.112000000000000e+09    4.436656894652347e-01    -9.016335932469706e-01   
4.113000000000000e+09    4.422034193384952e-01    -9.018970459871535e-01   
4.114000000000000e+09    4.410120111571540e-01    -9.018567344624693e-01   
4.115000000000000e+09    4.396213728534968e-01    -9.019262667677294e-01   
4.116000000000000e+09    4.385237158611597e-01    -9.020766963251677e-01   
4.117000000000000e+09    4.371762631795140e-01    -9.022838919583899e-01   
4.118000000000000e+09    4.356085071261995e-01    -9.022792054673662e-01   
4.119000000000000e+09    4.341462696451355e-01    -9.022899130832612e-01   
4.120000000000000e+09    4.327986226987853e-01    -9.027646335400255e-01   
4.121000000000000e+09    4.313871574934743e-01    -9.027836440608229e-01   
4.122000000000000e+09    4.298526564291700e-01    -9.028877457696766e-01   
4.123000000000000e+09    4.281628008692334e-01    -9.031977204006199e-01   
4.124000000000000e+09    4.264066511553603e-01    -9.036352811099280e-01   
4.125000000000000e+09    4.248237419703653e-01    -9.036946705973005e-01   
4.126000000000000e+09    4.233416436019005e-01    -9.041500315645433e-01   
4.127000000000000e+09    4.216928636956014e-01    -9.048077952285442e-01   
4.128000000000000e+09    4.198851465252167e-01    -9.048063509105152e-01   
4.129000000000000e+09    4.185996256476616e-01    -9.053146419041761e-01   
4.130000000000000e+09    4.166988882371401e-01    -9.057881841494132e-01   
4.131000000000000e+09    4.149149033116497e-01    -9.065474969902625e-01   
4.132000000000000e+09    4.136081330925481e-01    -9.070872430334387e-01   
4.133000000000000e+09    4.118134270976719e-01    -9.076210857971398e-01   
4.134000000000000e+09    4.100504340211952e-01    -9.080076958657420e-01   
4.135000000000000e+09    4.084164896277171e-01    -9.086350192713579e-01   
4.136000000000000e+09    4.066536379918202e-01    -9.092618115934907e-01   
4.137000000000000e+09    4.052570579799535e-01    -9.101003652230919e-01   
4.138000000000000e+09    4.036769827192135e-01    -9.108336258884988e-01   
4.139000000000000e+09    4.019247361089567e-01    -9.117948027453107e-01   
4.140000000000000e+09    4.006186273764776e-01    -9.125278863899424e-01   
4.141000000000000e+09    3.991149109744347e-01    -9.134304160846312e-01   
4.142000000000000e+09    3.972607256169176e-01    -9.144000332054588e-01   
4.143000000000000e+09    3.962441073130677e-01    -9.149293405234854e-01   
4.144000000000000e+09    3.942358604734649e-01    -9.159577602789009e-01   
4.145000000000000e+09    3.931536990467086e-01    -9.167731585112463e-01   
4.146000000000000e+09    3.917850358493526e-01    -9.177273550892315e-01   
4.147000000000000e+09    3.904422233967274e-01    -9.183309939850014e-01   
4.148000000000000e+09    3.889002524826487e-01    -9.193903746962747e-01   
4.149000000000000e+09    3.879220749096414e-01    -9.205208283512387e-01   
4.150000000000000e+09    3.866516808334444e-01    -9.210980141327424e-01   
4.151000000000000e+09    3.851953237495571e-01    -9.219864131878773e-01   
4.152000000000000e+09    3.840884533843267e-01    -9.228229334906057e-01   
4.153000000000000e+09    3.827231133221572e-01    -9.243845614843822e-01   
4.154000000000000e+09    3.813659557123227e-01    -9.252803146636097e-01   
4.155000000000000e+09    3.798814618650672e-01    -9.260912381498541e-01   
4.156000000000000e+09    3.792755878036279e-01    -9.267989321378739e-01   
4.157000000000000e+09    3.778897753689732e-01    -9.275052159870292e-01   
4.158000000000000e+09    3.770487764615344e-01    -9.285351512394844e-01   
4.159000000000000e+09    3.756444571155764e-01    -9.291049011133740e-01   
4.160000000000000e+09    3.748264241134634e-01    -9.304103754755954e-01   
4.161000000000000e+09    3.739829225512207e-01    -9.306970123265349e-01   
4.162000000000000e+09    3.727564592354057e-01    -9.317488771874597e-01   
4.163000000000000e+09    3.716213643405589e-01    -9.322310502309072e-01   
4.164000000000000e+09    3.707705853300858e-01    -9.331512603705897e-01   
4.165000000000000e+09    3.694427145552324e-01    -9.337493692621243e-01   
4.166000000000000e+09    3.688083576800002e-01    -9.347718675330711e-01   
4.167000000000000e+09    3.680518642389968e-01    -9.351490807343875e-01   
4.168000000000000e+09    3.667939145461348e-01    -9.358220743800122e-01   
4.169000000000000e+09    3.659961377980008e-01    -9.364357882964750e-01   
4.170000000000000e+09    3.650510128333246e-01    -9.372542912098247e-01   
4.171000000000000e+09    3.639689499952731e-01    -9.377301267007552e-01   
4.172000000000000e+09    3.636102837218131e-01    -9.384906704117102e-01   
4.173000000000000e+09    3.625208526514518e-01    -9.389694748309162e-01   
4.174000000000000e+09    3.615172306028070e-01    -9.391723320994365e-01   
4.175000000000000e+09    3.610445941814001e-01    -9.402281443464411e-01   
4.176000000000000e+09    3.599828571080937e-01    -9.404177786654273e-01   
4.177000000000000e+09    3.590842517313023e-01    -9.404136549783090e-01   
4.178000000000000e+09    3.584869893872060e-01    -9.408774800551195e-01   
4.179000000000000e+09    3.576405312731293e-01    -9.413862050718312e-01   
4.180000000000000e+09    3.569815478296010e-01    -9.418097331680815e-01   
4.181000000000000e+09    3.560245677114303e-01    -9.419779648511580e-01   
4.182000000000000e+09    3.553672495918547e-01    -9.422937745045841e-01   
4.183000000000000e+09    3.545245590667097e-01    -9.426123205103294e-01   
4.184000000000000e+09    3.537509607590483e-01    -9.428733283837702e-01   
4.185000000000000e+09    3.531143231222802e-01    -9.430439448916297e-01   
4.186000000000000e+09    3.527045290769988e-01    -9.433652666855090e-01   
4.187000000000000e+09    3.522823896086770e-01    -9.434631831896991e-01   
4.188000000000000e+09    3.513428200786140e-01    -9.435735447380081e-01   
4.189000000000000e+09    3.506280148827433e-01    -9.437177127511420e-01   
4.190000000000000e+09    3.496596222082031e-01    -9.440236001929968e-01   
4.191000000000000e+09    3.494755526928076e-01    -9.438427747722459e-01   
4.192000000000000e+09    3.488784857344965e-01    -9.439037665921464e-01   
4.193000000000000e+09    3.480551049052917e-01    -9.441932463026714e-01   
4.194000000000000e+09    3.474937574149740e-01    -9.441227634810361e-01   
4.195000000000000e+09    3.467573550225767e-01    -9.440138436455792e-01   
4.196000000000000e+09    3.457930151630086e-01    -9.441624884121859e-01   
4.197000000000000e+09    3.454396839636243e-01    -9.441527794766341e-01   
4.198000000000000e+09    3.446420680887827e-01    -9.438970932606892e-01   
4.199000000000000e+09    3.437029589769002e-01    -9.440049231345821e-01   
4.200000000000000e+09    3.434090635970870e-01    -9.441389113807034e-01   
4.201000000000000e+09    3.414100996169956e-01    -9.459605625548644e-01   
4.202000000000000e+09    3.408367423755379e-01    -9.461098209615275e-01   
4.203000000000000e+09    3.400152120961887e-01    -9.460734543493539e-01   
4.204000000000000e+09    3.391132866773068e-01    -9.460006987273079e-01   
4.205000000000000e+09    3.384032977250846e-01    -9.459589990793776e-01   
4.206000000000000e+09    3.376194903893115e-01    -9.458636006407343e-01   
4.207000000000000e+09    3.367599900815905e-01    -9.458171066525614e-01   
4.208000000000000e+09    3.359326786230784e-01    -9.456907760587322e-01   
4.209000000000000e+09    3.348082761692989e-01    -9.459625389148065e-01   
4.210000000000000e+09    3.342172615860330e-01    -9.458265876371823e-01   
4.211000000000000e+09    3.330974012025378e-01    -9.458652281857259e-01   
4.212000000000000e+09    3.321204784696405e-01    -9.460439691250693e-01   
4.213000000000000e+09    3.310476476499511e-01    -9.461094377725291e-01   
4.214000000000000e+09    3.293463484096028e-01    -9.462540167734989e-01   
4.215000000000000e+09    3.287003666306059e-01    -9.463653538015095e-01   
4.216000000000000e+09    3.273818439926620e-01    -9.461248518124367e-01   
4.217000000000000e+09    3.263482943912589e-01    -9.464003281159306e-01   
4.218000000000000e+09    3.251581319096094e-01    -9.471723193922331e-01   
4.219000000000000e+09    3.239572054696965e-01    -9.469642557200507e-01   
4.220000000000000e+09    3.227461176110771e-01    -9.475848833180651e-01   
4.221000000000000e+09    3.212790931208921e-01    -9.477128119461660e-01   
4.222000000000000e+09    3.198148820662944e-01    -9.479843898566165e-01   
4.223000000000000e+09    3.185980149473923e-01    -9.483943314335973e-01   
4.224000000000000e+09    3.174940677165064e-01    -9.486939970740945e-01   
4.225000000000000e+09    3.162517517429053e-01    -9.490195011796357e-01   
4.226000000000000e+09    3.150942334166881e-01    -9.497039209301813e-01   
4.227000000000000e+09    3.134625226824530e-01    -9.501905103162669e-01   
4.228000000000000e+09    3.124406521934286e-01    -9.506324905224933e-01   
4.229000000000000e+09    3.109652900272589e-01    -9.509449066532205e-01   
4.230000000000000e+09    3.097281337653816e-01    -9.514699400593696e-01   
4.231000000000000e+09    3.078598882775386e-01    -9.520800704702843e-01   
4.232000000000000e+09    3.070991348898578e-01    -9.524621520676680e-01   
4.233000000000000e+09    3.054155499993848e-01    -9.528060504453942e-01   
4.234000000000000e+09    3.039118877684093e-01    -9.536072571555395e-01   
4.235000000000000e+09    3.028150955766631e-01    -9.539494139387320e-01   
4.236000000000000e+09    3.009532020406929e-01    -9.545785112198031e-01   
4.237000000000000e+09    2.997502918438142e-01    -9.551831017484447e-01   
4.238000000000000e+09    2.984390127871173e-01    -9.554927559174032e-01   
4.239000000000000e+09    2.970999167369679e-01    -9.561079386554573e-01   
4.240000000000000e+09    2.953579312587717e-01    -9.565271240457276e-01   
4.241000000000000e+09    2.940279842426255e-01    -9.569868994810604e-01   
4.242000000000000e+09    2.921079012368109e-01    -9.574543581452183e-01   
4.243000000000000e+09    2.906251148662632e-01    -9.579813271244375e-01   
4.244000000000000e+09    2.892295980771202e-01    -9.586835371149118e-01   
4.245000000000000e+09    2.877439815708159e-01    -9.592633802977568e-01   
4.246000000000000e+09    2.864972552300896e-01    -9.594935169131419e-01   
4.247000000000000e+09    2.841981337637107e-01    -9.598419292953203e-01   
4.248000000000000e+09    2.829447128569905e-01    -9.601482761174452e-01   
4.249000000000000e+09    2.812558171658447e-01    -9.607728179958869e-01   
4.250000000000000e+09    2.798862014150170e-01    -9.610414649139732e-01   
4.251000000000000e+09    2.779201193709092e-01    -9.616140608572358e-01   
4.252000000000000e+09    2.763580333315455e-01    -9.621613123455320e-01   
4.253000000000000e+09    2.740386892588905e-01    -9.629388859162565e-01   
4.254000000000000e+09    2.728234227089577e-01    -9.631626034069827e-01   
4.255000000000000e+09    2.709733490008257e-01    -9.636358407127059e-01   
4.256000000000000e+09    2.690653550862446e-01    -9.642148530175783e-01   
