[Version] 2.0
! Rohde & Schwarz Vector Network Analyzer
! Rohde-Schwarz,ZNL20-2Port,1323001220200009,1.71.1.10-23.02.1.238
! 
! Port Assignments:
! Nominal Port -> Actual Test Port
! --------------------------------
!   1 -> 1

! Created: GMT+2 2025-01-17 12:45:13

# Hz S RI R 50

[Number of Ports] 1
[Number of Frequencies] 16001

[Network Data] 
! freq[Hz]               S11[Re]                  S11[Im]                  
4.000000000000000e+09    5.559767724859809e-01    -8.362783256761750e-01   
4.001000000000000e+09    5.545729487744921e-01    -8.374124107516191e-01   
4.002000000000000e+09    5.536215296527985e-01    -8.382750624682135e-01   
4.003000000000000e+09    5.523458614647269e-01    -8.394265974420354e-01   
4.004000000000000e+09    5.515435442150636e-01    -8.398230429902397e-01   
4.005000000000000e+09    5.498893145141672e-01    -8.414457781364373e-01   
4.006000000000000e+09    5.486388635099684e-01    -8.414372049845631e-01   
4.007000000000000e+09    5.476278163978698e-01    -8.424568783745757e-01   
4.008000000000000e+09    5.462981847901027e-01    -8.434663776440765e-01   
4.009000000000000e+09    5.449945758426622e-01    -8.442007801460039e-01   
4.010000000000000e+09    5.438864588657309e-01    -8.447670807039561e-01   
4.011000000000000e+09    5.427310381974710e-01    -8.455099561599825e-01   
4.012000000000000e+09    5.413672487445539e-01    -8.465027512447362e-01   
4.013000000000000e+09    5.397727694019061e-01    -8.474046780510367e-01   
4.014000000000000e+09    5.384874119700518e-01    -8.479689611967515e-01   
4.015000000000000e+09    5.368881227563992e-01    -8.484007788643945e-01   
4.016000000000000e+09    5.358594182177705e-01    -8.490766691195494e-01   
4.017000000000000e+09    5.348868005401712e-01    -8.494737669128647e-01   
4.018000000000000e+09    5.334118396654932e-01    -8.507081918663176e-01   
4.019000000000000e+09    5.321058570984832e-01    -8.507103223259492e-01   
4.020000000000000e+09    5.307597625928807e-01    -8.515528413658112e-01   
4.021000000000000e+09    5.297321966680114e-01    -8.519361216669237e-01   
4.022000000000000e+09    5.281200018976168e-01    -8.524701944169490e-01   
4.023000000000000e+09    5.273081506389540e-01    -8.531659332163249e-01   
4.024000000000000e+09    5.258886103872769e-01    -8.536608820631189e-01   
4.025000000000000e+09    5.241944268202126e-01    -8.538203508123128e-01   
4.026000000000000e+09    5.230968605683481e-01    -8.545598269260014e-01   
4.027000000000000e+09    5.219231732719526e-01    -8.552019094884140e-01   
4.028000000000000e+09    5.207868827798650e-01    -8.552158995579626e-01   
4.029000000000000e+09    5.192508432968689e-01    -8.558325150661260e-01   
4.030000000000000e+09    5.178500270336621e-01    -8.560162552058561e-01   
4.031000000000000e+09    5.165218301782953e-01    -8.567032021131534e-01   
4.032000000000000e+09    5.151948652049411e-01    -8.571306708578660e-01   
4.033000000000000e+09    5.139839281696368e-01    -8.571087202284648e-01   
4.034000000000000e+09    5.125213124461165e-01    -8.577832044356780e-01   
4.035000000000000e+09    5.111134591485372e-01    -8.582827370474461e-01   
4.036000000000000e+09    5.098515894359721e-01    -8.588186277004736e-01   
4.037000000000000e+09    5.083224994154080e-01    -8.591928283336683e-01   
4.038000000000000e+09    5.071273110413121e-01    -8.598142425914358e-01   
4.039000000000000e+09    5.059523345252046e-01    -8.601111580084830e-01   
4.040000000000000e+09    5.045170594382925e-01    -8.609841591888682e-01   
4.041000000000000e+09    5.029125039310214e-01    -8.613861495466090e-01   
4.042000000000000e+09    5.017099400124201e-01    -8.620003868393313e-01   
4.043000000000000e+09    5.005720796375747e-01    -8.627318021281170e-01   
4.044000000000000e+09    4.991204260617197e-01    -8.632988636065270e-01   
4.045000000000000e+09    4.979032939238657e-01    -8.639381946748094e-01   
4.046000000000000e+09    4.965387457116568e-01    -8.646717468957724e-01   
4.047000000000000e+09    4.954862966239599e-01    -8.653984659260979e-01   
4.048000000000000e+09    4.941802624897086e-01    -8.658819239175183e-01   
4.049000000000000e+09    4.929873949113759e-01    -8.666808802367718e-01   
4.050000000000000e+09    4.923310574846798e-01    -8.675346796461691e-01   
4.051000000000000e+09    4.910460832427860e-01    -8.685887443728272e-01   
4.052000000000000e+09    4.902318957578560e-01    -8.691389956691312e-01   
4.053000000000000e+09    4.887211695858711e-01    -8.699963530410437e-01   
4.054000000000000e+09    4.882126326290578e-01    -8.708352485683094e-01   
4.055000000000000e+09    4.871840161242361e-01    -8.715420540939415e-01   
4.056000000000000e+09    4.863544081801257e-01    -8.725755998515362e-01   
4.057000000000000e+09    4.852727624274695e-01    -8.732193909716018e-01   
4.058000000000000e+09    4.844492663282962e-01    -8.737842790913724e-01   
4.059000000000000e+09    4.837222443997128e-01    -8.749181044927752e-01   
4.060000000000000e+09    4.831962049788598e-01    -8.753612998895787e-01   
4.061000000000000e+09    4.823310795952626e-01    -8.764687799136974e-01   
4.062000000000000e+09    4.815987947493102e-01    -8.771140511180469e-01   
4.063000000000000e+09    4.810256506876789e-01    -8.779903643214289e-01   
4.064000000000000e+09    4.802650817352672e-01    -8.785271484043193e-01   
4.065000000000000e+09    4.795866567468002e-01    -8.795344020007958e-01   
4.066000000000000e+09    4.788141517151134e-01    -8.802196171932852e-01   
4.067000000000000e+09    4.780384095001239e-01    -8.809580408876346e-01   
4.068000000000000e+09    4.777733043414238e-01    -8.818824201493540e-01   
4.069000000000000e+09    4.770158947735851e-01    -8.826003432834058e-01   
4.070000000000000e+09    4.761802880355089e-01    -8.834547986039626e-01   
4.071000000000000e+09    4.761334945000892e-01    -8.839266367323777e-01   
4.072000000000000e+09    4.753771280918367e-01    -8.849213709681335e-01   
4.073000000000000e+09    4.747798425226500e-01    -8.854343143186871e-01   
4.074000000000000e+09    4.741372853749170e-01    -8.860869193628310e-01   
4.075000000000000e+09    4.735584819427360e-01    -8.867776310311160e-01   
4.076000000000000e+09    4.732193285188934e-01    -8.873611143019275e-01   
4.077000000000000e+09    4.725242146573582e-01    -8.881669060788463e-01   
4.078000000000000e+09    4.718081138059340e-01    -8.887044320318997e-01   
4.079000000000000e+09    4.713236734156812e-01    -8.896066441244558e-01   
4.080000000000000e+09    4.706093989170423e-01    -8.903211777751389e-01   
4.081000000000000e+09    4.699660123544518e-01    -8.911247515411720e-01   
4.082000000000000e+09    4.695727540572803e-01    -8.914923439385445e-01   
4.083000000000000e+09    4.689003642918669e-01    -8.923284653367801e-01   
4.084000000000000e+09    4.685018570186867e-01    -8.927527398881369e-01   
4.085000000000000e+09    4.673897711647053e-01    -8.935302679619463e-01   
4.086000000000000e+09    4.669282157129060e-01    -8.939764232808206e-01   
4.087000000000000e+09    4.661842022702995e-01    -8.942712823486968e-01   
4.088000000000000e+09    4.653167836773493e-01    -8.951214362034356e-01   
4.089000000000000e+09    4.647049529674464e-01    -8.957623140854080e-01   
4.090000000000000e+09    4.638995262373771e-01    -8.964486711077968e-01   
4.091000000000000e+09    4.632942642649556e-01    -8.965239087016993e-01   
4.092000000000000e+09    4.622988670850819e-01    -8.973266523809577e-01   
4.093000000000000e+09    4.618343956039175e-01    -8.974647546840967e-01   
4.094000000000000e+09    4.607533117589059e-01    -8.979107860441574e-01   
4.095000000000000e+09    4.596074691651852e-01    -8.982804559860377e-01   
4.096000000000000e+09    4.592311248083684e-01    -8.987544219557150e-01   
4.097000000000000e+09    4.583931044434859e-01    -8.992130952092829e-01   
4.098000000000000e+09    4.574430148381329e-01    -8.996620252922796e-01   
4.099000000000000e+09    4.566198768277503e-01    -8.992433243360753e-01   
4.100000000000000e+09    4.556360801651215e-01    -9.000078045807650e-01   
4.101000000000000e+09    4.545156146485145e-01    -9.000011638858398e-01   
4.102000000000000e+09    4.536203961218016e-01    -8.998729943970982e-01   
4.103000000000000e+09    4.529856856196201e-01    -9.001607575282382e-01   
4.104000000000000e+09    4.519356822702547e-01    -9.001417482975377e-01   
4.105000000000000e+09    4.508494687833013e-01    -9.009587554660740e-01   
4.106000000000000e+09    4.501349081586873e-01    -9.008285073080330e-01   
4.107000000000000e+09    4.486666897503550e-01    -9.006569421877579e-01   
4.108000000000000e+09    4.476525141549150e-01    -9.012202382444524e-01   
4.109000000000000e+09    4.469521549776146e-01    -9.015749050068639e-01   
4.110000000000000e+09    4.455262226253048e-01    -9.015985009177808e-01   
4.111000000000000e+09    4.446912545695967e-01    -9.015030228295463e-01   
4.112000000000000e+09    4.434364189615735e-01    -9.014245020424705e-01   
4.113000000000000e+09    4.421656834877615e-01    -9.019924284230756e-01   
4.114000000000000e+09    4.409189576339342e-01    -9.021736282775897e-01   
4.115000000000000e+09    4.396983582205615e-01    -9.021905907753885e-01   
4.116000000000000e+09    4.384455974926315e-01    -9.020523519621417e-01   
4.117000000000000e+09    4.371397512226424e-01    -9.023163375804287e-01   
4.118000000000000e+09    4.357177085982616e-01    -9.022321972535728e-01   
4.119000000000000e+09    4.341504767921934e-01    -9.024102524859877e-01   
4.120000000000000e+09    4.325328507998291e-01    -9.028588763442051e-01   
4.121000000000000e+09    4.313223539138897e-01    -9.029324959490040e-01   
4.122000000000000e+09    4.299979174315511e-01    -9.028303459324184e-01   
4.123000000000000e+09    4.285532589395522e-01    -9.032271010217473e-01   
4.124000000000000e+09    4.263978902996590e-01    -9.035837976455275e-01   
4.125000000000000e+09    4.251939157698828e-01    -9.036688033596439e-01   
4.126000000000000e+09    4.233866598898097e-01    -9.041140609626844e-01   
4.127000000000000e+09    4.214888069592233e-01    -9.046463264497411e-01   
4.128000000000000e+09    4.202170039379440e-01    -9.050272517788959e-01   
4.129000000000000e+09    4.184614924356499e-01    -9.051736449320542e-01   
4.130000000000000e+09    4.168092073507366e-01    -9.057307354810299e-01   
4.131000000000000e+09    4.150323270941418e-01    -9.063966017727417e-01   
4.132000000000000e+09    4.133546347973488e-01    -9.071633973840978e-01   
4.133000000000000e+09    4.116524469609698e-01    -9.077580035064452e-01   
4.134000000000000e+09    4.100951136714128e-01    -9.083446434823799e-01   
4.135000000000000e+09    4.082881243011745e-01    -9.087733958877658e-01   
4.136000000000000e+09    4.069716299802517e-01    -9.093366183580082e-01   
4.137000000000000e+09    4.051891000486227e-01    -9.103293500166838e-01   
4.138000000000000e+09    4.034345415283712e-01    -9.110408876713006e-01   
4.139000000000000e+09    4.019679882944410e-01    -9.117131974105955e-01   
4.140000000000000e+09    4.005740013458421e-01    -9.125720710876341e-01   
4.141000000000000e+09    3.988679486321144e-01    -9.133802536885348e-01   
4.142000000000000e+09    3.973944480756632e-01    -9.140569014023313e-01   
4.143000000000000e+09    3.960458205120258e-01    -9.150701152158297e-01   
4.144000000000000e+09    3.944941190752164e-01    -9.158612676319497e-01   
4.145000000000000e+09    3.931145743901687e-01    -9.168175898570449e-01   
4.146000000000000e+09    3.916964297539945e-01    -9.176795989904820e-01   
4.147000000000000e+09    3.901972511029876e-01    -9.184772505616162e-01   
4.148000000000000e+09    3.887724826260324e-01    -9.195314077093445e-01   
4.149000000000000e+09    3.879809255174211e-01    -9.202276460772256e-01   
4.150000000000000e+09    3.863533634389529e-01    -9.211565646878321e-01   
4.151000000000000e+09    3.853321835457702e-01    -9.219990378004345e-01   
4.152000000000000e+09    3.840220931835532e-01    -9.230778218699418e-01   
4.153000000000000e+09    3.825653139638683e-01    -9.243551477127234e-01   
4.154000000000000e+09    3.813055222828250e-01    -9.252076538641061e-01   
4.155000000000000e+09    3.800778043311221e-01    -9.258512975749373e-01   
4.156000000000000e+09    3.791334378728214e-01    -9.265862710461156e-01   
4.157000000000000e+09    3.778418437705384e-01    -9.276877459711488e-01   
4.158000000000000e+09    3.770543259368572e-01    -9.285741394542015e-01   
4.159000000000000e+09    3.755303971191088e-01    -9.293657861262982e-01   
4.160000000000000e+09    3.750991329056130e-01    -9.300046302532082e-01   
4.161000000000000e+09    3.738138553250280e-01    -9.308007341356075e-01   
4.162000000000000e+09    3.729874480456631e-01    -9.316415568595054e-01   
4.163000000000000e+09    3.718137989199262e-01    -9.327116710291692e-01   
4.164000000000000e+09    3.709920879915816e-01    -9.331770837319242e-01   
4.165000000000000e+09    3.695800033298930e-01    -9.339306779973150e-01   
4.166000000000000e+09    3.688781722369174e-01    -9.348431805675146e-01   
4.167000000000000e+09    3.681114221368746e-01    -9.352650629195103e-01   
4.168000000000000e+09    3.669217999016558e-01    -9.358953309699051e-01   
4.169000000000000e+09    3.660589532616639e-01    -9.365041912888962e-01   
4.170000000000000e+09    3.651632719372654e-01    -9.371955160895039e-01   
4.171000000000000e+09    3.639816219263590e-01    -9.379982494450286e-01   
4.172000000000000e+09    3.634778806641106e-01    -9.381479040267789e-01   
4.173000000000000e+09    3.625782465355877e-01    -9.389989362635976e-01   
4.174000000000000e+09    3.615147741521713e-01    -9.391403270003517e-01   
4.175000000000000e+09    3.607922191236852e-01    -9.399409672551782e-01   
4.176000000000000e+09    3.602740279491306e-01    -9.403818704814699e-01   
4.177000000000000e+09    3.592100343956560e-01    -9.407255684524575e-01   
4.178000000000000e+09    3.584267049896267e-01    -9.412330168182009e-01   
4.179000000000000e+09    3.575838732267786e-01    -9.416225096496060e-01   
4.180000000000000e+09    3.565366930381581e-01    -9.422057869443350e-01   
4.181000000000000e+09    3.559204346923978e-01    -9.421665889254723e-01   
4.182000000000000e+09    3.553420403437774e-01    -9.426367622607047e-01   
4.183000000000000e+09    3.547068502010085e-01    -9.427685300930329e-01   
4.184000000000000e+09    3.533588268102401e-01    -9.429368573649505e-01   
4.185000000000000e+09    3.534047360611197e-01    -9.434482132215447e-01   
4.186000000000000e+09    3.523984656954220e-01    -9.434018174806159e-01   
4.187000000000000e+09    3.522006255746986e-01    -9.434336823459386e-01   
4.188000000000000e+09    3.510278146690369e-01    -9.437384427293050e-01   
4.189000000000000e+09    3.506233717659872e-01    -9.440543981277993e-01   
4.190000000000000e+09    3.498003115926465e-01    -9.437567210834718e-01   
4.191000000000000e+09    3.487976045310160e-01    -9.441477897777160e-01   
4.192000000000000e+09    3.490272075528212e-01    -9.440404994606904e-01   
4.193000000000000e+09    3.480085919569513e-01    -9.440596614208820e-01   
4.194000000000000e+09    3.474848613844161e-01    -9.442429139125037e-01   
4.195000000000000e+09    3.466541208963712e-01    -9.440607907021751e-01   
4.196000000000000e+09    3.458890005453270e-01    -9.439485067987053e-01   
4.197000000000000e+09    3.453192167317665e-01    -9.438764416845418e-01   
4.198000000000000e+09    3.448232415592720e-01    -9.443316081995029e-01   
4.199000000000000e+09    3.438729798046326e-01    -9.441375690197182e-01   
4.200000000000000e+09    3.431111915391351e-01    -9.441411689548228e-01   
4.201000000000000e+09    3.413468940713968e-01    -9.461378730432315e-01   
4.202000000000000e+09    3.406696383685758e-01    -9.463455684590610e-01   
4.203000000000000e+09    3.399124237735446e-01    -9.461687188458098e-01   
4.204000000000000e+09    3.390526646812628e-01    -9.459913394472987e-01   
4.205000000000000e+09    3.383795544881530e-01    -9.458514186906132e-01   
4.206000000000000e+09    3.374404705466544e-01    -9.460481524878536e-01   
4.207000000000000e+09    3.366550080224320e-01    -9.458739673368237e-01   
4.208000000000000e+09    3.358360418486572e-01    -9.458365653574321e-01   
4.209000000000000e+09    3.348545964478244e-01    -9.459480976386989e-01   
4.210000000000000e+09    3.340533192879051e-01    -9.460592109927006e-01   
4.211000000000000e+09    3.330199033708097e-01    -9.457929565562334e-01   
4.212000000000000e+09    3.318269149462552e-01    -9.459840376348974e-01   
4.213000000000000e+09    3.310750100609784e-01    -9.458568103919540e-01   
4.214000000000000e+09    3.298910994877573e-01    -9.461215627328389e-01   
4.215000000000000e+09    3.286772927612008e-01    -9.462728860994715e-01   
4.216000000000000e+09    3.276422473646728e-01    -9.462070399500468e-01   
4.217000000000000e+09    3.261142185819077e-01    -9.462971932482966e-01   
4.218000000000000e+09    3.250791408346558e-01    -9.468120426266686e-01   
4.219000000000000e+09    3.237710371145662e-01    -9.471218913637499e-01   
4.220000000000000e+09    3.224635043840660e-01    -9.474519291636904e-01   
4.221000000000000e+09    3.216995939142189e-01    -9.478608931755953e-01   
4.222000000000000e+09    3.200401841110880e-01    -9.476383580755721e-01   
4.223000000000000e+09    3.188123838866342e-01    -9.484489803615154e-01   
4.224000000000000e+09    3.176197781101651e-01    -9.484243545832630e-01   
4.225000000000000e+09    3.161364125918597e-01    -9.493456730311058e-01   
4.226000000000000e+09    3.150899575986539e-01    -9.498528757547525e-01   
4.227000000000000e+09    3.133800704196444e-01    -9.503322019588103e-01   
4.228000000000000e+09    3.119648365943617e-01    -9.504504725787953e-01   
4.229000000000000e+09    3.109104809044527e-01    -9.508804943865955e-01   
4.230000000000000e+09    3.095137909988004e-01    -9.517172645494567e-01   
4.231000000000000e+09    3.081539422806183e-01    -9.522200845181592e-01   
4.232000000000000e+09    3.068754947288587e-01    -9.523545777473269e-01   
4.233000000000000e+09    3.054448935101700e-01    -9.531059278008258e-01   
4.234000000000000e+09    3.039653042567665e-01    -9.535194724731714e-01   
4.235000000000000e+09    3.024709249914161e-01    -9.541081302846794e-01   
4.236000000000000e+09    3.007881276081940e-01    -9.546088126707809e-01   
4.237000000000000e+09    2.996867655720397e-01    -9.551697132858190e-01   
4.238000000000000e+09    2.982938883265839e-01    -9.556675078323728e-01   
4.239000000000000e+09    2.967541029034607e-01    -9.560848227145673e-01   
4.240000000000000e+09    2.955354739241609e-01    -9.566985239723836e-01   
4.241000000000000e+09    2.939696172031765e-01    -9.569397393460396e-01   
4.242000000000000e+09    2.922279503358322e-01    -9.576172807052568e-01   
4.243000000000000e+09    2.910217898232100e-01    -9.578716632529444e-01   
4.244000000000000e+09    2.889279834227317e-01    -9.585929149037278e-01   
4.245000000000000e+09    2.877461504642379e-01    -9.591599279302044e-01   
4.246000000000000e+09    2.859879745077880e-01    -9.592461448546051e-01   
4.247000000000000e+09    2.846799910663178e-01    -9.599918810199214e-01   
4.248000000000000e+09    2.829856078486735e-01    -9.601252733650376e-01   
4.249000000000000e+09    2.812061091932154e-01    -9.610311927119491e-01   
4.250000000000000e+09    2.796243454216787e-01    -9.617334234313035e-01   
4.251000000000000e+09    2.775597348374425e-01    -9.620255852308049e-01   
4.252000000000000e+09    2.761503956047844e-01    -9.623540489964122e-01   
4.253000000000000e+09    2.741571962196946e-01    -9.630315794860362e-01   
4.254000000000000e+09    2.728577406644167e-01    -9.629719192793712e-01   
4.255000000000000e+09    2.712826177657180e-01    -9.638262593373503e-01   
4.256000000000000e+09    2.692288776045249e-01    -9.641356622986091e-01   
