[Version] 2.0
! Rohde & Schwarz Vector Network Analyzer
! Rohde-Schwarz,ZNL20-2Port,1323001220200009,1.71.1.10-23.02.1.238
! 
! Port Assignments:
! Nominal Port -> Actual Test Port
! --------------------------------
!   1 -> 1

! Created: GMT+2 2025-01-17 12:45:30

# Hz S RI R 50

[Number of Ports] 1
[Number of Frequencies] 16001

[Network Data] 
! freq[Hz]               S11[Re]                  S11[Im]                  
4.000000000000000e+09    5.560832708197886e-01    -8.366310455535789e-01   
4.001000000000000e+09    5.547617622484651e-01    -8.375642816762160e-01   
4.002000000000000e+09    5.538839256787677e-01    -8.386228435685892e-01   
4.003000000000000e+09    5.521483151463065e-01    -8.393084406452466e-01   
4.004000000000000e+09    5.512494638553690e-01    -8.400902791729965e-01   
4.005000000000000e+09    5.500146077556779e-01    -8.411126287670325e-01   
4.006000000000000e+09    5.488043665899549e-01    -8.417804878734502e-01   
4.007000000000000e+09    5.474650987670292e-01    -8.428267110462996e-01   
4.008000000000000e+09    5.462602836850621e-01    -8.432993522372707e-01   
4.009000000000000e+09    5.449623094854351e-01    -8.440778275752853e-01   
4.010000000000000e+09    5.438890918231455e-01    -8.453600848914588e-01   
4.011000000000000e+09    5.423656387824474e-01    -8.458822683809030e-01   
4.012000000000000e+09    5.411700008839014e-01    -8.465454796336478e-01   
4.013000000000000e+09    5.400057515250588e-01    -8.473994391845592e-01   
4.014000000000000e+09    5.385846170605747e-01    -8.476414517175234e-01   
4.015000000000000e+09    5.372654299965601e-01    -8.486453319290280e-01   
4.016000000000000e+09    5.360392706320470e-01    -8.489484437427529e-01   
4.017000000000000e+09    5.350227346818524e-01    -8.498442917194812e-01   
4.018000000000000e+09    5.332759300333654e-01    -8.503409097388658e-01   
4.019000000000000e+09    5.327094597359026e-01    -8.508053667633152e-01   
4.020000000000000e+09    5.310795971386798e-01    -8.516479455303664e-01   
4.021000000000000e+09    5.297445729241547e-01    -8.521985589327700e-01   
4.022000000000000e+09    5.283327473828552e-01    -8.527476714910739e-01   
4.023000000000000e+09    5.272457157276447e-01    -8.534890272569444e-01   
4.024000000000000e+09    5.260008947527200e-01    -8.536883080422959e-01   
4.025000000000000e+09    5.246394329421615e-01    -8.540749927025862e-01   
4.026000000000000e+09    5.233880555973639e-01    -8.546723424367927e-01   
4.027000000000000e+09    5.221170787137507e-01    -8.549653243858762e-01   
4.028000000000000e+09    5.207437555357816e-01    -8.551751835547285e-01   
4.029000000000000e+09    5.193160291894233e-01    -8.558355062618297e-01   
4.030000000000000e+09    5.179956155068359e-01    -8.560588483796499e-01   
4.031000000000000e+09    5.167403911353816e-01    -8.565201727191853e-01   
4.032000000000000e+09    5.154173150039091e-01    -8.569407844752496e-01   
4.033000000000000e+09    5.140494241547564e-01    -8.573513424236313e-01   
4.034000000000000e+09    5.124904534731179e-01    -8.579627136787150e-01   
4.035000000000000e+09    5.111650540676432e-01    -8.583847466460337e-01   
4.036000000000000e+09    5.102571431047270e-01    -8.589325140691672e-01   
4.037000000000000e+09    5.083842447707043e-01    -8.596216454590593e-01   
4.038000000000000e+09    5.074383738006714e-01    -8.595877079681384e-01   
4.039000000000000e+09    5.058716722348936e-01    -8.602694856063963e-01   
4.040000000000000e+09    5.044542354815972e-01    -8.607276516283974e-01   
4.041000000000000e+09    5.031059708503038e-01    -8.612367698867670e-01   
4.042000000000000e+09    5.017358560990839e-01    -8.620904212343499e-01   
4.043000000000000e+09    5.005689910019239e-01    -8.625010649735944e-01   
4.044000000000000e+09    4.992166976042100e-01    -8.630501069569455e-01   
4.045000000000000e+09    4.980518636569235e-01    -8.638046446409511e-01   
4.046000000000000e+09    4.964131387841235e-01    -8.645550088293271e-01   
4.047000000000000e+09    4.954792238187742e-01    -8.652099615502217e-01   
4.048000000000000e+09    4.943869002299870e-01    -8.656904548305728e-01   
4.049000000000000e+09    4.932416441693072e-01    -8.667447108791675e-01   
4.050000000000000e+09    4.919765752060095e-01    -8.673949855028680e-01   
4.051000000000000e+09    4.911213419082636e-01    -8.681491869947447e-01   
4.052000000000000e+09    4.900360646076566e-01    -8.691846087462904e-01   
4.053000000000000e+09    4.891459486509814e-01    -8.698798427825368e-01   
4.054000000000000e+09    4.880056182171886e-01    -8.707876657810291e-01   
4.055000000000000e+09    4.872143077323967e-01    -8.715375293317053e-01   
4.056000000000000e+09    4.861857979237324e-01    -8.723788561147267e-01   
4.057000000000000e+09    4.853728640357968e-01    -8.729846546911200e-01   
4.058000000000000e+09    4.844393695843090e-01    -8.736431914266979e-01   
4.059000000000000e+09    4.837303244129081e-01    -8.747553314503785e-01   
4.060000000000000e+09    4.830146038413025e-01    -8.752879681724411e-01   
4.061000000000000e+09    4.821744000180004e-01    -8.763345886106008e-01   
4.062000000000000e+09    4.816544443519721e-01    -8.770206904177698e-01   
4.063000000000000e+09    4.806579163722375e-01    -8.779071276130881e-01   
4.064000000000000e+09    4.803641298545078e-01    -8.784703469457830e-01   
4.065000000000000e+09    4.795340932184471e-01    -8.793790857184675e-01   
4.066000000000000e+09    4.786786183767268e-01    -8.802859142983873e-01   
4.067000000000000e+09    4.784012002466579e-01    -8.810920315688433e-01   
4.068000000000000e+09    4.775512441630622e-01    -8.818217584545709e-01   
4.069000000000000e+09    4.770815856928527e-01    -8.823746590262864e-01   
4.070000000000000e+09    4.764447561517345e-01    -8.831310877627482e-01   
4.071000000000000e+09    4.762097886094693e-01    -8.840456437657693e-01   
4.072000000000000e+09    4.751569080445135e-01    -8.848070105412955e-01   
4.073000000000000e+09    4.745952194645988e-01    -8.853608182162074e-01   
4.074000000000000e+09    4.738500160702658e-01    -8.861598609572118e-01   
4.075000000000000e+09    4.736222212412800e-01    -8.870910269456803e-01   
4.076000000000000e+09    4.731940049031470e-01    -8.876709327091363e-01   
4.077000000000000e+09    4.724994549385612e-01    -8.881400013450899e-01   
4.078000000000000e+09    4.717437357424722e-01    -8.887435044328755e-01   
4.079000000000000e+09    4.711103017925019e-01    -8.898996941610732e-01   
4.080000000000000e+09    4.703063208258380e-01    -8.904335433217925e-01   
4.081000000000000e+09    4.702440538198602e-01    -8.910592432178656e-01   
4.082000000000000e+09    4.695322917149448e-01    -8.914936124611222e-01   
4.083000000000000e+09    4.685569237613046e-01    -8.926326458681650e-01   
4.084000000000000e+09    4.684234370364972e-01    -8.926856523026562e-01   
4.085000000000000e+09    4.675938015770360e-01    -8.933565042972781e-01   
4.086000000000000e+09    4.667410929575221e-01    -8.938711821360947e-01   
4.087000000000000e+09    4.661233624940597e-01    -8.943859442119654e-01   
4.088000000000000e+09    4.653700146449843e-01    -8.950167483935243e-01   
4.089000000000000e+09    4.644316626145893e-01    -8.958192041180036e-01   
4.090000000000000e+09    4.639307090898658e-01    -8.961947488745746e-01   
4.091000000000000e+09    4.635152792701573e-01    -8.968490490583735e-01   
4.092000000000000e+09    4.626245052298393e-01    -8.969028314423299e-01   
4.093000000000000e+09    4.615964136556172e-01    -8.977723499344977e-01   
4.094000000000000e+09    4.608952624746903e-01    -8.977340851527166e-01   
4.095000000000000e+09    4.600083085863929e-01    -8.986495081832405e-01   
4.096000000000000e+09    4.590746578674626e-01    -8.980571038674950e-01   
4.097000000000000e+09    4.586931333119373e-01    -8.990166810591167e-01   
4.098000000000000e+09    4.573966753984120e-01    -8.997121622881695e-01   
4.099000000000000e+09    4.566989821658410e-01    -8.996356904846669e-01   
4.100000000000000e+09    4.554103878211950e-01    -9.000975817303934e-01   
4.101000000000000e+09    4.550566651680013e-01    -9.000159048337668e-01   
4.102000000000000e+09    4.538419716759915e-01    -9.002348296302125e-01   
4.103000000000000e+09    4.533338576443808e-01    -9.004727683548840e-01   
4.104000000000000e+09    4.522936904801211e-01    -9.007920579378371e-01   
4.105000000000000e+09    4.513771365631696e-01    -9.008847784557240e-01   
4.106000000000000e+09    4.497073042009241e-01    -9.010972349823267e-01   
4.107000000000000e+09    4.491848882062783e-01    -9.010606190954139e-01   
4.108000000000000e+09    4.477855359591978e-01    -9.014060641221942e-01   
4.109000000000000e+09    4.468579058041199e-01    -9.015475214878229e-01   
4.110000000000000e+09    4.457207538722524e-01    -9.015166412907375e-01   
4.111000000000000e+09    4.445181529148738e-01    -9.016895634359056e-01   
4.112000000000000e+09    4.434674150334649e-01    -9.017654751831533e-01   
4.113000000000000e+09    4.421775408810814e-01    -9.020014078484013e-01   
4.114000000000000e+09    4.412772394421656e-01    -9.019134715379467e-01   
4.115000000000000e+09    4.397098942922844e-01    -9.021026576220622e-01   
4.116000000000000e+09    4.384838936690713e-01    -9.021419906874348e-01   
4.117000000000000e+09    4.371912081293926e-01    -9.022762558278661e-01   
4.118000000000000e+09    4.355518981409416e-01    -9.021357515929680e-01   
4.119000000000000e+09    4.343378329566536e-01    -9.027463313462200e-01   
4.120000000000000e+09    4.328924466053047e-01    -9.027953006247353e-01   
4.121000000000000e+09    4.312405901680504e-01    -9.029469013655730e-01   
4.122000000000000e+09    4.298912608919046e-01    -9.030528968053365e-01   
4.123000000000000e+09    4.284298936602352e-01    -9.034533864859133e-01   
4.124000000000000e+09    4.264870734020237e-01    -9.034416533082646e-01   
4.125000000000000e+09    4.251191914561128e-01    -9.036786484605740e-01   
4.126000000000000e+09    4.233384267452955e-01    -9.039428912611078e-01   
4.127000000000000e+09    4.217375050934004e-01    -9.042039677801074e-01   
4.128000000000000e+09    4.203171369123648e-01    -9.048334268542387e-01   
4.129000000000000e+09    4.183998073891363e-01    -9.056263721757334e-01   
4.130000000000000e+09    4.168551513776576e-01    -9.054485455680367e-01   
4.131000000000000e+09    4.151311070551095e-01    -9.063696904994303e-01   
4.132000000000000e+09    4.136274884830025e-01    -9.071027204870525e-01   
4.133000000000000e+09    4.115792935312490e-01    -9.072999731505885e-01   
4.134000000000000e+09    4.103144613434170e-01    -9.082503758644718e-01   
4.135000000000000e+09    4.087367529846778e-01    -9.087034899553521e-01   
4.136000000000000e+09    4.067833959194252e-01    -9.095066976423278e-01   
4.137000000000000e+09    4.053820960908234e-01    -9.101039119151867e-01   
4.138000000000000e+09    4.033656359899253e-01    -9.108087492918188e-01   
4.139000000000000e+09    4.016660173475379e-01    -9.116776606921748e-01   
4.140000000000000e+09    4.004728040408601e-01    -9.125335727944193e-01   
4.141000000000000e+09    3.989016504016470e-01    -9.133721351661089e-01   
4.142000000000000e+09    3.974502660955721e-01    -9.142546020499962e-01   
4.143000000000000e+09    3.961875510836519e-01    -9.150402971319016e-01   
4.144000000000000e+09    3.945706262899578e-01    -9.162259765601936e-01   
4.145000000000000e+09    3.934108242894855e-01    -9.165897861026253e-01   
4.146000000000000e+09    3.916285139906749e-01    -9.175963835930683e-01   
4.147000000000000e+09    3.902535343990591e-01    -9.183637266616584e-01   
4.148000000000000e+09    3.888833865030263e-01    -9.195709242792065e-01   
4.149000000000000e+09    3.878231774067291e-01    -9.202438499129175e-01   
4.150000000000000e+09    3.860318109494261e-01    -9.212059803566136e-01   
4.151000000000000e+09    3.852666777588570e-01    -9.219155899914369e-01   
4.152000000000000e+09    3.838839395713879e-01    -9.229196278921804e-01   
4.153000000000000e+09    3.822838663138886e-01    -9.242267439971844e-01   
4.154000000000000e+09    3.810620518097312e-01    -9.253481108224982e-01   
4.155000000000000e+09    3.799095498765581e-01    -9.260522136890729e-01   
4.156000000000000e+09    3.792004388806194e-01    -9.265171239175736e-01   
4.157000000000000e+09    3.778610586856695e-01    -9.278042441134479e-01   
4.158000000000000e+09    3.769058285719210e-01    -9.286923347780038e-01   
4.159000000000000e+09    3.756322044367097e-01    -9.292489028675704e-01   
4.160000000000000e+09    3.746377462730979e-01    -9.303609260006016e-01   
4.161000000000000e+09    3.738559581133407e-01    -9.312863496940111e-01   
4.162000000000000e+09    3.726262494013285e-01    -9.317899288291991e-01   
4.163000000000000e+09    3.718719572682221e-01    -9.322293257512240e-01   
4.164000000000000e+09    3.708587520063812e-01    -9.330568204926382e-01   
4.165000000000000e+09    3.696897282125685e-01    -9.340780207325181e-01   
4.166000000000000e+09    3.690750051467822e-01    -9.349518252693866e-01   
4.167000000000000e+09    3.680173510863463e-01    -9.353950207687490e-01   
4.168000000000000e+09    3.672797570531049e-01    -9.357808000289083e-01   
4.169000000000000e+09    3.654818755241071e-01    -9.370015641152316e-01   
4.170000000000000e+09    3.650266108421336e-01    -9.372890937685474e-01   
4.171000000000000e+09    3.643331100290865e-01    -9.378560821241243e-01   
4.172000000000000e+09    3.632674427281821e-01    -9.382387788704434e-01   
4.173000000000000e+09    3.626922572652063e-01    -9.388743783052964e-01   
4.174000000000000e+09    3.615372767909848e-01    -9.391849056345610e-01   
4.175000000000000e+09    3.607665939675987e-01    -9.397587961950766e-01   
4.176000000000000e+09    3.597389963667477e-01    -9.403522353041444e-01   
4.177000000000000e+09    3.592160381550019e-01    -9.409586711798723e-01   
4.178000000000000e+09    3.584819300899673e-01    -9.412757874489900e-01   
4.179000000000000e+09    3.575526938035005e-01    -9.417860122280356e-01   
4.180000000000000e+09    3.566351510545367e-01    -9.420698238359765e-01   
4.181000000000000e+09    3.561291668693541e-01    -9.420911800106596e-01   
4.182000000000000e+09    3.553131708250031e-01    -9.424424447757305e-01   
4.183000000000000e+09    3.542868139937882e-01    -9.427495683458643e-01   
4.184000000000000e+09    3.539934551643337e-01    -9.427555057896618e-01   
4.185000000000000e+09    3.533024556841218e-01    -9.433145018776443e-01   
4.186000000000000e+09    3.520844829970455e-01    -9.434075788665723e-01   
4.187000000000000e+09    3.519056723026967e-01    -9.432838037662143e-01   
4.188000000000000e+09    3.511636291769071e-01    -9.435004437605550e-01   
4.189000000000000e+09    3.505200742791562e-01    -9.439356163051381e-01   
4.190000000000000e+09    3.498371367878645e-01    -9.441709727349173e-01   
4.191000000000000e+09    3.492777270770299e-01    -9.438385797172671e-01   
4.192000000000000e+09    3.487433103956564e-01    -9.439572424469688e-01   
4.193000000000000e+09    3.483452441777244e-01    -9.441452415404776e-01   
4.194000000000000e+09    3.474643235451941e-01    -9.441837353027709e-01   
4.195000000000000e+09    3.465104267147265e-01    -9.444258986941474e-01   
4.196000000000000e+09    3.459170729529752e-01    -9.442545613893348e-01   
4.197000000000000e+09    3.454273384195022e-01    -9.442648066630271e-01   
4.198000000000000e+09    3.446754051347845e-01    -9.444401819966904e-01   
4.199000000000000e+09    3.439760839781763e-01    -9.443322303275249e-01   
4.200000000000000e+09    3.430737324387812e-01    -9.440788290788252e-01   
4.201000000000000e+09    3.415385962696484e-01    -9.461664797521759e-01   
4.202000000000000e+09    3.407343385733133e-01    -9.461239504673982e-01   
4.203000000000000e+09    3.400134585752002e-01    -9.461974671816716e-01   
4.204000000000000e+09    3.393759335698112e-01    -9.460496845705682e-01   
4.205000000000000e+09    3.384869030082960e-01    -9.458774276713067e-01   
4.206000000000000e+09    3.376752147169785e-01    -9.458515914582171e-01   
4.207000000000000e+09    3.366798203803587e-01    -9.460102073997988e-01   
4.208000000000000e+09    3.357681675467670e-01    -9.456588172595731e-01   
4.209000000000000e+09    3.348461593767307e-01    -9.456378113469492e-01   
4.210000000000000e+09    3.342065426713172e-01    -9.458321327151612e-01   
4.211000000000000e+09    3.330004883134886e-01    -9.458990833885720e-01   
4.212000000000000e+09    3.319502932064022e-01    -9.458584440884399e-01   
4.213000000000000e+09    3.308541031093423e-01    -9.456417432156319e-01   
4.214000000000000e+09    3.299494546954933e-01    -9.459308935181342e-01   
4.215000000000000e+09    3.288070585015393e-01    -9.464505022709174e-01   
4.216000000000000e+09    3.277197718467610e-01    -9.465268254656463e-01   
4.217000000000000e+09    3.264799902546104e-01    -9.463501869883720e-01   
4.218000000000000e+09    3.253965948060515e-01    -9.469858785081395e-01   
4.219000000000000e+09    3.240308147541345e-01    -9.469905149723264e-01   
4.220000000000000e+09    3.225094742797986e-01    -9.474547146754428e-01   
4.221000000000000e+09    3.214110235520237e-01    -9.478462660918504e-01   
4.222000000000000e+09    3.201365061501126e-01    -9.480245905131859e-01   
4.223000000000000e+09    3.186290908897715e-01    -9.484666904281281e-01   
4.224000000000000e+09    3.174051224979655e-01    -9.488542923809172e-01   
4.225000000000000e+09    3.163955273928108e-01    -9.492000749904930e-01   
4.226000000000000e+09    3.147533871394627e-01    -9.494269663641064e-01   
4.227000000000000e+09    3.135784910990403e-01    -9.500238749580149e-01   
4.228000000000000e+09    3.123778327569702e-01    -9.504142006845163e-01   
4.229000000000000e+09    3.107055184721177e-01    -9.510271176931023e-01   
4.230000000000000e+09    3.094768530692695e-01    -9.514407438964738e-01   
4.231000000000000e+09    3.080408588395177e-01    -9.521740242603448e-01   
4.232000000000000e+09    3.069415040600746e-01    -9.525022711426659e-01   
4.233000000000000e+09    3.054825581805509e-01    -9.527168431339730e-01   
4.234000000000000e+09    3.038776831194671e-01    -9.536869704736664e-01   
4.235000000000000e+09    3.027474657201854e-01    -9.541260453685707e-01   
4.236000000000000e+09    3.012131855082250e-01    -9.546279120177827e-01   
4.237000000000000e+09    2.998397761572772e-01    -9.551624420383046e-01   
4.238000000000000e+09    2.983178474419527e-01    -9.557675908632831e-01   
4.239000000000000e+09    2.964576807590371e-01    -9.562495575511768e-01   
4.240000000000000e+09    2.951938757201224e-01    -9.564902371021101e-01   
4.241000000000000e+09    2.939826208315378e-01    -9.570549661529498e-01   
4.242000000000000e+09    2.920923770977754e-01    -9.570742073700924e-01   
4.243000000000000e+09    2.906006712894640e-01    -9.579270468735738e-01   
4.244000000000000e+09    2.890357291268508e-01    -9.587954157101124e-01   
4.245000000000000e+09    2.872778925818513e-01    -9.589788142976872e-01   
4.246000000000000e+09    2.861020372091039e-01    -9.595626316942968e-01   
4.247000000000000e+09    2.846114987723409e-01    -9.599021480119104e-01   
4.248000000000000e+09    2.830409652684184e-01    -9.605007624240935e-01   
4.249000000000000e+09    2.812370405892228e-01    -9.611435599088604e-01   
4.250000000000000e+09    2.798102051815929e-01    -9.611770297242296e-01   
4.251000000000000e+09    2.779214888099094e-01    -9.620541544738441e-01   
4.252000000000000e+09    2.763288270272711e-01    -9.623044481844372e-01   
4.253000000000000e+09    2.745653895562848e-01    -9.633045177786819e-01   
4.254000000000000e+09    2.726570347937560e-01    -9.631841384722383e-01   
4.255000000000000e+09    2.711695048242718e-01    -9.641117233370273e-01   
4.256000000000000e+09    2.694953123597255e-01    -9.641698176911346e-01   
