[Version] 2.0
! Rohde & Schwarz Vector Network Analyzer
! Rohde-Schwarz,ZNL20-2Port,1323001220200009,1.71.1.10-23.02.1.238
! 
! Port Assignments:
! Nominal Port -> Actual Test Port
! --------------------------------
!   1 -> 1

! Created: GMT+2 2025-01-17 12:45:49

# Hz S RI R 50

[Number of Ports] 1
[Number of Frequencies] 16001

[Network Data] 
! freq[Hz]               S11[Re]                  S11[Im]                  
4.000000000000000e+09    5.559303106595445e-01    -8.371024310482400e-01   
4.001000000000000e+09    5.548041237571765e-01    -8.374811122102338e-01   
4.002000000000000e+09    5.539098709508349e-01    -8.380732520184569e-01   
4.003000000000000e+09    5.524319306954012e-01    -8.390852801853590e-01   
4.004000000000000e+09    5.513756186626538e-01    -8.398382314000185e-01   
4.005000000000000e+09    5.499250087683234e-01    -8.411151516716012e-01   
4.006000000000000e+09    5.489305421949212e-01    -8.415303910251438e-01   
4.007000000000000e+09    5.474435358476967e-01    -8.425967179187999e-01   
4.008000000000000e+09    5.460263820124988e-01    -8.434136814545543e-01   
4.009000000000000e+09    5.451504543942985e-01    -8.441070785777579e-01   
4.010000000000000e+09    5.438724703274179e-01    -8.452199981493730e-01   
4.011000000000000e+09    5.422918648135023e-01    -8.456558910308976e-01   
4.012000000000000e+09    5.411953863103814e-01    -8.467056601365358e-01   
4.013000000000000e+09    5.397901708722068e-01    -8.471775537271771e-01   
4.014000000000000e+09    5.385618848068103e-01    -8.479351406506216e-01   
4.015000000000000e+09    5.372615167672637e-01    -8.485457293989662e-01   
4.016000000000000e+09    5.358121167781629e-01    -8.495132439830660e-01   
4.017000000000000e+09    5.348657420838210e-01    -8.495393843841248e-01   
4.018000000000000e+09    5.335246314723776e-01    -8.503752082660681e-01   
4.019000000000000e+09    5.322682891628217e-01    -8.507858953532115e-01   
4.020000000000000e+09    5.309011153276569e-01    -8.514469809431776e-01   
4.021000000000000e+09    5.299562424607098e-01    -8.519155132592124e-01   
4.022000000000000e+09    5.282815228917193e-01    -8.526673989370280e-01   
4.023000000000000e+09    5.269931083836391e-01    -8.534567180003042e-01   
4.024000000000000e+09    5.255039719001903e-01    -8.535701153073435e-01   
4.025000000000000e+09    5.245301087297233e-01    -8.538592585723661e-01   
4.026000000000000e+09    5.232014209882271e-01    -8.544304799025872e-01   
4.027000000000000e+09    5.218620205238889e-01    -8.545931913941667e-01   
4.028000000000000e+09    5.207477403995218e-01    -8.553756963987454e-01   
4.029000000000000e+09    5.193667141289808e-01    -8.558327205337889e-01   
4.030000000000000e+09    5.181497155082466e-01    -8.561810000668780e-01   
4.031000000000000e+09    5.166178127317417e-01    -8.567789011414981e-01   
4.032000000000000e+09    5.154095776273989e-01    -8.567729988017730e-01   
4.033000000000000e+09    5.140620903633710e-01    -8.572100474923774e-01   
4.034000000000000e+09    5.125711920441659e-01    -8.580666914305766e-01   
4.035000000000000e+09    5.110222548558148e-01    -8.583109269277824e-01   
4.036000000000000e+09    5.097403562762232e-01    -8.585625497053063e-01   
4.037000000000000e+09    5.083261445978150e-01    -8.592088765172615e-01   
4.038000000000000e+09    5.068507348666423e-01    -8.598561254146996e-01   
4.039000000000000e+09    5.056939853807344e-01    -8.601314333487778e-01   
4.040000000000000e+09    5.043607882909816e-01    -8.607606606989600e-01   
4.041000000000000e+09    5.029787321508215e-01    -8.613710887075811e-01   
4.042000000000000e+09    5.016604743104058e-01    -8.617578267454085e-01   
4.043000000000000e+09    5.001169003907203e-01    -8.625129859774656e-01   
4.044000000000000e+09    4.989614469927663e-01    -8.632533007146233e-01   
4.045000000000000e+09    4.977979601224301e-01    -8.637217302635143e-01   
4.046000000000000e+09    4.963141020896430e-01    -8.646879529641923e-01   
4.047000000000000e+09    4.955349938914951e-01    -8.654692175990711e-01   
4.048000000000000e+09    4.943932552028927e-01    -8.662086656809633e-01   
4.049000000000000e+09    4.931144109964270e-01    -8.667669711831772e-01   
4.050000000000000e+09    4.922426646097012e-01    -8.674212958930571e-01   
4.051000000000000e+09    4.910815813883390e-01    -8.682706224994480e-01   
4.052000000000000e+09    4.903327851683200e-01    -8.693884526435326e-01   
4.053000000000000e+09    4.889904359598348e-01    -8.699626072385697e-01   
4.054000000000000e+09    4.881952408443961e-01    -8.706890491435642e-01   
4.055000000000000e+09    4.872094757016082e-01    -8.713874821708036e-01   
4.056000000000000e+09    4.862086137032932e-01    -8.725011412289911e-01   
4.057000000000000e+09    4.854172837940267e-01    -8.730589297674575e-01   
4.058000000000000e+09    4.843933375610382e-01    -8.737522480245211e-01   
4.059000000000000e+09    4.839083546442446e-01    -8.746535686816257e-01   
4.060000000000000e+09    4.829804474919838e-01    -8.755709499377486e-01   
4.061000000000000e+09    4.821510447032084e-01    -8.765246609344600e-01   
4.062000000000000e+09    4.813887945942810e-01    -8.772883606932994e-01   
4.063000000000000e+09    4.810813403122620e-01    -8.778660436483997e-01   
4.064000000000000e+09    4.802506644396581e-01    -8.783408077681711e-01   
4.065000000000000e+09    4.794126697439630e-01    -8.795733080481100e-01   
4.066000000000000e+09    4.789470417385002e-01    -8.800721693697511e-01   
4.067000000000000e+09    4.783326635931691e-01    -8.809001186081953e-01   
4.068000000000000e+09    4.776901302473834e-01    -8.818139166415442e-01   
4.069000000000000e+09    4.772122446182974e-01    -8.826818155848989e-01   
4.070000000000000e+09    4.762806756078868e-01    -8.828865651012788e-01   
4.071000000000000e+09    4.759749920041423e-01    -8.842082363892236e-01   
4.072000000000000e+09    4.752932160340343e-01    -8.848225806361658e-01   
4.073000000000000e+09    4.747193815345335e-01    -8.851225850846076e-01   
4.074000000000000e+09    4.741278635349728e-01    -8.859507793640755e-01   
4.075000000000000e+09    4.734944132915734e-01    -8.869486530624368e-01   
4.076000000000000e+09    4.730901381040047e-01    -8.875681053722669e-01   
4.077000000000000e+09    4.726542578514169e-01    -8.884533817820013e-01   
4.078000000000000e+09    4.721299693705598e-01    -8.889662631144826e-01   
4.079000000000000e+09    4.712398653361929e-01    -8.900728667035539e-01   
4.080000000000000e+09    4.706533783262481e-01    -8.902169596432574e-01   
4.081000000000000e+09    4.703023924111171e-01    -8.912982263914504e-01   
4.082000000000000e+09    4.694671796196275e-01    -8.912345400109272e-01   
4.083000000000000e+09    4.689432964174721e-01    -8.920751290618899e-01   
4.084000000000000e+09    4.681757646267262e-01    -8.930547635315230e-01   
4.085000000000000e+09    4.672421462637556e-01    -8.932409552406706e-01   
4.086000000000000e+09    4.668617144493786e-01    -8.937808300901415e-01   
4.087000000000000e+09    4.662945450480410e-01    -8.942157109316381e-01   
4.088000000000000e+09    4.654350251445940e-01    -8.950072126137837e-01   
4.089000000000000e+09    4.643765839959021e-01    -8.955359791033579e-01   
4.090000000000000e+09    4.637512512288362e-01    -8.960960147480024e-01   
4.091000000000000e+09    4.631507898319551e-01    -8.964525657588398e-01   
4.092000000000000e+09    4.627018087865334e-01    -8.967806040627513e-01   
4.093000000000000e+09    4.614028181621550e-01    -8.976822933071615e-01   
4.094000000000000e+09    4.610461760643683e-01    -8.976314328723541e-01   
4.095000000000000e+09    4.600889881689369e-01    -8.983366855691512e-01   
4.096000000000000e+09    4.590519206236434e-01    -8.984394812343960e-01   
4.097000000000000e+09    4.584885016959806e-01    -8.989308605603116e-01   
4.098000000000000e+09    4.571843082062849e-01    -8.991895967155250e-01   
4.099000000000000e+09    4.565112637674160e-01    -8.992151060079520e-01   
4.100000000000000e+09    4.560713105170753e-01    -8.997089238670238e-01   
4.101000000000000e+09    4.549005228933723e-01    -9.003641605025451e-01   
4.102000000000000e+09    4.538631357234483e-01    -8.999846841164366e-01   
4.103000000000000e+09    4.530088830350325e-01    -9.003957939475824e-01   
4.104000000000000e+09    4.519841653693665e-01    -9.005448974150272e-01   
4.105000000000000e+09    4.510355663249768e-01    -9.009017527056297e-01   
4.106000000000000e+09    4.497768405145960e-01    -9.007855175295603e-01   
4.107000000000000e+09    4.490091315722000e-01    -9.007470340462752e-01   
4.108000000000000e+09    4.475840767792281e-01    -9.012844396796109e-01   
4.109000000000000e+09    4.466424628579393e-01    -9.011499718599806e-01   
4.110000000000000e+09    4.456690772705058e-01    -9.015813364257531e-01   
4.111000000000000e+09    4.446203361878628e-01    -9.016291918775562e-01   
4.112000000000000e+09    4.431442936423257e-01    -9.015945304857830e-01   
4.113000000000000e+09    4.420911360591832e-01    -9.017450290386343e-01   
4.114000000000000e+09    4.408853434815339e-01    -9.020712648123591e-01   
4.115000000000000e+09    4.398068169169399e-01    -9.018320387303446e-01   
4.116000000000000e+09    4.384487870148805e-01    -9.020811211152384e-01   
4.117000000000000e+09    4.371909574431083e-01    -9.020806811270680e-01   
4.118000000000000e+09    4.356561898474216e-01    -9.020383341548383e-01   
4.119000000000000e+09    4.342550583141863e-01    -9.025635232579082e-01   
4.120000000000000e+09    4.325735980936308e-01    -9.026719400003484e-01   
4.121000000000000e+09    4.312563114751925e-01    -9.028627025272350e-01   
4.122000000000000e+09    4.297645587556014e-01    -9.029619122599688e-01   
4.123000000000000e+09    4.282527612905584e-01    -9.033128983818736e-01   
4.124000000000000e+09    4.268612618105679e-01    -9.036352410964832e-01   
4.125000000000000e+09    4.250061460592329e-01    -9.036139833945457e-01   
4.126000000000000e+09    4.231935240028296e-01    -9.043063657803163e-01   
4.127000000000000e+09    4.218944906838326e-01    -9.043016685241534e-01   
4.128000000000000e+09    4.199983356830035e-01    -9.050643136159845e-01   
4.129000000000000e+09    4.182877396764229e-01    -9.053847649163143e-01   
4.130000000000000e+09    4.167935139397850e-01    -9.059121873274384e-01   
4.131000000000000e+09    4.150383623626519e-01    -9.064334095676219e-01   
4.132000000000000e+09    4.133313265580837e-01    -9.069377358787084e-01   
4.133000000000000e+09    4.120099025518705e-01    -9.076617374056980e-01   
4.134000000000000e+09    4.100904982347777e-01    -9.082219472927646e-01   
4.135000000000000e+09    4.085957002470804e-01    -9.087282714261362e-01   
4.136000000000000e+09    4.067922693776990e-01    -9.094379671705475e-01   
4.137000000000000e+09    4.055029123628762e-01    -9.102238566811279e-01   
4.138000000000000e+09    4.036991050478811e-01    -9.109461621971318e-01   
4.139000000000000e+09    4.018381707890136e-01    -9.118256843384942e-01   
4.140000000000000e+09    4.006473325062279e-01    -9.125416760377221e-01   
4.141000000000000e+09    3.986855437613566e-01    -9.133958361025206e-01   
4.142000000000000e+09    3.971867016141362e-01    -9.141396008250107e-01   
4.143000000000000e+09    3.960936182464072e-01    -9.149568730560088e-01   
4.144000000000000e+09    3.945689987551771e-01    -9.160540388447356e-01   
4.145000000000000e+09    3.929912802418195e-01    -9.167975623007609e-01   
4.146000000000000e+09    3.917733791759269e-01    -9.174572850643786e-01   
4.147000000000000e+09    3.902907301866919e-01    -9.184920642982299e-01   
4.148000000000000e+09    3.892873106483977e-01    -9.194027713864737e-01   
4.149000000000000e+09    3.878131704282745e-01    -9.203604506565171e-01   
4.150000000000000e+09    3.865047130134749e-01    -9.209656297989036e-01   
4.151000000000000e+09    3.854081297304289e-01    -9.220604804544940e-01   
4.152000000000000e+09    3.842281779007908e-01    -9.230447130290977e-01   
4.153000000000000e+09    3.822251294106792e-01    -9.244739052592228e-01   
4.154000000000000e+09    3.812312124475455e-01    -9.253495907526198e-01   
4.155000000000000e+09    3.799660950698299e-01    -9.259391199722312e-01   
4.156000000000000e+09    3.790490770615418e-01    -9.267439443051685e-01   
4.157000000000000e+09    3.776974004732518e-01    -9.276009684764169e-01   
4.158000000000000e+09    3.769733558607578e-01    -9.284903279506260e-01   
4.159000000000000e+09    3.756165037251477e-01    -9.291837637619632e-01   
4.160000000000000e+09    3.748313186309997e-01    -9.302270946453017e-01   
4.161000000000000e+09    3.738017922400503e-01    -9.310849669788289e-01   
4.162000000000000e+09    3.729238227091985e-01    -9.319013811113342e-01   
4.163000000000000e+09    3.715885287832990e-01    -9.324343009278585e-01   
4.164000000000000e+09    3.708635591408680e-01    -9.331950997473932e-01   
4.165000000000000e+09    3.695925945260340e-01    -9.340092948800960e-01   
4.166000000000000e+09    3.689130699374193e-01    -9.348612031028998e-01   
4.167000000000000e+09    3.676883516988190e-01    -9.352515601982301e-01   
4.168000000000000e+09    3.670866916918040e-01    -9.358411714410599e-01   
4.169000000000000e+09    3.662635852479296e-01    -9.368182985140009e-01   
4.170000000000000e+09    3.650891083801914e-01    -9.371712077216163e-01   
4.171000000000000e+09    3.638087659834837e-01    -9.377406803395582e-01   
4.172000000000000e+09    3.631796708528942e-01    -9.384273440718371e-01   
4.173000000000000e+09    3.626975038739986e-01    -9.388084289643632e-01   
4.174000000000000e+09    3.615004010730035e-01    -9.391682963569734e-01   
4.175000000000000e+09    3.603036238310408e-01    -9.398969120131481e-01   
4.176000000000000e+09    3.597709602243824e-01    -9.405120308340362e-01   
4.177000000000000e+09    3.591201480705814e-01    -9.404116135677323e-01   
4.178000000000000e+09    3.583699918358114e-01    -9.412784945378356e-01   
4.179000000000000e+09    3.576482937917186e-01    -9.417903863541917e-01   
4.180000000000000e+09    3.570967886587799e-01    -9.416980482158289e-01   
4.181000000000000e+09    3.560774862504662e-01    -9.422709019621481e-01   
4.182000000000000e+09    3.554844265145951e-01    -9.422854681747331e-01   
4.183000000000000e+09    3.545280340173059e-01    -9.425035867296742e-01   
4.184000000000000e+09    3.536294168138702e-01    -9.427418975404918e-01   
4.185000000000000e+09    3.533487746929619e-01    -9.432419050168321e-01   
4.186000000000000e+09    3.524312973672560e-01    -9.432373875644916e-01   
4.187000000000000e+09    3.519846765017208e-01    -9.436292053474641e-01   
4.188000000000000e+09    3.512114441676469e-01    -9.436525306515963e-01   
4.189000000000000e+09    3.505586630257968e-01    -9.435656798409512e-01   
4.190000000000000e+09    3.498201638650558e-01    -9.439370123175169e-01   
4.191000000000000e+09    3.492954635895570e-01    -9.439926836575826e-01   
4.192000000000000e+09    3.487113056840475e-01    -9.440424670146784e-01   
4.193000000000000e+09    3.481660505378286e-01    -9.442697654153287e-01   
4.194000000000000e+09    3.472065602065932e-01    -9.439221152147853e-01   
4.195000000000000e+09    3.465725097036427e-01    -9.443218892809930e-01   
4.196000000000000e+09    3.460881697995505e-01    -9.442326828212351e-01   
4.197000000000000e+09    3.454584693815170e-01    -9.441115601028912e-01   
4.198000000000000e+09    3.446773987347840e-01    -9.443596323517045e-01   
4.199000000000000e+09    3.438741941577089e-01    -9.441770033048739e-01   
4.200000000000000e+09    3.427784188083577e-01    -9.442924824730033e-01   
4.201000000000000e+09    3.411057684516777e-01    -9.459565117046640e-01   
4.202000000000000e+09    3.407618573450586e-01    -9.464021827444444e-01   
4.203000000000000e+09    3.401029596411173e-01    -9.462494516167068e-01   
4.204000000000000e+09    3.391089710413203e-01    -9.455579968176367e-01   
4.205000000000000e+09    3.382716866787107e-01    -9.457894155929877e-01   
4.206000000000000e+09    3.376665191419903e-01    -9.458342489430228e-01   
4.207000000000000e+09    3.368558074774781e-01    -9.457976674020188e-01   
4.208000000000000e+09    3.357249540190037e-01    -9.456619243402822e-01   
4.209000000000000e+09    3.346979863722442e-01    -9.456772748592988e-01   
4.210000000000000e+09    3.340037722986055e-01    -9.456777274448268e-01   
4.211000000000000e+09    3.332096637509477e-01    -9.460234212927376e-01   
4.212000000000000e+09    3.321105430748837e-01    -9.459847040326170e-01   
4.213000000000000e+09    3.308403111148921e-01    -9.458347338002299e-01   
4.214000000000000e+09    3.296585652752006e-01    -9.458130389736698e-01   
4.215000000000000e+09    3.290122521407260e-01    -9.461334041651503e-01   
4.216000000000000e+09    3.274051011694940e-01    -9.465110459870429e-01   
4.217000000000000e+09    3.263090399045124e-01    -9.466516780107146e-01   
4.218000000000000e+09    3.253597356796128e-01    -9.468624093024851e-01   
4.219000000000000e+09    3.237353294855113e-01    -9.472179462244505e-01   
4.220000000000000e+09    3.228986406982358e-01    -9.474816980730992e-01   
4.221000000000000e+09    3.212820213407818e-01    -9.476645590261485e-01   
4.222000000000000e+09    3.200244257274405e-01    -9.480375529483148e-01   
4.223000000000000e+09    3.188486623418288e-01    -9.484915382453630e-01   
4.224000000000000e+09    3.175993740027370e-01    -9.487663030528662e-01   
4.225000000000000e+09    3.164934924817257e-01    -9.491672242657700e-01   
4.226000000000000e+09    3.148125370945172e-01    -9.497260724903721e-01   
4.227000000000000e+09    3.133240836069746e-01    -9.502774376182394e-01   
4.228000000000000e+09    3.121973635972994e-01    -9.504604786488026e-01   
4.229000000000000e+09    3.109217182994555e-01    -9.511225463579440e-01   
4.230000000000000e+09    3.097539074730056e-01    -9.515859420451276e-01   
4.231000000000000e+09    3.082016658820673e-01    -9.523582489814190e-01   
4.232000000000000e+09    3.067389088106218e-01    -9.524569190924291e-01   
4.233000000000000e+09    3.056117586424841e-01    -9.530728145599263e-01   
4.234000000000000e+09    3.039219413058832e-01    -9.535938448834220e-01   
4.235000000000000e+09    3.025168849657324e-01    -9.541300570005971e-01   
4.236000000000000e+09    3.010523461870687e-01    -9.545329329194155e-01   
4.237000000000000e+09    2.995923744102050e-01    -9.550722942235201e-01   
4.238000000000000e+09    2.980484106021646e-01    -9.555677508514575e-01   
4.239000000000000e+09    2.969652009203251e-01    -9.561317461281690e-01   
4.240000000000000e+09    2.953483604412440e-01    -9.566026948882272e-01   
4.241000000000000e+09    2.941034888634695e-01    -9.569885306047390e-01   
4.242000000000000e+09    2.923113934856317e-01    -9.572712042805154e-01   
4.243000000000000e+09    2.905688758455034e-01    -9.584324315364456e-01   
4.244000000000000e+09    2.890765895649570e-01    -9.581458176181910e-01   
4.245000000000000e+09    2.878455791007798e-01    -9.590774506535363e-01   
4.246000000000000e+09    2.861342856309411e-01    -9.596021473627384e-01   
4.247000000000000e+09    2.848278810810235e-01    -9.596676017184705e-01   
4.248000000000000e+09    2.831420674397119e-01    -9.603368983251236e-01   
4.249000000000000e+09    2.813320660504616e-01    -9.611247099240451e-01   
4.250000000000000e+09    2.797173873242133e-01    -9.615153661368856e-01   
4.251000000000000e+09    2.779392760542174e-01    -9.617169702829304e-01   
4.252000000000000e+09    2.758512008927652e-01    -9.628292283894764e-01   
4.253000000000000e+09    2.745375400412637e-01    -9.629029393971692e-01   
4.254000000000000e+09    2.727044932103664e-01    -9.631349463857859e-01   
4.255000000000000e+09    2.712849132684667e-01    -9.635974675917891e-01   
4.256000000000000e+09    2.693519682063790e-01    -9.641896150817921e-01   
