[Version] 2.0
! Rohde & Schwarz Vector Network Analyzer
! Rohde-Schwarz,ZNL20-2Port,1323001220200009,1.71.1.10-23.02.1.238
! 
! Port Assignments:
! Nominal Port -> Actual Test Port
! --------------------------------
!   1 -> 1

! Created: GMT+2 2025-01-17 12:46:08

# Hz S RI R 50

[Number of Ports] 1
[Number of Frequencies] 16001

[Network Data] 
! freq[Hz]               S11[Re]                  S11[Im]                  
4.000000000000000e+09    5.559135879434323e-01    -8.366503596132686e-01   
4.001000000000000e+09    5.547519974836164e-01    -8.376534715321222e-01   
4.002000000000000e+09    5.536851430413966e-01    -8.381973166990956e-01   
4.003000000000000e+09    5.523511117713554e-01    -8.393417282206388e-01   
4.004000000000000e+09    5.510946791457332e-01    -8.399063081926049e-01   
4.005000000000000e+09    5.500525958423588e-01    -8.407468994918800e-01   
4.006000000000000e+09    5.486132995980707e-01    -8.415550884918356e-01   
4.007000000000000e+09    5.477230207655374e-01    -8.423222649878210e-01   
4.008000000000000e+09    5.464035036979291e-01    -8.434959529421532e-01   
4.009000000000000e+09    5.447581566502258e-01    -8.445663943478172e-01   
4.010000000000000e+09    5.438283660818892e-01    -8.451088827204100e-01   
4.011000000000000e+09    5.423265485980053e-01    -8.456270042988214e-01   
4.012000000000000e+09    5.415114173716873e-01    -8.464742724836473e-01   
4.013000000000000e+09    5.396619822897774e-01    -8.473349952858217e-01   
4.014000000000000e+09    5.386520074176254e-01    -8.479543576397586e-01   
4.015000000000000e+09    5.372953993285045e-01    -8.483641951480820e-01   
4.016000000000000e+09    5.362555996141638e-01    -8.491122343058396e-01   
4.017000000000000e+09    5.349184174132079e-01    -8.496689274081588e-01   
4.018000000000000e+09    5.335609272181963e-01    -8.506040163031355e-01   
4.019000000000000e+09    5.321919036032134e-01    -8.508971053667107e-01   
4.020000000000000e+09    5.309076110813973e-01    -8.513701097510644e-01   
4.021000000000000e+09    5.300337934181394e-01    -8.519050478775442e-01   
4.022000000000000e+09    5.283915334522783e-01    -8.528190283660299e-01   
4.023000000000000e+09    5.272267936952465e-01    -8.531911581380784e-01   
4.024000000000000e+09    5.259583606596060e-01    -8.533758576711646e-01   
4.025000000000000e+09    5.243221616344612e-01    -8.540089413562137e-01   
4.026000000000000e+09    5.233592162573869e-01    -8.544073385054443e-01   
4.027000000000000e+09    5.219007414265168e-01    -8.547758847046063e-01   
4.028000000000000e+09    5.204237845279632e-01    -8.551996072855049e-01   
4.029000000000000e+09    5.192278366266442e-01    -8.559080359529408e-01   
4.030000000000000e+09    5.178068420605800e-01    -8.562216695109292e-01   
4.031000000000000e+09    5.166702026864570e-01    -8.566178402362067e-01   
4.032000000000000e+09    5.154856209621680e-01    -8.570905236623123e-01   
4.033000000000000e+09    5.142560740693320e-01    -8.570966082833030e-01   
4.034000000000000e+09    5.124712445452303e-01    -8.578595534106925e-01   
4.035000000000000e+09    5.111707531908045e-01    -8.582520864342598e-01   
4.036000000000000e+09    5.098727450853057e-01    -8.588157214751823e-01   
4.037000000000000e+09    5.082843897411520e-01    -8.593422487731732e-01   
4.038000000000000e+09    5.071112460934519e-01    -8.596292262017113e-01   
4.039000000000000e+09    5.057582971170672e-01    -8.601824874730981e-01   
4.040000000000000e+09    5.044311713594045e-01    -8.608312388898277e-01   
4.041000000000000e+09    5.031236664752959e-01    -8.612418679370812e-01   
4.042000000000000e+09    5.017824292265847e-01    -8.619850468529822e-01   
4.043000000000000e+09    5.005519637414063e-01    -8.625597540866030e-01   
4.044000000000000e+09    4.992306547153981e-01    -8.633493254466129e-01   
4.045000000000000e+09    4.976456229700878e-01    -8.636345375008391e-01   
4.046000000000000e+09    4.967209604353314e-01    -8.644324580312575e-01   
4.047000000000000e+09    4.954262260619336e-01    -8.653508164328018e-01   
4.048000000000000e+09    4.943392560440488e-01    -8.657334922307527e-01   
4.049000000000000e+09    4.930142328701163e-01    -8.666795775371495e-01   
4.050000000000000e+09    4.922461176447656e-01    -8.675816744107858e-01   
4.051000000000000e+09    4.911877820883729e-01    -8.682846664684249e-01   
4.052000000000000e+09    4.902252266990185e-01    -8.692013566760698e-01   
4.053000000000000e+09    4.890278303198480e-01    -8.697741800339917e-01   
4.054000000000000e+09    4.880926286963337e-01    -8.708112501001375e-01   
4.055000000000000e+09    4.872261653803880e-01    -8.715042574840516e-01   
4.056000000000000e+09    4.862858924256944e-01    -8.725702046396774e-01   
4.057000000000000e+09    4.854749571146181e-01    -8.729369507683784e-01   
4.058000000000000e+09    4.844499201999626e-01    -8.737667374762097e-01   
4.059000000000000e+09    4.838970899856876e-01    -8.747797278935214e-01   
4.060000000000000e+09    4.830980483563427e-01    -8.754106560419054e-01   
4.061000000000000e+09    4.820670982370984e-01    -8.761880476423166e-01   
4.062000000000000e+09    4.817517197208075e-01    -8.769734066301790e-01   
4.063000000000000e+09    4.805929612941768e-01    -8.779636925217227e-01   
4.064000000000000e+09    4.802049960533168e-01    -8.787204257826682e-01   
4.065000000000000e+09    4.793513584098715e-01    -8.796646488564906e-01   
4.066000000000000e+09    4.788353732453212e-01    -8.805100341788813e-01   
4.067000000000000e+09    4.782158600365724e-01    -8.811836384675210e-01   
4.068000000000000e+09    4.777394955091368e-01    -8.816457731509945e-01   
4.069000000000000e+09    4.768671583745555e-01    -8.827081196666163e-01   
4.070000000000000e+09    4.765874681513337e-01    -8.831085209109636e-01   
4.071000000000000e+09    4.760451120340067e-01    -8.839951999205508e-01   
4.072000000000000e+09    4.752300855857726e-01    -8.846405339408435e-01   
4.073000000000000e+09    4.749450048365521e-01    -8.853907434352850e-01   
4.074000000000000e+09    4.739770433540129e-01    -8.860788707078389e-01   
4.075000000000000e+09    4.737183043827668e-01    -8.867226629364073e-01   
4.076000000000000e+09    4.730332811427552e-01    -8.873550561136206e-01   
4.077000000000000e+09    4.724089248724521e-01    -8.882260532172531e-01   
4.078000000000000e+09    4.719050750902956e-01    -8.888775374815211e-01   
4.079000000000000e+09    4.713007606712059e-01    -8.901147113699324e-01   
4.080000000000000e+09    4.703502097629040e-01    -8.900543812382983e-01   
4.081000000000000e+09    4.700515873927374e-01    -8.910621673946076e-01   
4.082000000000000e+09    4.692910854786930e-01    -8.912776252107811e-01   
4.083000000000000e+09    4.688320959871929e-01    -8.923970970803098e-01   
4.084000000000000e+09    4.681041507279988e-01    -8.930944559955777e-01   
4.085000000000000e+09    4.679570042893316e-01    -8.931967679892175e-01   
4.086000000000000e+09    4.666263724492234e-01    -8.935680739197750e-01   
4.087000000000000e+09    4.659920603860627e-01    -8.948300203489393e-01   
4.088000000000000e+09    4.656333638031371e-01    -8.949662489980407e-01   
4.089000000000000e+09    4.642321951924426e-01    -8.956321961891673e-01   
4.090000000000000e+09    4.634976747335484e-01    -8.962241008869833e-01   
4.091000000000000e+09    4.631848040632578e-01    -8.965332975764670e-01   
4.092000000000000e+09    4.625341120225470e-01    -8.970070135970355e-01   
4.093000000000000e+09    4.616343580129493e-01    -8.972415480268425e-01   
4.094000000000000e+09    4.607952711150812e-01    -8.979855053680158e-01   
4.095000000000000e+09    4.597954493393638e-01    -8.982728636461719e-01   
4.096000000000000e+09    4.590949271828915e-01    -8.986490220088862e-01   
4.097000000000000e+09    4.586335425162201e-01    -8.991671789467627e-01   
4.098000000000000e+09    4.573274928430003e-01    -8.993289008544839e-01   
4.099000000000000e+09    4.566729234952264e-01    -8.996756798149991e-01   
4.100000000000000e+09    4.554907186701821e-01    -8.998145510578385e-01   
4.101000000000000e+09    4.548752638134118e-01    -9.002669022136905e-01   
4.102000000000000e+09    4.537539063158308e-01    -9.002754262921832e-01   
4.103000000000000e+09    4.529276696747988e-01    -9.003075944770957e-01   
4.104000000000000e+09    4.521798194810166e-01    -9.005243414215031e-01   
4.105000000000000e+09    4.508517612679452e-01    -9.008211246911859e-01   
4.106000000000000e+09    4.499632302115236e-01    -9.011802341207824e-01   
4.107000000000000e+09    4.489281599314290e-01    -9.009516102943719e-01   
4.108000000000000e+09    4.476792649607836e-01    -9.009391305972007e-01   
4.109000000000000e+09    4.469225187617866e-01    -9.014836507328403e-01   
4.110000000000000e+09    4.457313773821255e-01    -9.014905172425103e-01   
4.111000000000000e+09    4.449467277368296e-01    -9.016526906025908e-01   
4.112000000000000e+09    4.433691486613006e-01    -9.016942271731544e-01   
4.113000000000000e+09    4.423694763422510e-01    -9.019309086527973e-01   
4.114000000000000e+09    4.408734501370110e-01    -9.019445263902721e-01   
4.115000000000000e+09    4.396571743665760e-01    -9.021523279252003e-01   
4.116000000000000e+09    4.385241881931035e-01    -9.020135415819799e-01   
4.117000000000000e+09    4.371945189630068e-01    -9.021715266731892e-01   
4.118000000000000e+09    4.356009008780163e-01    -9.025017195201114e-01   
4.119000000000000e+09    4.345569223239060e-01    -9.025778569622592e-01   
4.120000000000000e+09    4.329857245702681e-01    -9.027626352193776e-01   
4.121000000000000e+09    4.313688238727416e-01    -9.026548674257440e-01   
4.122000000000000e+09    4.298900279359865e-01    -9.030092713236908e-01   
4.123000000000000e+09    4.283680976683097e-01    -9.032819096007404e-01   
4.124000000000000e+09    4.266119505326921e-01    -9.035396401914614e-01   
4.125000000000000e+09    4.249705476868945e-01    -9.037701059248415e-01   
4.126000000000000e+09    4.235575532204444e-01    -9.040085346747390e-01   
4.127000000000000e+09    4.218194865059003e-01    -9.045152047581861e-01   
4.128000000000000e+09    4.199947415807482e-01    -9.049445754837948e-01   
4.129000000000000e+09    4.183179609479805e-01    -9.054538438366798e-01   
4.130000000000000e+09    4.170228615380491e-01    -9.058471268688589e-01   
4.131000000000000e+09    4.149933856429268e-01    -9.061149686392302e-01   
4.132000000000000e+09    4.133095743523805e-01    -9.071362046755729e-01   
4.133000000000000e+09    4.115021320452344e-01    -9.075888801039016e-01   
4.134000000000000e+09    4.100727659657768e-01    -9.080604497701177e-01   
4.135000000000000e+09    4.083462709557145e-01    -9.086961309681653e-01   
4.136000000000000e+09    4.066394560949344e-01    -9.092443029172378e-01   
4.137000000000000e+09    4.053274902232753e-01    -9.102641224366025e-01   
4.138000000000000e+09    4.036997354744363e-01    -9.110481394988791e-01   
4.139000000000000e+09    4.019082372239312e-01    -9.117182264276487e-01   
4.140000000000000e+09    4.003278969454095e-01    -9.124083998959599e-01   
4.141000000000000e+09    3.986923367019555e-01    -9.133366447903954e-01   
4.142000000000000e+09    3.974864546718125e-01    -9.141900806921891e-01   
4.143000000000000e+09    3.962535379469516e-01    -9.151679767864804e-01   
4.144000000000000e+09    3.944884645611178e-01    -9.159275077530793e-01   
4.145000000000000e+09    3.930501044370572e-01    -9.166249199268208e-01   
4.146000000000000e+09    3.915908066043022e-01    -9.177669760944973e-01   
4.147000000000000e+09    3.901777443965418e-01    -9.184592636249866e-01   
4.148000000000000e+09    3.890512273999989e-01    -9.195184062063453e-01   
4.149000000000000e+09    3.874907385554438e-01    -9.205815382977856e-01   
4.150000000000000e+09    3.867602930589923e-01    -9.213849274013647e-01   
4.151000000000000e+09    3.852154525965871e-01    -9.221418539770329e-01   
4.152000000000000e+09    3.838540925062696e-01    -9.229920921475938e-01   
4.153000000000000e+09    3.823408847620544e-01    -9.241254190326313e-01   
4.154000000000000e+09    3.811407312981271e-01    -9.254378220626218e-01   
4.155000000000000e+09    3.801001586888119e-01    -9.260500293145876e-01   
4.156000000000000e+09    3.789698514216671e-01    -9.266235488095094e-01   
4.157000000000000e+09    3.779585888655634e-01    -9.273435016535099e-01   
4.158000000000000e+09    3.769198514360061e-01    -9.285483118310554e-01   
4.159000000000000e+09    3.758036542646335e-01    -9.293400754109049e-01   
4.160000000000000e+09    3.748839275480650e-01    -9.302811092858114e-01   
4.161000000000000e+09    3.737243104572398e-01    -9.309823416530102e-01   
4.162000000000000e+09    3.728583290238627e-01    -9.321034123013068e-01   
4.163000000000000e+09    3.715375471187541e-01    -9.324621848393032e-01   
4.164000000000000e+09    3.706320326071918e-01    -9.330613577748194e-01   
4.165000000000000e+09    3.696390861095608e-01    -9.338142412812351e-01   
4.166000000000000e+09    3.687269274662658e-01    -9.345454051704905e-01   
4.167000000000000e+09    3.680981163777491e-01    -9.352918269301836e-01   
4.168000000000000e+09    3.670181331015512e-01    -9.361043510602285e-01   
4.169000000000000e+09    3.657566932843322e-01    -9.367443706856782e-01   
4.170000000000000e+09    3.649443606040315e-01    -9.373052745990831e-01   
4.171000000000000e+09    3.635998354095942e-01    -9.376866774627863e-01   
4.172000000000000e+09    3.631694866667976e-01    -9.382511579474234e-01   
4.173000000000000e+09    3.624664847095838e-01    -9.390015826862149e-01   
4.174000000000000e+09    3.613161550808713e-01    -9.394490909617251e-01   
4.175000000000000e+09    3.606617024313186e-01    -9.397713259169388e-01   
4.176000000000000e+09    3.599460429848886e-01    -9.404908750310227e-01   
4.177000000000000e+09    3.591381158253060e-01    -9.407197899778972e-01   
4.178000000000000e+09    3.581599677823010e-01    -9.410395040825462e-01   
4.179000000000000e+09    3.577151277591488e-01    -9.416862573152202e-01   
4.180000000000000e+09    3.566899548006234e-01    -9.417629312417777e-01   
4.181000000000000e+09    3.559008686561687e-01    -9.421644844390369e-01   
4.182000000000000e+09    3.555466075344432e-01    -9.424600953552036e-01   
4.183000000000000e+09    3.546010048484124e-01    -9.429113756561179e-01   
4.184000000000000e+09    3.539189165823512e-01    -9.429990762986640e-01   
4.185000000000000e+09    3.532670286661770e-01    -9.431430232705676e-01   
4.186000000000000e+09    3.524690524092340e-01    -9.432993969096574e-01   
4.187000000000000e+09    3.516931630226386e-01    -9.432719528368051e-01   
4.188000000000000e+09    3.513116128528969e-01    -9.434516763812667e-01   
4.189000000000000e+09    3.510563464790578e-01    -9.440374912719748e-01   
4.190000000000000e+09    3.499106259863026e-01    -9.439847299056116e-01   
4.191000000000000e+09    3.492436424120062e-01    -9.438458064746884e-01   
4.192000000000000e+09    3.484348662816518e-01    -9.439885547655084e-01   
4.193000000000000e+09    3.480652625898530e-01    -9.446037340041323e-01   
4.194000000000000e+09    3.475238161168329e-01    -9.444400835269005e-01   
4.195000000000000e+09    3.464062968735015e-01    -9.441706354015377e-01   
4.196000000000000e+09    3.460533943225385e-01    -9.440730202542061e-01   
4.197000000000000e+09    3.453671061022858e-01    -9.444243218706339e-01   
4.198000000000000e+09    3.444497030247650e-01    -9.440356792110576e-01   
4.199000000000000e+09    3.438404283706419e-01    -9.440752388818286e-01   
4.200000000000000e+09    3.429218124960222e-01    -9.443761222506379e-01   
4.201000000000000e+09    3.413911777936479e-01    -9.460992597143227e-01   
4.202000000000000e+09    3.406774280226816e-01    -9.458641798695370e-01   
4.203000000000000e+09    3.398864598978800e-01    -9.461891387441304e-01   
4.204000000000000e+09    3.393089571781964e-01    -9.458620882931379e-01   
4.205000000000000e+09    3.383858617589843e-01    -9.459961948942693e-01   
4.206000000000000e+09    3.378604471658619e-01    -9.459229833808687e-01   
4.207000000000000e+09    3.367950763274155e-01    -9.457691483468216e-01   
4.208000000000000e+09    3.358235394185651e-01    -9.456309695859539e-01   
4.209000000000000e+09    3.345579901948804e-01    -9.459277894173848e-01   
4.210000000000000e+09    3.339856268885711e-01    -9.458641238756744e-01   
4.211000000000000e+09    3.329808344169443e-01    -9.456980228932579e-01   
4.212000000000000e+09    3.322503919090654e-01    -9.460257467637390e-01   
4.213000000000000e+09    3.307169709306753e-01    -9.460195481301427e-01   
4.214000000000000e+09    3.298777653695339e-01    -9.459540596126149e-01   
4.215000000000000e+09    3.287877152241926e-01    -9.462227303310102e-01   
4.216000000000000e+09    3.274245154940396e-01    -9.464070690636259e-01   
4.217000000000000e+09    3.262069349475153e-01    -9.465433728602124e-01   
4.218000000000000e+09    3.251633636904560e-01    -9.469100081194037e-01   
4.219000000000000e+09    3.240378848793048e-01    -9.471992823805425e-01   
4.220000000000000e+09    3.225383389830240e-01    -9.472073716321971e-01   
4.221000000000000e+09    3.214308931488715e-01    -9.478337456991214e-01   
4.222000000000000e+09    3.200933712001269e-01    -9.481467753492215e-01   
4.223000000000000e+09    3.188295762006205e-01    -9.483680376459095e-01   
4.224000000000000e+09    3.175661008078950e-01    -9.487507084364103e-01   
4.225000000000000e+09    3.161970009576960e-01    -9.490875087995814e-01   
4.226000000000000e+09    3.150828799343908e-01    -9.498255913180960e-01   
4.227000000000000e+09    3.135307928613274e-01    -9.501950673095705e-01   
4.228000000000000e+09    3.120485560072026e-01    -9.506950020674311e-01   
4.229000000000000e+09    3.108926669146165e-01    -9.511058853340755e-01   
4.230000000000000e+09    3.097789524235821e-01    -9.515416887200642e-01   
4.231000000000000e+09    3.079227737477008e-01    -9.522772033713289e-01   
4.232000000000000e+09    3.069495672472671e-01    -9.522572966958075e-01   
4.233000000000000e+09    3.055865360185108e-01    -9.530275438781121e-01   
4.234000000000000e+09    3.038686017693852e-01    -9.535620079822912e-01   
4.235000000000000e+09    3.025953109787987e-01    -9.541038647268831e-01   
4.236000000000000e+09    3.012996521432052e-01    -9.546335642938242e-01   
4.237000000000000e+09    2.996150538169514e-01    -9.550692458102389e-01   
4.238000000000000e+09    2.985004629807570e-01    -9.556257617869645e-01   
4.239000000000000e+09    2.969718517385942e-01    -9.560171903353318e-01   
4.240000000000000e+09    2.953666098797021e-01    -9.567155436690152e-01   
4.241000000000000e+09    2.941784346509677e-01    -9.568624377830548e-01   
4.242000000000000e+09    2.924144133783329e-01    -9.575723889400788e-01   
4.243000000000000e+09    2.909480536587276e-01    -9.578725691593611e-01   
4.244000000000000e+09    2.890253373155426e-01    -9.585522855784188e-01   
4.245000000000000e+09    2.875399217265202e-01    -9.590074390774744e-01   
4.246000000000000e+09    2.866032583023450e-01    -9.593336729313889e-01   
4.247000000000000e+09    2.844681515532659e-01    -9.597357008239249e-01   
4.248000000000000e+09    2.828652752544848e-01    -9.604594843152856e-01   
4.249000000000000e+09    2.812160128450031e-01    -9.606730594673591e-01   
4.250000000000000e+09    2.797263458262214e-01    -9.612782689653979e-01   
4.251000000000000e+09    2.779714952057727e-01    -9.621526582914014e-01   
4.252000000000000e+09    2.761736421407229e-01    -9.624254811838604e-01   
4.253000000000000e+09    2.746175145021569e-01    -9.631614333795523e-01   
4.254000000000000e+09    2.725002986184646e-01    -9.631787433281708e-01   
4.255000000000000e+09    2.710132848278213e-01    -9.636086461420899e-01   
4.256000000000000e+09    2.694658416890049e-01    -9.636634539853908e-01   
