[Version] 2.0
! Rohde & Schwarz Vector Network Analyzer
! Rohde-Schwarz,ZNL20-2Port,1323001220200009,1.71.1.10-23.02.1.238
! 
! Port Assignments:
! Nominal Port -> Actual Test Port
! --------------------------------
!   1 -> 1

! Created: GMT+2 2025-01-17 12:46:26

# Hz S RI R 50

[Number of Ports] 1
[Number of Frequencies] 16001

[Network Data] 
! freq[Hz]               S11[Re]                  S11[Im]                  
4.000000000000000e+09    5.562003805832711e-01    -8.366168848176393e-01   
4.001000000000000e+09    5.548004927446839e-01    -8.375428477438812e-01   
4.002000000000000e+09    5.536787934333637e-01    -8.381669335771311e-01   
4.003000000000000e+09    5.523133964535890e-01    -8.388057044075921e-01   
4.004000000000000e+09    5.513018463478220e-01    -8.400039991570899e-01   
4.005000000000000e+09    5.498396674846390e-01    -8.409741393409216e-01   
4.006000000000000e+09    5.487429237474387e-01    -8.415751747966377e-01   
4.007000000000000e+09    5.475787344528176e-01    -8.426233557970603e-01   
4.008000000000000e+09    5.463980666948007e-01    -8.434667468805002e-01   
4.009000000000000e+09    5.452753690879691e-01    -8.442257365455549e-01   
4.010000000000000e+09    5.439391323842232e-01    -8.450668383024590e-01   
4.011000000000000e+09    5.424621874776114e-01    -8.461120876276808e-01   
4.012000000000000e+09    5.412051434134038e-01    -8.465334213582690e-01   
4.013000000000000e+09    5.400343648127948e-01    -8.469788232920339e-01   
4.014000000000000e+09    5.386836743935265e-01    -8.480331182176676e-01   
4.015000000000000e+09    5.371531973841420e-01    -8.481893064190883e-01   
4.016000000000000e+09    5.363817203853393e-01    -8.491190820845040e-01   
4.017000000000000e+09    5.351017408888622e-01    -8.501454837751331e-01   
4.018000000000000e+09    5.336373676402163e-01    -8.503540858416332e-01   
4.019000000000000e+09    5.320799707897506e-01    -8.507633507735752e-01   
4.020000000000000e+09    5.309997605883081e-01    -8.512743491787477e-01   
4.021000000000000e+09    5.295527833307798e-01    -8.521437958058957e-01   
4.022000000000000e+09    5.284333775144360e-01    -8.527285333120783e-01   
4.023000000000000e+09    5.275086620088285e-01    -8.529449485709745e-01   
4.024000000000000e+09    5.259409414010369e-01    -8.536077921881751e-01   
4.025000000000000e+09    5.247252402393677e-01    -8.541479826271822e-01   
4.026000000000000e+09    5.232095851665816e-01    -8.542877811439953e-01   
4.027000000000000e+09    5.220718229149088e-01    -8.548363151116034e-01   
4.028000000000000e+09    5.205313447845605e-01    -8.552944588745338e-01   
4.029000000000000e+09    5.194866211118414e-01    -8.559704114398523e-01   
4.030000000000000e+09    5.181952992194513e-01    -8.561907248325579e-01   
4.031000000000000e+09    5.168392970746389e-01    -8.564022017629975e-01   
4.032000000000000e+09    5.153958695878409e-01    -8.568765999273124e-01   
4.033000000000000e+09    5.138318018512328e-01    -8.575166042230566e-01   
4.034000000000000e+09    5.125370374816267e-01    -8.578691636569294e-01   
4.035000000000000e+09    5.113647517860338e-01    -8.583793573605494e-01   
4.036000000000000e+09    5.097824218481068e-01    -8.586862805929070e-01   
4.037000000000000e+09    5.085999540893175e-01    -8.591637196019074e-01   
4.038000000000000e+09    5.071736781377216e-01    -8.598530051096596e-01   
4.039000000000000e+09    5.058779034276201e-01    -8.601664842119179e-01   
4.040000000000000e+09    5.044247238411498e-01    -8.608184995503072e-01   
4.041000000000000e+09    5.032219093008715e-01    -8.611851296744129e-01   
4.042000000000000e+09    5.016754240827945e-01    -8.618319119915548e-01   
4.043000000000000e+09    5.004728586751984e-01    -8.624978269798302e-01   
4.044000000000000e+09    4.992308346987239e-01    -8.634399886555167e-01   
4.045000000000000e+09    4.978013760294506e-01    -8.636635871143993e-01   
4.046000000000000e+09    4.967681118040793e-01    -8.644141418713708e-01   
4.047000000000000e+09    4.956623489965378e-01    -8.652024223839516e-01   
4.048000000000000e+09    4.941844229093117e-01    -8.659152414331859e-01   
4.049000000000000e+09    4.929388430241405e-01    -8.667665477015657e-01   
4.050000000000000e+09    4.922000955537637e-01    -8.673826471242099e-01   
4.051000000000000e+09    4.911773434816184e-01    -8.683791591321259e-01   
4.052000000000000e+09    4.901833194211462e-01    -8.692590413638487e-01   
4.053000000000000e+09    4.889489984314651e-01    -8.699782412493362e-01   
4.054000000000000e+09    4.881046703153549e-01    -8.706263012570934e-01   
4.055000000000000e+09    4.873529565291103e-01    -8.715070399208477e-01   
4.056000000000000e+09    4.862103671075270e-01    -8.720524920456684e-01   
4.057000000000000e+09    4.855000085735596e-01    -8.732694788103954e-01   
4.058000000000000e+09    4.846179133348197e-01    -8.735299979277495e-01   
4.059000000000000e+09    4.839032101609202e-01    -8.748447805378188e-01   
4.060000000000000e+09    4.831962536309212e-01    -8.755154274758808e-01   
4.061000000000000e+09    4.822744977171817e-01    -8.762564511600249e-01   
4.062000000000000e+09    4.814957001930387e-01    -8.770203957521838e-01   
4.063000000000000e+09    4.808680131776273e-01    -8.779707237296429e-01   
4.064000000000000e+09    4.802521209982294e-01    -8.785229265097213e-01   
4.065000000000000e+09    4.795021725460454e-01    -8.790402473184296e-01   
4.066000000000000e+09    4.790764194880607e-01    -8.802893224195348e-01   
4.067000000000000e+09    4.781922221983146e-01    -8.811793269933734e-01   
4.068000000000000e+09    4.776842585765885e-01    -8.814573545908811e-01   
4.069000000000000e+09    4.771440102586685e-01    -8.829519775205182e-01   
4.070000000000000e+09    4.766298365284242e-01    -8.831733561363747e-01   
4.071000000000000e+09    4.759107067835736e-01    -8.840172163074698e-01   
4.072000000000000e+09    4.751415513758576e-01    -8.846787261342544e-01   
4.073000000000000e+09    4.747782198712899e-01    -8.850518154842637e-01   
4.074000000000000e+09    4.743553225355365e-01    -8.858918431971542e-01   
4.075000000000000e+09    4.738605219370571e-01    -8.868405365968228e-01   
4.076000000000000e+09    4.730484465784628e-01    -8.874541976098460e-01   
4.077000000000000e+09    4.724581170110856e-01    -8.883100080503189e-01   
4.078000000000000e+09    4.717952013960846e-01    -8.888362405120215e-01   
4.079000000000000e+09    4.711253252013589e-01    -8.897838845531998e-01   
4.080000000000000e+09    4.707777762622443e-01    -8.902757175537273e-01   
4.081000000000000e+09    4.699551314246206e-01    -8.911899046339562e-01   
4.082000000000000e+09    4.696429432663654e-01    -8.913934176596757e-01   
4.083000000000000e+09    4.688011301145530e-01    -8.922669748596601e-01   
4.084000000000000e+09    4.683730241979014e-01    -8.927215835336655e-01   
4.085000000000000e+09    4.675799876329346e-01    -8.932347294665186e-01   
4.086000000000000e+09    4.670693584017692e-01    -8.936211027720833e-01   
4.087000000000000e+09    4.664681132673786e-01    -8.943833527642512e-01   
4.088000000000000e+09    4.652626862583946e-01    -8.950978013585719e-01   
4.089000000000000e+09    4.644258877299552e-01    -8.955352728884368e-01   
4.090000000000000e+09    4.640874499342093e-01    -8.961961885312917e-01   
4.091000000000000e+09    4.632563815048426e-01    -8.963936036726962e-01   
4.092000000000000e+09    4.626666428310006e-01    -8.970966157490852e-01   
4.093000000000000e+09    4.619358646709202e-01    -8.970841555641488e-01   
4.094000000000000e+09    4.609953003078407e-01    -8.974401087238872e-01   
4.095000000000000e+09    4.599713734079229e-01    -8.984066927123614e-01   
4.096000000000000e+09    4.592189131692581e-01    -8.983123217963047e-01   
4.097000000000000e+09    4.584603828408209e-01    -8.987563151701794e-01   
4.098000000000000e+09    4.574732192192008e-01    -8.993110059329971e-01   
4.099000000000000e+09    4.565737657346171e-01    -8.994126523465847e-01   
4.100000000000000e+09    4.559157129147405e-01    -9.000057425197652e-01   
4.101000000000000e+09    4.547201823315182e-01    -9.002492577081800e-01   
4.102000000000000e+09    4.537499068685988e-01    -9.001757662958718e-01   
4.103000000000000e+09    4.534280280310549e-01    -9.003798665664823e-01   
4.104000000000000e+09    4.521744766336895e-01    -9.003400800343057e-01   
4.105000000000000e+09    4.509996327993401e-01    -9.010020522117546e-01   
4.106000000000000e+09    4.499398290046123e-01    -9.010352270191707e-01   
4.107000000000000e+09    4.489702455106626e-01    -9.008224313166777e-01   
4.108000000000000e+09    4.477715929933035e-01    -9.014542733148697e-01   
4.109000000000000e+09    4.469619204926210e-01    -9.014329262747525e-01   
4.110000000000000e+09    4.456451918597588e-01    -9.016507423433603e-01   
4.111000000000000e+09    4.447913288485544e-01    -9.015386976463886e-01   
4.112000000000000e+09    4.437193210555690e-01    -9.017776406498500e-01   
4.113000000000000e+09    4.423644867658701e-01    -9.018996905272314e-01   
4.114000000000000e+09    4.410221757757587e-01    -9.019760506366140e-01   
4.115000000000000e+09    4.396673554002715e-01    -9.019854945002950e-01   
4.116000000000000e+09    4.385194779963927e-01    -9.020074134527009e-01   
4.117000000000000e+09    4.373343701044548e-01    -9.024029857578446e-01   
4.118000000000000e+09    4.358873330274191e-01    -9.024170415521323e-01   
4.119000000000000e+09    4.344575835124182e-01    -9.025430465628409e-01   
4.120000000000000e+09    4.329667708915001e-01    -9.027323754079113e-01   
4.121000000000000e+09    4.316419006556324e-01    -9.028060600979639e-01   
4.122000000000000e+09    4.298183885077314e-01    -9.028193857545754e-01   
4.123000000000000e+09    4.286392260786296e-01    -9.029980938919211e-01   
4.124000000000000e+09    4.266291825410597e-01    -9.034564829908084e-01   
4.125000000000000e+09    4.251754932657365e-01    -9.037743710059661e-01   
4.126000000000000e+09    4.234690857266421e-01    -9.042135837089158e-01   
4.127000000000000e+09    4.219637510311536e-01    -9.041967212582778e-01   
4.128000000000000e+09    4.201407998841375e-01    -9.045550356323419e-01   
4.129000000000000e+09    4.183778983890468e-01    -9.053244797128671e-01   
4.130000000000000e+09    4.168557485878024e-01    -9.056469158716896e-01   
4.131000000000000e+09    4.152498477179081e-01    -9.064638473420950e-01   
4.132000000000000e+09    4.137683566179240e-01    -9.070697513153879e-01   
4.133000000000000e+09    4.119273320598113e-01    -9.075325573779270e-01   
4.134000000000000e+09    4.103423001158079e-01    -9.081435918884773e-01   
4.135000000000000e+09    4.085728842976951e-01    -9.087111241315886e-01   
4.136000000000000e+09    4.069705543222512e-01    -9.093616737825692e-01   
4.137000000000000e+09    4.053492244359029e-01    -9.102026780640757e-01   
4.138000000000000e+09    4.037428055712631e-01    -9.109583115996083e-01   
4.139000000000000e+09    4.017225721351351e-01    -9.117795655233795e-01   
4.140000000000000e+09    4.004919206819857e-01    -9.122533270047369e-01   
4.141000000000000e+09    3.990173351405368e-01    -9.134598681848433e-01   
4.142000000000000e+09    3.977450638546833e-01    -9.140604736321697e-01   
4.143000000000000e+09    3.961560790037768e-01    -9.150547147616181e-01   
4.144000000000000e+09    3.944784013129708e-01    -9.161213091485298e-01   
4.145000000000000e+09    3.935256363095584e-01    -9.167558534142101e-01   
4.146000000000000e+09    3.915734106058412e-01    -9.175716723394323e-01   
4.147000000000000e+09    3.903658565795803e-01    -9.184025414821773e-01   
4.148000000000000e+09    3.891929158875116e-01    -9.194657656224279e-01   
4.149000000000000e+09    3.880256350490023e-01    -9.202923438254633e-01   
4.150000000000000e+09    3.866299317272618e-01    -9.212346233286636e-01   
4.151000000000000e+09    3.853438906790263e-01    -9.219807795295754e-01   
4.152000000000000e+09    3.839822364877733e-01    -9.230073707792665e-01   
4.153000000000000e+09    3.823741859855654e-01    -9.241033145665660e-01   
4.154000000000000e+09    3.812856476222055e-01    -9.250558183288629e-01   
4.155000000000000e+09    3.801097200547662e-01    -9.258617773851516e-01   
4.156000000000000e+09    3.791979399104282e-01    -9.266662263458453e-01   
4.157000000000000e+09    3.780146850900271e-01    -9.278148548593791e-01   
4.158000000000000e+09    3.766980588100479e-01    -9.285153084422318e-01   
4.159000000000000e+09    3.757797630287346e-01    -9.291757361208144e-01   
4.160000000000000e+09    3.749463438955281e-01    -9.302170317519990e-01   
4.161000000000000e+09    3.737276117425726e-01    -9.310278524710991e-01   
4.162000000000000e+09    3.729098431406238e-01    -9.316820896829816e-01   
4.163000000000000e+09    3.721438282569638e-01    -9.324021602867687e-01   
4.164000000000000e+09    3.707719333599725e-01    -9.331848870474111e-01   
4.165000000000000e+09    3.696707049040993e-01    -9.338008388905751e-01   
4.166000000000000e+09    3.688280353201995e-01    -9.347641759188460e-01   
4.167000000000000e+09    3.681139817308141e-01    -9.351893107294782e-01   
4.168000000000000e+09    3.668686869212239e-01    -9.359287445632891e-01   
4.169000000000000e+09    3.661563784433908e-01    -9.367705665820575e-01   
4.170000000000000e+09    3.652633133524557e-01    -9.371481424712653e-01   
4.171000000000000e+09    3.643006888883902e-01    -9.377367563080212e-01   
4.172000000000000e+09    3.633183992797834e-01    -9.386480350110834e-01   
4.173000000000000e+09    3.624274456350978e-01    -9.389202420948435e-01   
4.174000000000000e+09    3.617456503801658e-01    -9.391952899651218e-01   
4.175000000000000e+09    3.607615067817704e-01    -9.398803555112337e-01   
4.176000000000000e+09    3.596542007903713e-01    -9.404917370300223e-01   
4.177000000000000e+09    3.587530288303218e-01    -9.406033932617737e-01   
4.178000000000000e+09    3.584536750313691e-01    -9.412037230603779e-01   
4.179000000000000e+09    3.576278926937850e-01    -9.414303794410515e-01   
4.180000000000000e+09    3.567138252338591e-01    -9.420585468357487e-01   
4.181000000000000e+09    3.562372578657463e-01    -9.421011083995201e-01   
4.182000000000000e+09    3.551640420969990e-01    -9.425199196704950e-01   
4.183000000000000e+09    3.547334977186506e-01    -9.428202816693929e-01   
4.184000000000000e+09    3.539353736795794e-01    -9.427157949520398e-01   
4.185000000000000e+09    3.533284140032834e-01    -9.429410067438805e-01   
4.186000000000000e+09    3.525157314988587e-01    -9.434764832972454e-01   
4.187000000000000e+09    3.517635521760458e-01    -9.433963130189016e-01   
4.188000000000000e+09    3.513836608675935e-01    -9.435546746633732e-01   
4.189000000000000e+09    3.508172923595377e-01    -9.440242351613006e-01   
4.190000000000000e+09    3.499713347397628e-01    -9.441008616505066e-01   
4.191000000000000e+09    3.493644509918590e-01    -9.438436555994616e-01   
4.192000000000000e+09    3.488308226689047e-01    -9.441437353957575e-01   
4.193000000000000e+09    3.482454796937732e-01    -9.442259022466429e-01   
4.194000000000000e+09    3.473977878421689e-01    -9.441433287436874e-01   
4.195000000000000e+09    3.467675609597873e-01    -9.442968221801695e-01   
4.196000000000000e+09    3.458262563866185e-01    -9.443547891610005e-01   
4.197000000000000e+09    3.453970403224575e-01    -9.440950563952993e-01   
4.198000000000000e+09    3.449701790234243e-01    -9.442244601463592e-01   
4.199000000000000e+09    3.436919354855260e-01    -9.440859952855517e-01   
4.200000000000000e+09    3.433580901811923e-01    -9.441501080596066e-01   
4.201000000000000e+09    3.415733007421877e-01    -9.462188885457739e-01   
4.202000000000000e+09    3.406299867154750e-01    -9.464145839445240e-01   
4.203000000000000e+09    3.403250620856325e-01    -9.463529219999419e-01   
4.204000000000000e+09    3.393301609797362e-01    -9.459088652036765e-01   
4.205000000000000e+09    3.385626385718789e-01    -9.457920530010747e-01   
4.206000000000000e+09    3.377728658987650e-01    -9.458539233015060e-01   
4.207000000000000e+09    3.368112068936941e-01    -9.455734442552648e-01   
4.208000000000000e+09    3.357097327183829e-01    -9.456647464790370e-01   
4.209000000000000e+09    3.350695199287420e-01    -9.456433720552085e-01   
4.210000000000000e+09    3.341475530216012e-01    -9.458544507104770e-01   
4.211000000000000e+09    3.330215762045418e-01    -9.459286027586175e-01   
4.212000000000000e+09    3.319860689762393e-01    -9.459651678932528e-01   
4.213000000000000e+09    3.310696275022393e-01    -9.459883892808733e-01   
4.214000000000000e+09    3.299125664030275e-01    -9.457588378628271e-01   
4.215000000000000e+09    3.288615134006199e-01    -9.461812168515696e-01   
4.216000000000000e+09    3.277275657183538e-01    -9.460564978057493e-01   
4.217000000000000e+09    3.264585453418596e-01    -9.465599956110580e-01   
4.218000000000000e+09    3.253127728911948e-01    -9.468753611907372e-01   
4.219000000000000e+09    3.239077377464534e-01    -9.467922441403454e-01   
4.220000000000000e+09    3.228426732727277e-01    -9.475188146108900e-01   
4.221000000000000e+09    3.215467058257943e-01    -9.477868933861628e-01   
4.222000000000000e+09    3.203045509877754e-01    -9.480680263085144e-01   
4.223000000000000e+09    3.188726928581044e-01    -9.484796113156737e-01   
4.224000000000000e+09    3.176058014445567e-01    -9.486980476129624e-01   
4.225000000000000e+09    3.162916687117859e-01    -9.489947050645559e-01   
4.226000000000000e+09    3.151606170420772e-01    -9.495444826082392e-01   
4.227000000000000e+09    3.136313346908257e-01    -9.500622041234532e-01   
4.228000000000000e+09    3.122157900672162e-01    -9.505992281396558e-01   
4.229000000000000e+09    3.108575135518860e-01    -9.509966102997854e-01   
4.230000000000000e+09    3.095726043056967e-01    -9.515917636562028e-01   
4.231000000000000e+09    3.079091219110206e-01    -9.520869103994467e-01   
4.232000000000000e+09    3.071001673924860e-01    -9.523303045371317e-01   
4.233000000000000e+09    3.055826668761190e-01    -9.529287984379501e-01   
4.234000000000000e+09    3.042282628149351e-01    -9.533922644864364e-01   
4.235000000000000e+09    3.026885707387707e-01    -9.539493241641503e-01   
4.236000000000000e+09    3.011695350304543e-01    -9.545142452866644e-01   
4.237000000000000e+09    2.998622752289679e-01    -9.550300164040642e-01   
4.238000000000000e+09    2.985165498374761e-01    -9.556997877836988e-01   
4.239000000000000e+09    2.969736682540154e-01    -9.561391689132406e-01   
4.240000000000000e+09    2.954761950683715e-01    -9.565452615128797e-01   
4.241000000000000e+09    2.938651881462682e-01    -9.567922730152015e-01   
4.242000000000000e+09    2.920374642300446e-01    -9.576125423296205e-01   
4.243000000000000e+09    2.909462661697084e-01    -9.580732104501667e-01   
4.244000000000000e+09    2.890875582606954e-01    -9.582921640168177e-01   
4.245000000000000e+09    2.878143131823955e-01    -9.590830717741272e-01   
4.246000000000000e+09    2.860926237216895e-01    -9.593314310702278e-01   
4.247000000000000e+09    2.849493870162313e-01    -9.597852794538045e-01   
4.248000000000000e+09    2.828892776324546e-01    -9.601865232193674e-01   
4.249000000000000e+09    2.815095128400343e-01    -9.609238696416599e-01   
4.250000000000000e+09    2.797576097237393e-01    -9.610844283139653e-01   
4.251000000000000e+09    2.780148121681295e-01    -9.619825013423889e-01   
4.252000000000000e+09    2.762666506245149e-01    -9.623051464337061e-01   
4.253000000000000e+09    2.744296326038649e-01    -9.628129748821610e-01   
4.254000000000000e+09    2.725629442697975e-01    -9.631419549695751e-01   
4.255000000000000e+09    2.710953114553061e-01    -9.636464645737353e-01   
4.256000000000000e+09    2.693803821073115e-01    -9.644185952285901e-01   
