[Version] 2.0
! Rohde & Schwarz Vector Network Analyzer
! Rohde-Schwarz,ZNL20-2Port,1323001220200009,1.71.1.10-23.02.1.238
! 
! Port Assignments:
! Nominal Port -> Actual Test Port
! --------------------------------
!   1 -> 1

! Created: GMT+2 2025-01-17 12:46:47

# Hz S RI R 50

[Number of Ports] 1
[Number of Frequencies] 16001

[Network Data] 
! freq[Hz]               S11[Re]                  S11[Im]                  
4.000000000000000e+09    5.562475032264650e-01    -8.367944466389488e-01   
4.001000000000000e+09    5.547874851128873e-01    -8.375308675715587e-01   
4.002000000000000e+09    5.537390177543398e-01    -8.380864490616079e-01   
4.003000000000000e+09    5.522658949963226e-01    -8.389487429600555e-01   
4.004000000000000e+09    5.510492771810862e-01    -8.402049523369893e-01   
4.005000000000000e+09    5.497584051080336e-01    -8.410984930474656e-01   
4.006000000000000e+09    5.487223492332279e-01    -8.416851911370052e-01   
4.007000000000000e+09    5.472621103723092e-01    -8.422218879073239e-01   
4.008000000000000e+09    5.462950932303099e-01    -8.435768863819578e-01   
4.009000000000000e+09    5.450099072928055e-01    -8.442719745637818e-01   
4.010000000000000e+09    5.440357687094743e-01    -8.452877640188562e-01   
4.011000000000000e+09    5.422904228146338e-01    -8.457308551133437e-01   
4.012000000000000e+09    5.413244173164434e-01    -8.469209636659660e-01   
4.013000000000000e+09    5.397816582381026e-01    -8.470026457716218e-01   
4.014000000000000e+09    5.386609912088237e-01    -8.480909936396727e-01   
4.015000000000000e+09    5.374665658773923e-01    -8.483964804042309e-01   
4.016000000000000e+09    5.364698401592632e-01    -8.493166018968233e-01   
4.017000000000000e+09    5.352270848414504e-01    -8.498667257667561e-01   
4.018000000000000e+09    5.334012138464428e-01    -8.505342906856584e-01   
4.019000000000000e+09    5.323425783347450e-01    -8.507704481446184e-01   
4.020000000000000e+09    5.307784996770556e-01    -8.512078566120040e-01   
4.021000000000000e+09    5.296470668559901e-01    -8.522739943642144e-01   
4.022000000000000e+09    5.281935499674499e-01    -8.527633249356158e-01   
4.023000000000000e+09    5.271751762081412e-01    -8.531248715155250e-01   
4.024000000000000e+09    5.258874440096000e-01    -8.536137661825591e-01   
4.025000000000000e+09    5.244410657269164e-01    -8.541144118863668e-01   
4.026000000000000e+09    5.232681651610526e-01    -8.546184357626705e-01   
4.027000000000000e+09    5.222510455538402e-01    -8.549626065160784e-01   
4.028000000000000e+09    5.208048896662240e-01    -8.553614955204485e-01   
4.029000000000000e+09    5.194848738118677e-01    -8.558937876409526e-01   
4.030000000000000e+09    5.181229305492160e-01    -8.560137894286010e-01   
4.031000000000000e+09    5.169623595199456e-01    -8.565275499371817e-01   
4.032000000000000e+09    5.154791379841568e-01    -8.569683871758297e-01   
4.033000000000000e+09    5.137063053529534e-01    -8.573148202450622e-01   
4.034000000000000e+09    5.127379586066616e-01    -8.581305064099257e-01   
4.035000000000000e+09    5.111054962701858e-01    -8.581936772312520e-01   
4.036000000000000e+09    5.100497801183564e-01    -8.587047180681032e-01   
4.037000000000000e+09    5.084255323808163e-01    -8.591042219393215e-01   
4.038000000000000e+09    5.071755270396735e-01    -8.596538270529180e-01   
4.039000000000000e+09    5.059984000257701e-01    -8.603351325672453e-01   
4.040000000000000e+09    5.043789325668636e-01    -8.606620324621058e-01   
4.041000000000000e+09    5.031909721817964e-01    -8.614276599571143e-01   
4.042000000000000e+09    5.016420178059628e-01    -8.620548872286310e-01   
4.043000000000000e+09    5.004262919750618e-01    -8.625407701268479e-01   
4.044000000000000e+09    4.991416038557696e-01    -8.629594818392436e-01   
4.045000000000000e+09    4.981380518035491e-01    -8.636463607527048e-01   
4.046000000000000e+09    4.967641515678977e-01    -8.645046133597684e-01   
4.047000000000000e+09    4.955156790382844e-01    -8.653627416394869e-01   
4.048000000000000e+09    4.943356484640597e-01    -8.661653951422212e-01   
4.049000000000000e+09    4.930804202911614e-01    -8.666280498261544e-01   
4.050000000000000e+09    4.922253304110719e-01    -8.675142697626614e-01   
4.051000000000000e+09    4.912835296287448e-01    -8.683982773393361e-01   
4.052000000000000e+09    4.902123854439306e-01    -8.693525941822348e-01   
4.053000000000000e+09    4.891138891951053e-01    -8.698041008385566e-01   
4.054000000000000e+09    4.879621988994813e-01    -8.706473313953491e-01   
4.055000000000000e+09    4.873860420277766e-01    -8.713451539911972e-01   
4.056000000000000e+09    4.862084091843784e-01    -8.724770895131746e-01   
4.057000000000000e+09    4.855867791955888e-01    -8.730741463749726e-01   
4.058000000000000e+09    4.842960011006118e-01    -8.737694884342155e-01   
4.059000000000000e+09    4.837390411543107e-01    -8.750978589888844e-01   
4.060000000000000e+09    4.827854746435589e-01    -8.756253441626809e-01   
4.061000000000000e+09    4.822027915947465e-01    -8.763876124446535e-01   
4.062000000000000e+09    4.816095895449883e-01    -8.769347761286758e-01   
4.063000000000000e+09    4.808792904661748e-01    -8.779608823269430e-01   
4.064000000000000e+09    4.799490891902745e-01    -8.782969006344092e-01   
4.065000000000000e+09    4.796873035849066e-01    -8.796178850019566e-01   
4.066000000000000e+09    4.790855691646312e-01    -8.802129519135221e-01   
4.067000000000000e+09    4.783355969426626e-01    -8.810666620929422e-01   
4.068000000000000e+09    4.777519201174857e-01    -8.819049182415436e-01   
4.069000000000000e+09    4.771686076544294e-01    -8.828363790272969e-01   
4.070000000000000e+09    4.763066145775587e-01    -8.830366494631565e-01   
4.071000000000000e+09    4.759862878605888e-01    -8.839742119727579e-01   
4.072000000000000e+09    4.752685427031307e-01    -8.848269699135290e-01   
4.073000000000000e+09    4.744329022345444e-01    -8.850652649191859e-01   
4.074000000000000e+09    4.739955305122649e-01    -8.861925581576717e-01   
4.075000000000000e+09    4.735880944399278e-01    -8.869392820781611e-01   
4.076000000000000e+09    4.730005604513899e-01    -8.874515637010600e-01   
4.077000000000000e+09    4.724418860675714e-01    -8.881508459274765e-01   
4.078000000000000e+09    4.721239322571674e-01    -8.890902394961320e-01   
4.079000000000000e+09    4.712462474837481e-01    -8.898993516609502e-01   
4.080000000000000e+09    4.707528202348460e-01    -8.903145978487423e-01   
4.081000000000000e+09    4.702442742364610e-01    -8.907152370647948e-01   
4.082000000000000e+09    4.696839763868016e-01    -8.912371003174965e-01   
4.083000000000000e+09    4.689017635138447e-01    -8.924453328110308e-01   
4.084000000000000e+09    4.682319839505946e-01    -8.927454883400824e-01   
4.085000000000000e+09    4.675017857213431e-01    -8.934450647583133e-01   
4.086000000000000e+09    4.668162539413228e-01    -8.936710927513927e-01   
4.087000000000000e+09    4.661147371846258e-01    -8.946256536606361e-01   
4.088000000000000e+09    4.656827774418755e-01    -8.949332277833298e-01   
4.089000000000000e+09    4.646449970048256e-01    -8.957251240009574e-01   
4.090000000000000e+09    4.639778555995087e-01    -8.961815749852690e-01   
4.091000000000000e+09    4.631661286153033e-01    -8.963932420412419e-01   
4.092000000000000e+09    4.626877360215681e-01    -8.971973706172728e-01   
4.093000000000000e+09    4.617501300762127e-01    -8.974042166345678e-01   
4.094000000000000e+09    4.610444056357417e-01    -8.977281295288230e-01   
4.095000000000000e+09    4.603517674911039e-01    -8.980035941123291e-01   
4.096000000000000e+09    4.589742452540895e-01    -8.985919699423093e-01   
4.097000000000000e+09    4.585926345963928e-01    -8.989873988688427e-01   
4.098000000000000e+09    4.575858424949474e-01    -8.992155175780659e-01   
4.099000000000000e+09    4.567440251270936e-01    -8.997117399734752e-01   
4.100000000000000e+09    4.558052462815818e-01    -8.998042134389875e-01   
4.101000000000000e+09    4.547966082099145e-01    -9.000480065723907e-01   
4.102000000000000e+09    4.539089176218474e-01    -9.001027635456357e-01   
4.103000000000000e+09    4.530315816516689e-01    -9.006404393367612e-01   
4.104000000000000e+09    4.519399049119734e-01    -9.006903343397535e-01   
4.105000000000000e+09    4.510133749809001e-01    -9.007670741287018e-01   
4.106000000000000e+09    4.503206254252606e-01    -9.008531211056328e-01   
4.107000000000000e+09    4.493243752976610e-01    -9.010009900100817e-01   
4.108000000000000e+09    4.477696035602467e-01    -9.014926177015342e-01   
4.109000000000000e+09    4.468430491427349e-01    -9.019185317391855e-01   
4.110000000000000e+09    4.458678740750646e-01    -9.013977311180207e-01   
4.111000000000000e+09    4.446903353300640e-01    -9.016520965079373e-01   
4.112000000000000e+09    4.435894383649125e-01    -9.019305520018673e-01   
4.113000000000000e+09    4.424848175690129e-01    -9.020252451163659e-01   
4.114000000000000e+09    4.409743565100238e-01    -9.020487688932146e-01   
4.115000000000000e+09    4.397988742684928e-01    -9.023134346423652e-01   
4.116000000000000e+09    4.386553539219952e-01    -9.021692228520750e-01   
4.117000000000000e+09    4.372265057232550e-01    -9.024247771562502e-01   
4.118000000000000e+09    4.358433694203421e-01    -9.022373225465761e-01   
4.119000000000000e+09    4.343814722853644e-01    -9.024712644439082e-01   
4.120000000000000e+09    4.329372725919866e-01    -9.024932295230085e-01   
4.121000000000000e+09    4.315442033356969e-01    -9.028964733207953e-01   
4.122000000000000e+09    4.298972992904004e-01    -9.028507932419364e-01   
4.123000000000000e+09    4.284702711166312e-01    -9.033223548455087e-01   
4.124000000000000e+09    4.268536991804946e-01    -9.034071172399291e-01   
4.125000000000000e+09    4.250697890685561e-01    -9.039698372896054e-01   
4.126000000000000e+09    4.234543188223314e-01    -9.039162734858629e-01   
4.127000000000000e+09    4.218547316947359e-01    -9.044578515846644e-01   
4.128000000000000e+09    4.200151064035933e-01    -9.048732121793152e-01   
4.129000000000000e+09    4.185539748425393e-01    -9.054643479068116e-01   
4.130000000000000e+09    4.170477801060680e-01    -9.057638217186561e-01   
4.131000000000000e+09    4.154289406510938e-01    -9.064205984096750e-01   
4.132000000000000e+09    4.135619180174768e-01    -9.071735352957958e-01   
4.133000000000000e+09    4.117817014786895e-01    -9.076018577880871e-01   
4.134000000000000e+09    4.104244639654043e-01    -9.082259237312084e-01   
4.135000000000000e+09    4.083441234130846e-01    -9.090034384734486e-01   
4.136000000000000e+09    4.069041061150524e-01    -9.092639428188386e-01   
4.137000000000000e+09    4.052265341499253e-01    -9.102665873366762e-01   
4.138000000000000e+09    4.036572620226049e-01    -9.105125376671706e-01   
4.139000000000000e+09    4.022778429199543e-01    -9.115987244846713e-01   
4.140000000000000e+09    4.004296631185709e-01    -9.125002327147534e-01   
4.141000000000000e+09    3.990049994055603e-01    -9.134722825877248e-01   
4.142000000000000e+09    3.974811219308930e-01    -9.143090234140306e-01   
4.143000000000000e+09    3.961614660311161e-01    -9.152628255411097e-01   
4.144000000000000e+09    3.945202484220651e-01    -9.160635791097061e-01   
4.145000000000000e+09    3.931926150604249e-01    -9.166111697226359e-01   
4.146000000000000e+09    3.916983110586663e-01    -9.175491120054353e-01   
4.147000000000000e+09    3.904553883118012e-01    -9.183956823393575e-01   
4.148000000000000e+09    3.890320489251880e-01    -9.196389401599135e-01   
4.149000000000000e+09    3.876801124164229e-01    -9.202853998354350e-01   
4.150000000000000e+09    3.864961665022986e-01    -9.213102517936447e-01   
4.151000000000000e+09    3.853291526069849e-01    -9.219833473723209e-01   
4.152000000000000e+09    3.841502768839806e-01    -9.231279925275059e-01   
4.153000000000000e+09    3.825404438072817e-01    -9.244327378782189e-01   
4.154000000000000e+09    3.812838128753109e-01    -9.253978099492278e-01   
4.155000000000000e+09    3.801259850005260e-01    -9.259698467423714e-01   
4.156000000000000e+09    3.793451023175904e-01    -9.269027759017713e-01   
4.157000000000000e+09    3.781217873399790e-01    -9.278378343650276e-01   
4.158000000000000e+09    3.769940400216329e-01    -9.283805599867569e-01   
4.159000000000000e+09    3.754434772607918e-01    -9.293048399369805e-01   
4.160000000000000e+09    3.747855929774818e-01    -9.302909883250564e-01   
4.161000000000000e+09    3.739682986413783e-01    -9.308033200191491e-01   
4.162000000000000e+09    3.727435031669838e-01    -9.317947027074254e-01   
4.163000000000000e+09    3.716920332203296e-01    -9.323007721648745e-01   
4.164000000000000e+09    3.706934519144299e-01    -9.333762655341823e-01   
4.165000000000000e+09    3.696080595861387e-01    -9.340345827722990e-01   
4.166000000000000e+09    3.685580252381590e-01    -9.344792406825357e-01   
4.167000000000000e+09    3.681204348682772e-01    -9.350933744450980e-01   
4.168000000000000e+09    3.670691176788543e-01    -9.357898091772268e-01   
4.169000000000000e+09    3.657118060219078e-01    -9.365966494816163e-01   
4.170000000000000e+09    3.655295967010118e-01    -9.370759638835159e-01   
4.171000000000000e+09    3.640725923747422e-01    -9.376605445504744e-01   
4.172000000000000e+09    3.632765048695357e-01    -9.386026477019526e-01   
4.173000000000000e+09    3.625477715232082e-01    -9.391100340366692e-01   
4.174000000000000e+09    3.615591410478931e-01    -9.391052738216866e-01   
4.175000000000000e+09    3.609419365034597e-01    -9.396756020041046e-01   
4.176000000000000e+09    3.600894649575194e-01    -9.405900864172161e-01   
4.177000000000000e+09    3.591275782585459e-01    -9.408219331909747e-01   
4.178000000000000e+09    3.584268881046516e-01    -9.411914559903979e-01   
4.179000000000000e+09    3.576817756533080e-01    -9.415297563893787e-01   
4.180000000000000e+09    3.566745850298492e-01    -9.422148552206943e-01   
4.181000000000000e+09    3.561485956248130e-01    -9.418288630906364e-01   
4.182000000000000e+09    3.552487077682855e-01    -9.423113984807705e-01   
4.183000000000000e+09    3.546284340648402e-01    -9.426773729514586e-01   
4.184000000000000e+09    3.539214691990605e-01    -9.431487508109002e-01   
4.185000000000000e+09    3.533282960675134e-01    -9.430250089725245e-01   
4.186000000000000e+09    3.527427778986259e-01    -9.434997243528541e-01   
4.187000000000000e+09    3.519883268521815e-01    -9.435217228140114e-01   
4.188000000000000e+09    3.514125643085511e-01    -9.432528880815056e-01   
4.189000000000000e+09    3.505159593632415e-01    -9.436238018334665e-01   
4.190000000000000e+09    3.499654274407518e-01    -9.438793867065582e-01   
4.191000000000000e+09    3.492695240025502e-01    -9.441600970429548e-01   
4.192000000000000e+09    3.488804766651211e-01    -9.441445526198268e-01   
4.193000000000000e+09    3.478370279737791e-01    -9.442851587186762e-01   
4.194000000000000e+09    3.472052087930391e-01    -9.440133940220630e-01   
4.195000000000000e+09    3.464474246652047e-01    -9.442650396225077e-01   
4.196000000000000e+09    3.462892013471281e-01    -9.442679008752020e-01   
4.197000000000000e+09    3.453320966056000e-01    -9.441647489246230e-01   
4.198000000000000e+09    3.449996231558903e-01    -9.440657508308089e-01   
4.199000000000000e+09    3.441693705555819e-01    -9.443383905844773e-01   
4.200000000000000e+09    3.434152691525140e-01    -9.442176135395096e-01   
4.201000000000000e+09    3.412879042196755e-01    -9.461778985778526e-01   
4.202000000000000e+09    3.408080604809147e-01    -9.461921296029595e-01   
4.203000000000000e+09    3.402189070423868e-01    -9.461574666156739e-01   
4.204000000000000e+09    3.394538300592783e-01    -9.461828263249976e-01   
4.205000000000000e+09    3.385378035649755e-01    -9.458730509110377e-01   
4.206000000000000e+09    3.376292818872677e-01    -9.459966631247241e-01   
4.207000000000000e+09    3.370112475744011e-01    -9.457020906145477e-01   
4.208000000000000e+09    3.359552178577244e-01    -9.455283586591382e-01   
4.209000000000000e+09    3.350425084170858e-01    -9.458522953576713e-01   
4.210000000000000e+09    3.342391667999167e-01    -9.458027830823048e-01   
4.211000000000000e+09    3.334417739300469e-01    -9.459155755463351e-01   
4.212000000000000e+09    3.321569057090392e-01    -9.460894380569137e-01   
4.213000000000000e+09    3.312686184066442e-01    -9.460724958078376e-01   
4.214000000000000e+09    3.298807286454518e-01    -9.459376774078611e-01   
4.215000000000000e+09    3.288538322643417e-01    -9.462208728194060e-01   
4.216000000000000e+09    3.276238578178619e-01    -9.465395004053566e-01   
4.217000000000000e+09    3.261762693520245e-01    -9.464071440274209e-01   
4.218000000000000e+09    3.251739668528868e-01    -9.467107197288023e-01   
4.219000000000000e+09    3.237049808149772e-01    -9.469419938099733e-01   
4.220000000000000e+09    3.227692893102799e-01    -9.475742519223729e-01   
4.221000000000000e+09    3.216268534807394e-01    -9.475247582456325e-01   
4.222000000000000e+09    3.202049226688126e-01    -9.479611860685137e-01   
4.223000000000000e+09    3.189867955901848e-01    -9.483135218610363e-01   
4.224000000000000e+09    3.177140123884800e-01    -9.488395563360564e-01   
4.225000000000000e+09    3.163411290301851e-01    -9.491461644503986e-01   
4.226000000000000e+09    3.152122203072568e-01    -9.496803382293311e-01   
4.227000000000000e+09    3.135011638821705e-01    -9.501403006838225e-01   
4.228000000000000e+09    3.125132845521152e-01    -9.506462952716356e-01   
4.229000000000000e+09    3.108141447828874e-01    -9.510432549473244e-01   
4.230000000000000e+09    3.097129475917653e-01    -9.515488114672545e-01   
4.231000000000000e+09    3.079109353399144e-01    -9.521087893219087e-01   
4.232000000000000e+09    3.069451588111435e-01    -9.526460563647227e-01   
4.233000000000000e+09    3.054757192967987e-01    -9.529606778747873e-01   
4.234000000000000e+09    3.037039940982809e-01    -9.534800781663927e-01   
4.235000000000000e+09    3.025724933969157e-01    -9.543503583983359e-01   
4.236000000000000e+09    3.010721518786069e-01    -9.545939618926693e-01   
4.237000000000000e+09    2.998490383602855e-01    -9.550698115813187e-01   
4.238000000000000e+09    2.983940435444976e-01    -9.555317632645869e-01   
4.239000000000000e+09    2.970341404876482e-01    -9.562691146366172e-01   
4.240000000000000e+09    2.953571918016806e-01    -9.567508628202686e-01   
4.241000000000000e+09    2.938429712232783e-01    -9.570130729798298e-01   
4.242000000000000e+09    2.923080104219482e-01    -9.574237722889438e-01   
4.243000000000000e+09    2.908556000655884e-01    -9.581120732438829e-01   
4.244000000000000e+09    2.890294210500899e-01    -9.582072971590845e-01   
4.245000000000000e+09    2.874971600798195e-01    -9.591365258214408e-01   
4.246000000000000e+09    2.860507043926653e-01    -9.595071755419052e-01   
4.247000000000000e+09    2.844455239830991e-01    -9.601719177914902e-01   
4.248000000000000e+09    2.830808614063189e-01    -9.604241042079823e-01   
4.249000000000000e+09    2.812210230046803e-01    -9.608226574004012e-01   
4.250000000000000e+09    2.796940311682219e-01    -9.613188098157321e-01   
4.251000000000000e+09    2.778008019513107e-01    -9.617435157107657e-01   
4.252000000000000e+09    2.763103070669635e-01    -9.624308665011526e-01   
4.253000000000000e+09    2.745269210709246e-01    -9.627452697115445e-01   
4.254000000000000e+09    2.728160914264549e-01    -9.630707820746796e-01   
4.255000000000000e+09    2.708861443841410e-01    -9.635457395020331e-01   
4.256000000000000e+09    2.696520383467286e-01    -9.643024914523096e-01   
