[Version] 2.0
! Rohde & Schwarz Vector Network Analyzer
! Rohde-Schwarz,ZNL20-2Port,1323001220200009,1.71.1.10-23.02.1.238
! 
! Port Assignments:
! Nominal Port -> Actual Test Port
! --------------------------------
!   1 -> 1

! Created: GMT+2 2025-01-17 12:41:13

# Hz S RI R 50

[Number of Ports] 1
[Number of Frequencies] 16001

[Network Data] 
! freq[Hz]               S11[Re]                  S11[Im]                  
4.000000000000000e+09    5.570115071636342e-01    -8.361672582248140e-01   
4.001000000000000e+09    5.553724807990500e-01    -8.372016257239995e-01   
4.002000000000000e+09    5.541698487398576e-01    -8.376029172840486e-01   
4.003000000000000e+09    5.525766884843040e-01    -8.386104970849838e-01   
4.004000000000000e+09    5.520587841236569e-01    -8.394311358694505e-01   
4.005000000000000e+09    5.503845632072144e-01    -8.406078482809008e-01   
4.006000000000000e+09    5.493392827615977e-01    -8.411495834881942e-01   
4.007000000000000e+09    5.481792826425699e-01    -8.417804319658726e-01   
4.008000000000000e+09    5.471429316447577e-01    -8.429257537196052e-01   
4.009000000000000e+09    5.459544141722410e-01    -8.432135507787273e-01   
4.010000000000000e+09    5.446181330872411e-01    -8.443345332182811e-01   
4.011000000000000e+09    5.431742152727755e-01    -8.451452495076149e-01   
4.012000000000000e+09    5.419548236704930e-01    -8.457187479942703e-01   
4.013000000000000e+09    5.408306787553430e-01    -8.465864437770234e-01   
4.014000000000000e+09    5.393151289650240e-01    -8.473328706689169e-01   
4.015000000000000e+09    5.377643333781553e-01    -8.473954691521236e-01   
4.016000000000000e+09    5.364834766293778e-01    -8.484308173136730e-01   
4.017000000000000e+09    5.355686784838016e-01    -8.491979557169157e-01   
4.018000000000000e+09    5.342874668706846e-01    -8.498293467645880e-01   
4.019000000000000e+09    5.327189095064663e-01    -8.501835347327535e-01   
4.020000000000000e+09    5.315700906191426e-01    -8.510776256626174e-01   
4.021000000000000e+09    5.304179734304199e-01    -8.509769907854328e-01   
4.022000000000000e+09    5.289715639040646e-01    -8.523130779313500e-01   
4.023000000000000e+09    5.280881622009626e-01    -8.525777460891008e-01   
4.024000000000000e+09    5.265323281202111e-01    -8.529345073785881e-01   
4.025000000000000e+09    5.250720385153390e-01    -8.534070303532846e-01   
4.026000000000000e+09    5.239557583641918e-01    -8.539586652174398e-01   
4.027000000000000e+09    5.224773377695838e-01    -8.543316047533637e-01   
4.028000000000000e+09    5.211841153281473e-01    -8.548094146934657e-01   
4.029000000000000e+09    5.202119383648234e-01    -8.551685472644562e-01   
4.030000000000000e+09    5.186553964293946e-01    -8.556180494130686e-01   
4.031000000000000e+09    5.175694629466662e-01    -8.559302410019646e-01   
4.032000000000000e+09    5.158758264925092e-01    -8.565072758801859e-01   
4.033000000000000e+09    5.145101942806777e-01    -8.567680094268247e-01   
4.034000000000000e+09    5.131408751795274e-01    -8.575479889546798e-01   
4.035000000000000e+09    5.118867857149664e-01    -8.579301494084589e-01   
4.036000000000000e+09    5.106630840474412e-01    -8.581534923620210e-01   
4.037000000000000e+09    5.092105042880410e-01    -8.585505474299560e-01   
4.038000000000000e+09    5.079564396363596e-01    -8.591594586813687e-01   
4.039000000000000e+09    5.066397914983630e-01    -8.596500471598695e-01   
4.040000000000000e+09    5.052789769047136e-01    -8.600525545396740e-01   
4.041000000000000e+09    5.035975826124087e-01    -8.607555437738023e-01   
4.042000000000000e+09    5.025512464034728e-01    -8.613556371333839e-01   
4.043000000000000e+09    5.010458065183193e-01    -8.620893270717180e-01   
4.044000000000000e+09    4.997924906965768e-01    -8.626407697383174e-01   
4.045000000000000e+09    4.984006774113239e-01    -8.635372522664988e-01   
4.046000000000000e+09    4.974099300427413e-01    -8.640005131046732e-01   
4.047000000000000e+09    4.961773614043652e-01    -8.647195308724140e-01   
4.048000000000000e+09    4.950077916843528e-01    -8.657922465656919e-01   
4.049000000000000e+09    4.938730399521601e-01    -8.661361828770437e-01   
4.050000000000000e+09    4.929151280891734e-01    -8.670430087903239e-01   
4.051000000000000e+09    4.918773236986353e-01    -8.676985979718054e-01   
4.052000000000000e+09    4.909252317376415e-01    -8.686386548238058e-01   
4.053000000000000e+09    4.898870117163519e-01    -8.693538619929706e-01   
4.054000000000000e+09    4.886706587007686e-01    -8.700924721205423e-01   
4.055000000000000e+09    4.879451208125260e-01    -8.708469823966271e-01   
4.056000000000000e+09    4.870628462007136e-01    -8.717872945769435e-01   
4.057000000000000e+09    4.858641127708344e-01    -8.723593234155949e-01   
4.058000000000000e+09    4.851982726946568e-01    -8.731175680261959e-01   
4.059000000000000e+09    4.845095640122081e-01    -8.742942766843881e-01   
4.060000000000000e+09    4.835125454674362e-01    -8.747335921445135e-01   
4.061000000000000e+09    4.828414114499974e-01    -8.758174042863317e-01   
4.062000000000000e+09    4.821652488753382e-01    -8.766254443952934e-01   
4.063000000000000e+09    4.816040496906465e-01    -8.774399456416386e-01   
4.064000000000000e+09    4.808838173390354e-01    -8.780426136190771e-01   
4.065000000000000e+09    4.801869375135528e-01    -8.789642148567886e-01   
4.066000000000000e+09    4.798353673119549e-01    -8.796691801681512e-01   
4.067000000000000e+09    4.790498539391609e-01    -8.803423888345514e-01   
4.068000000000000e+09    4.783514197908308e-01    -8.810345024412767e-01   
4.069000000000000e+09    4.779272390458139e-01    -8.821786918005583e-01   
4.070000000000000e+09    4.771970278703935e-01    -8.826643455172771e-01   
4.071000000000000e+09    4.765655229316124e-01    -8.832334610890847e-01   
4.072000000000000e+09    4.760867536982599e-01    -8.839518444544614e-01   
4.073000000000000e+09    4.755356049182181e-01    -8.848388747174512e-01   
4.074000000000000e+09    4.748893398993292e-01    -8.854366854432763e-01   
4.075000000000000e+09    4.741804314105563e-01    -8.864288369212184e-01   
4.076000000000000e+09    4.738397253729053e-01    -8.870335774361064e-01   
4.077000000000000e+09    4.735923449459678e-01    -8.877277798163464e-01   
4.078000000000000e+09    4.726402942454229e-01    -8.881708838647747e-01   
4.079000000000000e+09    4.721104331187530e-01    -8.894113737210032e-01   
4.080000000000000e+09    4.714739075391026e-01    -8.898383749998584e-01   
4.081000000000000e+09    4.707662392478154e-01    -8.907692161290842e-01   
4.082000000000000e+09    4.705122183311921e-01    -8.908086417519812e-01   
4.083000000000000e+09    4.693137365180400e-01    -8.917334928236518e-01   
4.084000000000000e+09    4.691632406840187e-01    -8.920317610493945e-01   
4.085000000000000e+09    4.677533612061203e-01    -8.926443301765933e-01   
4.086000000000000e+09    4.673086096303540e-01    -8.930603324600681e-01   
4.087000000000000e+09    4.671079354172818e-01    -8.941067383233559e-01   
4.088000000000000e+09    4.661043867522192e-01    -8.942524430279376e-01   
4.089000000000000e+09    4.653361534139166e-01    -8.951420515354437e-01   
4.090000000000000e+09    4.643849268123579e-01    -8.955681115964017e-01   
4.091000000000000e+09    4.638222824516864e-01    -8.960207677770997e-01   
4.092000000000000e+09    4.631033078630327e-01    -8.962678337071878e-01   
4.093000000000000e+09    4.624706000654556e-01    -8.969207587968907e-01   
4.094000000000000e+09    4.614611213515589e-01    -8.973030616394663e-01   
4.095000000000000e+09    4.606510829280691e-01    -8.978398164504940e-01   
4.096000000000000e+09    4.599656321901552e-01    -8.977119280154566e-01   
4.097000000000000e+09    4.591158495507143e-01    -8.981210255421922e-01   
4.098000000000000e+09    4.582857993881969e-01    -8.984846687542932e-01   
4.099000000000000e+09    4.575853400913110e-01    -8.987693998255309e-01   
4.100000000000000e+09    4.564599662914546e-01    -8.991831012035963e-01   
4.101000000000000e+09    4.552733790876298e-01    -8.994529212639688e-01   
4.102000000000000e+09    4.545308345412462e-01    -8.994526330152404e-01   
4.103000000000000e+09    4.537001118212038e-01    -8.998697021147563e-01   
4.104000000000000e+09    4.528388994761866e-01    -9.002470338045109e-01   
4.105000000000000e+09    4.516584872813330e-01    -9.005514815489136e-01   
4.106000000000000e+09    4.504851632740638e-01    -9.005772916033371e-01   
4.107000000000000e+09    4.495136852231085e-01    -9.004810545005906e-01   
4.108000000000000e+09    4.483987354017787e-01    -9.007366320801156e-01   
4.109000000000000e+09    4.475590272674145e-01    -9.007203677643807e-01   
4.110000000000000e+09    4.466173763850566e-01    -9.009438672703504e-01   
4.111000000000000e+09    4.452235272372364e-01    -9.010923541249112e-01   
4.112000000000000e+09    4.440498201664392e-01    -9.012021551148225e-01   
4.113000000000000e+09    4.430096474802008e-01    -9.013840991563239e-01   
4.114000000000000e+09    4.417395864927949e-01    -9.014913461598358e-01   
4.115000000000000e+09    4.406667682857460e-01    -9.015096327663955e-01   
4.116000000000000e+09    4.389026307804094e-01    -9.016061600958697e-01   
4.117000000000000e+09    4.377808766658700e-01    -9.019765771687898e-01   
4.118000000000000e+09    4.362368713286171e-01    -9.016347940572604e-01   
4.119000000000000e+09    4.350591512333706e-01    -9.020049498231398e-01   
4.120000000000000e+09    4.334385545156696e-01    -9.019029994120721e-01   
4.121000000000000e+09    4.317861411611665e-01    -9.024800924287127e-01   
4.122000000000000e+09    4.306737025430881e-01    -9.024691408539236e-01   
4.123000000000000e+09    4.290333551425495e-01    -9.028345749677822e-01   
4.124000000000000e+09    4.272637707301844e-01    -9.028866949097026e-01   
4.125000000000000e+09    4.255905360692597e-01    -9.031667630484684e-01   
4.126000000000000e+09    4.240251520833658e-01    -9.034587718826578e-01   
4.127000000000000e+09    4.226517899070508e-01    -9.039631252288234e-01   
4.128000000000000e+09    4.211151595563242e-01    -9.042100463151770e-01   
4.129000000000000e+09    4.191279222734031e-01    -9.050055192323382e-01   
4.130000000000000e+09    4.175337028746048e-01    -9.052092736050195e-01   
4.131000000000000e+09    4.159503624672483e-01    -9.060025874429144e-01   
4.132000000000000e+09    4.140964712458255e-01    -9.065554454951559e-01   
4.133000000000000e+09    4.124802399453760e-01    -9.069928530907633e-01   
4.134000000000000e+09    4.109433192452158e-01    -9.076820211792564e-01   
4.135000000000000e+09    4.089961713559039e-01    -9.082863684869058e-01   
4.136000000000000e+09    4.075068285725011e-01    -9.091481669250570e-01   
4.137000000000000e+09    4.061573948332236e-01    -9.096513991422407e-01   
4.138000000000000e+09    4.041538109320676e-01    -9.105974316928550e-01   
4.139000000000000e+09    4.027201454532456e-01    -9.111430465925938e-01   
4.140000000000000e+09    4.014574694202073e-01    -9.120374726208748e-01   
4.141000000000000e+09    3.997060572215433e-01    -9.129504876994825e-01   
4.142000000000000e+09    3.981773413523533e-01    -9.136496482932827e-01   
4.143000000000000e+09    3.968780454111382e-01    -9.144972335197924e-01   
4.144000000000000e+09    3.951304050929715e-01    -9.152850264485418e-01   
4.145000000000000e+09    3.940220389814876e-01    -9.162571549643415e-01   
4.146000000000000e+09    3.924899369057058e-01    -9.173270267171286e-01   
4.147000000000000e+09    3.912444999932705e-01    -9.178827894241915e-01   
4.148000000000000e+09    3.898967461800806e-01    -9.190832774788148e-01   
4.149000000000000e+09    3.886449824996404e-01    -9.198743987453945e-01   
4.150000000000000e+09    3.872579657419942e-01    -9.207783983275082e-01   
4.151000000000000e+09    3.859776452659448e-01    -9.217180839725360e-01   
4.152000000000000e+09    3.847133389791552e-01    -9.223487325722662e-01   
4.153000000000000e+09    3.831113327256127e-01    -9.235534123098788e-01   
4.154000000000000e+09    3.823332602875026e-01    -9.247703781796827e-01   
4.155000000000000e+09    3.811279210046837e-01    -9.258133506815397e-01   
4.156000000000000e+09    3.798326722913663e-01    -9.261255435703830e-01   
4.157000000000000e+09    3.785396788576780e-01    -9.270520592154546e-01   
4.158000000000000e+09    3.778421065859369e-01    -9.278939765243194e-01   
4.159000000000000e+09    3.764976460562316e-01    -9.287539386112900e-01   
4.160000000000000e+09    3.755938087279241e-01    -9.295623664354770e-01   
4.161000000000000e+09    3.745878462756683e-01    -9.304916762776160e-01   
4.162000000000000e+09    3.733921758381452e-01    -9.312446047788625e-01   
4.163000000000000e+09    3.726923654766441e-01    -9.321108539165445e-01   
4.164000000000000e+09    3.715684148092070e-01    -9.326483822982022e-01   
4.165000000000000e+09    3.703404652219828e-01    -9.332726500092980e-01   
4.166000000000000e+09    3.695460837272097e-01    -9.341880320333488e-01   
4.167000000000000e+09    3.688284121726189e-01    -9.348391556130453e-01   
4.168000000000000e+09    3.675304040056187e-01    -9.352837360448040e-01   
4.169000000000000e+09    3.666115239612312e-01    -9.363498828727040e-01   
4.170000000000000e+09    3.659508498803059e-01    -9.368201031471356e-01   
4.171000000000000e+09    3.645644046405835e-01    -9.374549255897724e-01   
4.172000000000000e+09    3.646405531358585e-01    -9.379300217867576e-01   
4.173000000000000e+09    3.631959189276384e-01    -9.388601083185172e-01   
4.174000000000000e+09    3.620882564557293e-01    -9.387518407864288e-01   
4.175000000000000e+09    3.613495113739845e-01    -9.395927414811008e-01   
4.176000000000000e+09    3.609422600568186e-01    -9.400409285269460e-01   
4.177000000000000e+09    3.599434687499955e-01    -9.400702734255844e-01   
4.178000000000000e+09    3.592246691076084e-01    -9.406747088417723e-01   
4.179000000000000e+09    3.584362640478767e-01    -9.412271776277127e-01   
4.180000000000000e+09    3.575727680471336e-01    -9.413261173803225e-01   
4.181000000000000e+09    3.567001306252162e-01    -9.416683178353915e-01   
4.182000000000000e+09    3.566291140431899e-01    -9.418387925317149e-01   
4.183000000000000e+09    3.552916890502130e-01    -9.423407563340906e-01   
4.184000000000000e+09    3.548292203649732e-01    -9.427427045272968e-01   
4.185000000000000e+09    3.539974226410143e-01    -9.426671418800164e-01   
4.186000000000000e+09    3.531208937889497e-01    -9.427677531439209e-01   
4.187000000000000e+09    3.528440564103400e-01    -9.426939964701208e-01   
4.188000000000000e+09    3.520099041955350e-01    -9.429243396603936e-01   
4.189000000000000e+09    3.515348980240790e-01    -9.434127929424603e-01   
4.190000000000000e+09    3.507169195821632e-01    -9.432935140179705e-01   
4.191000000000000e+09    3.501421555526171e-01    -9.436962019085869e-01   
4.192000000000000e+09    3.495343987566885e-01    -9.435052156224834e-01   
4.193000000000000e+09    3.487458761097588e-01    -9.436144798175469e-01   
4.194000000000000e+09    3.480919418323832e-01    -9.436058180026505e-01   
4.195000000000000e+09    3.477460059374458e-01    -9.435780490833721e-01   
4.196000000000000e+09    3.467943355840750e-01    -9.436722120239981e-01   
4.197000000000000e+09    3.461644966924778e-01    -9.436858492094897e-01   
4.198000000000000e+09    3.454501754023637e-01    -9.434830632373514e-01   
4.199000000000000e+09    3.447599806391673e-01    -9.435539465476342e-01   
4.200000000000000e+09    3.439393641288426e-01    -9.436733857870617e-01   
4.201000000000000e+09    3.419543582538827e-01    -9.457143542055816e-01   
4.202000000000000e+09    3.415550722031714e-01    -9.458990949269171e-01   
4.203000000000000e+09    3.408777669283269e-01    -9.458145389154221e-01   
4.204000000000000e+09    3.400960239686360e-01    -9.456882468510109e-01   
4.205000000000000e+09    3.391194916667200e-01    -9.456286607034100e-01   
4.206000000000000e+09    3.386871883792574e-01    -9.454110030818262e-01   
4.207000000000000e+09    3.376660499578752e-01    -9.451146456562373e-01   
4.208000000000000e+09    3.364977280923387e-01    -9.453466211666494e-01   
4.209000000000000e+09    3.356923772612752e-01    -9.452903198356771e-01   
4.210000000000000e+09    3.348388937182447e-01    -9.454943150478982e-01   
4.211000000000000e+09    3.338586305468976e-01    -9.455829203285768e-01   
4.212000000000000e+09    3.329892948150850e-01    -9.457145316842901e-01   
4.213000000000000e+09    3.316889621297958e-01    -9.454678549430215e-01   
4.214000000000000e+09    3.308775169245072e-01    -9.456280603924152e-01   
4.215000000000000e+09    3.295472617013227e-01    -9.460186315297245e-01   
4.216000000000000e+09    3.282190426165288e-01    -9.459308663685095e-01   
4.217000000000000e+09    3.271287524947792e-01    -9.459782392732228e-01   
4.218000000000000e+09    3.261122587383283e-01    -9.464442111020740e-01   
4.219000000000000e+09    3.247962374847276e-01    -9.467974745692359e-01   
4.220000000000000e+09    3.233778229767636e-01    -9.470739952788980e-01   
4.221000000000000e+09    3.221908525306959e-01    -9.471825454658471e-01   
4.222000000000000e+09    3.208463624985919e-01    -9.477254584029521e-01   
4.223000000000000e+09    3.195675556433205e-01    -9.480042335914771e-01   
4.224000000000000e+09    3.186475665149589e-01    -9.483598489196158e-01   
4.225000000000000e+09    3.173011229895612e-01    -9.489360472503922e-01   
4.226000000000000e+09    3.159971547307547e-01    -9.492938321702342e-01   
4.227000000000000e+09    3.143504176571739e-01    -9.497440115592582e-01   
4.228000000000000e+09    3.132998438593780e-01    -9.502488964792657e-01   
4.229000000000000e+09    3.118826165710596e-01    -9.507513732967179e-01   
4.230000000000000e+09    3.103399830721931e-01    -9.511607991376495e-01   
4.231000000000000e+09    3.089249119399692e-01    -9.514278814191783e-01   
4.232000000000000e+09    3.077737354263996e-01    -9.520296321974535e-01   
4.233000000000000e+09    3.063311606350634e-01    -9.527663172927171e-01   
4.234000000000000e+09    3.045671277414973e-01    -9.532603404289995e-01   
4.235000000000000e+09    3.036289735113110e-01    -9.535152553318409e-01   
4.236000000000000e+09    3.017802454779066e-01    -9.539174156876122e-01   
4.237000000000000e+09    3.005944801906013e-01    -9.544648328336425e-01   
4.238000000000000e+09    2.995826419251436e-01    -9.551976097573706e-01   
4.239000000000000e+09    2.979373074405683e-01    -9.555190943195235e-01   
4.240000000000000e+09    2.962440418920054e-01    -9.562590238981057e-01   
4.241000000000000e+09    2.947692701966648e-01    -9.564365028191689e-01   
4.242000000000000e+09    2.933299615402656e-01    -9.570554503823955e-01   
4.243000000000000e+09    2.920451996471397e-01    -9.577916890462820e-01   
4.244000000000000e+09    2.901488828175779e-01    -9.579156197720695e-01   
4.245000000000000e+09    2.884354104752344e-01    -9.585480039302261e-01   
4.246000000000000e+09    2.871061340078289e-01    -9.588490683892427e-01   
4.247000000000000e+09    2.854777030073296e-01    -9.595377654906838e-01   
4.248000000000000e+09    2.839904151801922e-01    -9.599130270821005e-01   
4.249000000000000e+09    2.820724261269172e-01    -9.606979464977592e-01   
4.250000000000000e+09    2.804238670055870e-01    -9.607166472671358e-01   
4.251000000000000e+09    2.785856660950463e-01    -9.615126441018415e-01   
4.252000000000000e+09    2.768353401607536e-01    -9.621184335417579e-01   
4.253000000000000e+09    2.753636681619409e-01    -9.626350948200505e-01   
4.254000000000000e+09    2.734960764095380e-01    -9.629674687312989e-01   
4.255000000000000e+09    2.719017348163310e-01    -9.633472919796163e-01   
4.256000000000000e+09    2.699105467414643e-01    -9.638816323550536e-01   
