[Version] 2.0
! Rohde & Schwarz Vector Network Analyzer
! Rohde-Schwarz,ZNL20-2Port,1323001220200009,1.71.1.10-23.02.1.238
! 
! Port Assignments:
! Nominal Port -> Actual Test Port
! --------------------------------
!   1 -> 1

! Created: GMT+2 2025-01-17 12:52:12

# Hz S RI R 50

[Number of Ports] 1
[Number of Frequencies] 16001

[Network Data] 
! freq[Hz]               S11[Re]                  S11[Im]                  
4.000000000000000e+09    5.566551457764628e-01    -8.361705393954697e-01   
4.001000000000000e+09    5.551617999090683e-01    -8.373647499036975e-01   
4.002000000000000e+09    5.544129369943488e-01    -8.379149797126952e-01   
4.003000000000000e+09    5.528219883663894e-01    -8.387880625137153e-01   
4.004000000000000e+09    5.517290162205009e-01    -8.395456985626699e-01   
4.005000000000000e+09    5.503898569934125e-01    -8.408568131807234e-01   
4.006000000000000e+09    5.491885842298049e-01    -8.411123452305167e-01   
4.007000000000000e+09    5.480370373625040e-01    -8.419557631217935e-01   
4.008000000000000e+09    5.468633248053130e-01    -8.434702151990068e-01   
4.009000000000000e+09    5.451129382380877e-01    -8.441393753450276e-01   
4.010000000000000e+09    5.442248719027555e-01    -8.450321728303283e-01   
4.011000000000000e+09    5.427161572653092e-01    -8.456955775814944e-01   
4.012000000000000e+09    5.413279030133620e-01    -8.464582820840773e-01   
4.013000000000000e+09    5.400345877353966e-01    -8.469531115641821e-01   
4.014000000000000e+09    5.388578208298037e-01    -8.477020449839908e-01   
4.015000000000000e+09    5.375203146108235e-01    -8.485000709434501e-01   
4.016000000000000e+09    5.364054277268685e-01    -8.488986361762244e-01   
4.017000000000000e+09    5.352440514272397e-01    -8.495718352015652e-01   
4.018000000000000e+09    5.340165113679579e-01    -8.505700979053552e-01   
4.019000000000000e+09    5.326690436205185e-01    -8.505506824115385e-01   
4.020000000000000e+09    5.315284139264597e-01    -8.512705361845128e-01   
4.021000000000000e+09    5.299546326302286e-01    -8.516814372312999e-01   
4.022000000000000e+09    5.287517096974481e-01    -8.523395292055134e-01   
4.023000000000000e+09    5.274979219264925e-01    -8.529979638126421e-01   
4.024000000000000e+09    5.263361110244617e-01    -8.535132478007886e-01   
4.025000000000000e+09    5.251592065315417e-01    -8.539787537010010e-01   
4.026000000000000e+09    5.235622799369554e-01    -8.542812069010256e-01   
4.027000000000000e+09    5.226973220894900e-01    -8.545384194718114e-01   
4.028000000000000e+09    5.212748368239118e-01    -8.548981246887961e-01   
4.029000000000000e+09    5.199342084960692e-01    -8.557074854312421e-01   
4.030000000000000e+09    5.187592812855263e-01    -8.560197257194068e-01   
4.031000000000000e+09    5.172036394330017e-01    -8.562460207678284e-01   
4.032000000000000e+09    5.156624571968788e-01    -8.564997460722362e-01   
4.033000000000000e+09    5.144629589084692e-01    -8.569589534112358e-01   
4.034000000000000e+09    5.131660685690114e-01    -8.576998567615052e-01   
4.035000000000000e+09    5.117747834627371e-01    -8.581034094161362e-01   
4.036000000000000e+09    5.101385405777175e-01    -8.583738352902576e-01   
4.037000000000000e+09    5.088250047154576e-01    -8.587562829612453e-01   
4.038000000000000e+09    5.074794014587263e-01    -8.596327666068200e-01   
4.039000000000000e+09    5.060797206967218e-01    -8.595975613037250e-01   
4.040000000000000e+09    5.049005824568342e-01    -8.603954252713497e-01   
4.041000000000000e+09    5.036082633461563e-01    -8.610139907647592e-01   
4.042000000000000e+09    5.022877169255368e-01    -8.618075410255398e-01   
4.043000000000000e+09    5.008875404858061e-01    -8.622908960644191e-01   
4.044000000000000e+09    4.994622653999165e-01    -8.629861194156324e-01   
4.045000000000000e+09    4.982480529572635e-01    -8.637716739669106e-01   
4.046000000000000e+09    4.970669992422232e-01    -8.644564031659998e-01   
4.047000000000000e+09    4.958432572369327e-01    -8.650704781996694e-01   
4.048000000000000e+09    4.947359652155339e-01    -8.657482552530459e-01   
4.049000000000000e+09    4.935929078773993e-01    -8.664362358716456e-01   
4.050000000000000e+09    4.925930654472228e-01    -8.670987978918597e-01   
4.051000000000000e+09    4.915689946142573e-01    -8.680912959143329e-01   
4.052000000000000e+09    4.905195620897673e-01    -8.689791981207845e-01   
4.053000000000000e+09    4.895465528167610e-01    -8.695088757260415e-01   
4.054000000000000e+09    4.885329098999301e-01    -8.703287478695458e-01   
4.055000000000000e+09    4.877136672668355e-01    -8.710879146895805e-01   
4.056000000000000e+09    4.867146732778937e-01    -8.722177836880474e-01   
4.057000000000000e+09    4.858872694574006e-01    -8.728996804836495e-01   
4.058000000000000e+09    4.847923133851165e-01    -8.736335044735902e-01   
4.059000000000000e+09    4.844251639286217e-01    -8.743967597054180e-01   
4.060000000000000e+09    4.834320200388880e-01    -8.753443552265071e-01   
4.061000000000000e+09    4.827167053713610e-01    -8.758776111459875e-01   
4.062000000000000e+09    4.818649328754644e-01    -8.766142122079311e-01   
4.063000000000000e+09    4.812114802034591e-01    -8.775701936912790e-01   
4.064000000000000e+09    4.804013205483703e-01    -8.784294324519581e-01   
4.065000000000000e+09    4.800766596959183e-01    -8.791600782543135e-01   
4.066000000000000e+09    4.791189911674452e-01    -8.800953076752963e-01   
4.067000000000000e+09    4.784588477220775e-01    -8.806208277497356e-01   
4.068000000000000e+09    4.781150893736338e-01    -8.812771786443544e-01   
4.069000000000000e+09    4.772657620636737e-01    -8.823571737375507e-01   
4.070000000000000e+09    4.764571415177666e-01    -8.829794176160134e-01   
4.071000000000000e+09    4.763107334930952e-01    -8.836981835602170e-01   
4.072000000000000e+09    4.756383071227331e-01    -8.843011899262426e-01   
4.073000000000000e+09    4.750060692206423e-01    -8.851337371478951e-01   
4.074000000000000e+09    4.744730460753959e-01    -8.858981640864586e-01   
4.075000000000000e+09    4.741001588748514e-01    -8.868200428754324e-01   
4.076000000000000e+09    4.734208014121226e-01    -8.872955031249993e-01   
4.077000000000000e+09    4.727306093168568e-01    -8.881023732942722e-01   
4.078000000000000e+09    4.719975715697275e-01    -8.889004073923213e-01   
4.079000000000000e+09    4.715938493003464e-01    -8.895091498511367e-01   
4.080000000000000e+09    4.711115234816410e-01    -8.897441007469253e-01   
4.081000000000000e+09    4.705322988292797e-01    -8.908655943331892e-01   
4.082000000000000e+09    4.697454913842861e-01    -8.912116592499028e-01   
4.083000000000000e+09    4.691524645565859e-01    -8.924244353548991e-01   
4.084000000000000e+09    4.688652278938717e-01    -8.927323166481681e-01   
4.085000000000000e+09    4.680211366652138e-01    -8.930760817527361e-01   
4.086000000000000e+09    4.672180518297476e-01    -8.934470022928354e-01   
4.087000000000000e+09    4.665247293542635e-01    -8.940061477842772e-01   
4.088000000000000e+09    4.660842982223998e-01    -8.948470012202514e-01   
4.089000000000000e+09    4.649562946445837e-01    -8.954106751648062e-01   
4.090000000000000e+09    4.643604587617270e-01    -8.957183608074487e-01   
4.091000000000000e+09    4.636090442527430e-01    -8.963085585051566e-01   
4.092000000000000e+09    4.629770401718799e-01    -8.970884218434331e-01   
4.093000000000000e+09    4.618236435140126e-01    -8.971723573438843e-01   
4.094000000000000e+09    4.612697816347716e-01    -8.976000928937981e-01   
4.095000000000000e+09    4.606338304675036e-01    -8.983280886959897e-01   
4.096000000000000e+09    4.596953770904716e-01    -8.977292951925108e-01   
4.097000000000000e+09    4.590913012612530e-01    -8.988942623248637e-01   
4.098000000000000e+09    4.580043634600513e-01    -8.992597355096194e-01   
4.099000000000000e+09    4.573226716628167e-01    -8.993667020286019e-01   
4.100000000000000e+09    4.559416196373058e-01    -8.996658360549974e-01   
4.101000000000000e+09    4.553550386421398e-01    -8.997701521090223e-01   
4.102000000000000e+09    4.543770162521087e-01    -8.999226651890663e-01   
4.103000000000000e+09    4.536284496551476e-01    -9.006767270915923e-01   
4.104000000000000e+09    4.522406704566846e-01    -9.004813859029719e-01   
4.105000000000000e+09    4.513441087593040e-01    -9.007205896258675e-01   
4.106000000000000e+09    4.507282184065368e-01    -9.011260973476107e-01   
4.107000000000000e+09    4.498420641045598e-01    -9.007555086032965e-01   
4.108000000000000e+09    4.484519597605505e-01    -9.012235796387504e-01   
4.109000000000000e+09    4.472659104145520e-01    -9.012353550701219e-01   
4.110000000000000e+09    4.461736819442410e-01    -9.011103631298745e-01   
4.111000000000000e+09    4.450036628523907e-01    -9.016018562671403e-01   
4.112000000000000e+09    4.440552094988079e-01    -9.015290574717084e-01   
4.113000000000000e+09    4.428833796605460e-01    -9.014798188835899e-01   
4.114000000000000e+09    4.417044495242958e-01    -9.018549418118763e-01   
4.115000000000000e+09    4.403449796252015e-01    -9.019213810981540e-01   
4.116000000000000e+09    4.390652396972270e-01    -9.019393532038802e-01   
4.117000000000000e+09    4.375661854307156e-01    -9.018824184397921e-01   
4.118000000000000e+09    4.359234847829618e-01    -9.020134948258947e-01   
4.119000000000000e+09    4.346435003030523e-01    -9.021710034955536e-01   
4.120000000000000e+09    4.333270415609992e-01    -9.024591076749364e-01   
4.121000000000000e+09    4.318134382686144e-01    -9.025143908237370e-01   
4.122000000000000e+09    4.303980322169259e-01    -9.026852814872174e-01   
4.123000000000000e+09    4.288751047904242e-01    -9.029499278543327e-01   
4.124000000000000e+09    4.272229187294799e-01    -9.034148266418600e-01   
4.125000000000000e+09    4.255870649301275e-01    -9.035493684136801e-01   
4.126000000000000e+09    4.238792558927700e-01    -9.037614517214168e-01   
4.127000000000000e+09    4.226386402532934e-01    -9.041466273929306e-01   
4.128000000000000e+09    4.206185829723358e-01    -9.045919550660841e-01   
4.129000000000000e+09    4.191946563931417e-01    -9.050939626862311e-01   
4.130000000000000e+09    4.171722092491542e-01    -9.054149849917295e-01   
4.131000000000000e+09    4.156604543656350e-01    -9.063901985789811e-01   
4.132000000000000e+09    4.139151630776030e-01    -9.066474770792518e-01   
4.133000000000000e+09    4.123725724261049e-01    -9.071556371353010e-01   
4.134000000000000e+09    4.104944809480456e-01    -9.080276818745392e-01   
4.135000000000000e+09    4.090475523444989e-01    -9.085956863403830e-01   
4.136000000000000e+09    4.073691656220799e-01    -9.092452459193259e-01   
4.137000000000000e+09    4.060635486554443e-01    -9.098516260340672e-01   
4.138000000000000e+09    4.041877365937472e-01    -9.106715219258783e-01   
4.139000000000000e+09    4.024138296197707e-01    -9.113668352891652e-01   
4.140000000000000e+09    4.010189255303245e-01    -9.123924767068237e-01   
4.141000000000000e+09    3.994279871775041e-01    -9.131497661011704e-01   
4.142000000000000e+09    3.978873769597695e-01    -9.137561392121747e-01   
4.143000000000000e+09    3.966422862801542e-01    -9.147996668294216e-01   
4.144000000000000e+09    3.948677584523628e-01    -9.156428284328029e-01   
4.145000000000000e+09    3.934016139258506e-01    -9.162500311421308e-01   
4.146000000000000e+09    3.920572374178108e-01    -9.172004814474554e-01   
4.147000000000000e+09    3.905953816400787e-01    -9.182402109083002e-01   
4.148000000000000e+09    3.895837775859450e-01    -9.192925876469682e-01   
4.149000000000000e+09    3.882515118476842e-01    -9.198439731648088e-01   
4.150000000000000e+09    3.871789060786781e-01    -9.208134138698164e-01   
4.151000000000000e+09    3.857261481965906e-01    -9.217100325859457e-01   
4.152000000000000e+09    3.844847972954347e-01    -9.225085518966475e-01   
4.153000000000000e+09    3.831781391468654e-01    -9.240006996002834e-01   
4.154000000000000e+09    3.814556794562646e-01    -9.246667695390366e-01   
4.155000000000000e+09    3.806889077945607e-01    -9.257085376437850e-01   
4.156000000000000e+09    3.796457052893143e-01    -9.265714333059284e-01   
4.157000000000000e+09    3.786748290997065e-01    -9.276310801001892e-01   
4.158000000000000e+09    3.775091749367966e-01    -9.284292195028306e-01   
4.159000000000000e+09    3.763488957955692e-01    -9.290773291192302e-01   
4.160000000000000e+09    3.754562090135282e-01    -9.298163279121047e-01   
4.161000000000000e+09    3.741352278321158e-01    -9.306636010428845e-01   
4.162000000000000e+09    3.728571313869304e-01    -9.313537006883048e-01   
4.163000000000000e+09    3.720378566627328e-01    -9.321120299313594e-01   
4.164000000000000e+09    3.714643262405596e-01    -9.328324855214956e-01   
4.165000000000000e+09    3.703845513745199e-01    -9.336881283631114e-01   
4.166000000000000e+09    3.693658185002062e-01    -9.346732103425043e-01   
4.167000000000000e+09    3.680368555764563e-01    -9.348733555517311e-01   
4.168000000000000e+09    3.673892582728821e-01    -9.357680461914464e-01   
4.169000000000000e+09    3.660897710880038e-01    -9.363922146468212e-01   
4.170000000000000e+09    3.653980091013440e-01    -9.368217855310000e-01   
4.171000000000000e+09    3.648253302060651e-01    -9.376840300126369e-01   
4.172000000000000e+09    3.636862566786782e-01    -9.381697281431139e-01   
4.173000000000000e+09    3.630783000387440e-01    -9.390019203764856e-01   
4.174000000000000e+09    3.618871559389858e-01    -9.392744054049628e-01   
4.175000000000000e+09    3.612321137606840e-01    -9.394937073728233e-01   
4.176000000000000e+09    3.604981052239944e-01    -9.403273021711875e-01   
4.177000000000000e+09    3.599761131033594e-01    -9.404550633250902e-01   
4.178000000000000e+09    3.592084893241532e-01    -9.410727679822879e-01   
4.179000000000000e+09    3.578376290619641e-01    -9.414008938716770e-01   
4.180000000000000e+09    3.573743581366681e-01    -9.415864004195001e-01   
4.181000000000000e+09    3.563806649536776e-01    -9.418688807527602e-01   
4.182000000000000e+09    3.557825353566055e-01    -9.420786915975853e-01   
4.183000000000000e+09    3.548542472311905e-01    -9.427660657862500e-01   
4.184000000000000e+09    3.544326906966836e-01    -9.426844569001568e-01   
4.185000000000000e+09    3.536024001112186e-01    -9.425241961579072e-01   
4.186000000000000e+09    3.530291874173773e-01    -9.429773152443226e-01   
4.187000000000000e+09    3.525281190275841e-01    -9.429271976568997e-01   
4.188000000000000e+09    3.514656097591086e-01    -9.431683295817279e-01   
4.189000000000000e+09    3.512071931455860e-01    -9.431245530526113e-01   
4.190000000000000e+09    3.505367059507498e-01    -9.433725918963852e-01   
4.191000000000000e+09    3.499873149651496e-01    -9.435742757762218e-01   
4.192000000000000e+09    3.492495605403411e-01    -9.438761848395290e-01   
4.193000000000000e+09    3.481775563589998e-01    -9.443096766851434e-01   
4.194000000000000e+09    3.480432131131957e-01    -9.439383933199818e-01   
4.195000000000000e+09    3.473564548195365e-01    -9.438328551569386e-01   
4.196000000000000e+09    3.464013097085880e-01    -9.440498962755116e-01   
4.197000000000000e+09    3.460003668465724e-01    -9.439746863806120e-01   
4.198000000000000e+09    3.451364233742707e-01    -9.438542006780299e-01   
4.199000000000000e+09    3.443783957548572e-01    -9.442678316841999e-01   
4.200000000000000e+09    3.434168091793228e-01    -9.440514687129846e-01   
4.201000000000000e+09    3.415281296052723e-01    -9.460473240795700e-01   
4.202000000000000e+09    3.412508536322303e-01    -9.461218744033245e-01   
4.203000000000000e+09    3.407256746407287e-01    -9.459784237415721e-01   
4.204000000000000e+09    3.398536659823250e-01    -9.459142639160854e-01   
4.205000000000000e+09    3.391224769491485e-01    -9.456725678533107e-01   
4.206000000000000e+09    3.383760074795114e-01    -9.459076907854445e-01   
4.207000000000000e+09    3.372022532272074e-01    -9.455958453623928e-01   
4.208000000000000e+09    3.363269504217179e-01    -9.457227232286759e-01   
4.209000000000000e+09    3.354284061460329e-01    -9.456026814983725e-01   
4.210000000000000e+09    3.345003254627412e-01    -9.457792010446593e-01   
4.211000000000000e+09    3.337276231599383e-01    -9.455692772947950e-01   
4.212000000000000e+09    3.326683838981304e-01    -9.456198830669731e-01   
4.213000000000000e+09    3.314321714315948e-01    -9.456887670726861e-01   
4.214000000000000e+09    3.304714980498302e-01    -9.458411866561196e-01   
4.215000000000000e+09    3.291398453866428e-01    -9.459903762222599e-01   
4.216000000000000e+09    3.279082894905736e-01    -9.460758264041869e-01   
4.217000000000000e+09    3.268073841826734e-01    -9.465266342811054e-01   
4.218000000000000e+09    3.260508215348998e-01    -9.466803945580838e-01   
4.219000000000000e+09    3.242984759284355e-01    -9.465800909188476e-01   
4.220000000000000e+09    3.229109593770713e-01    -9.473706035415839e-01   
4.221000000000000e+09    3.220927406642706e-01    -9.476427071283129e-01   
4.222000000000000e+09    3.205344246284055e-01    -9.476964770270813e-01   
4.223000000000000e+09    3.191864727638022e-01    -9.482889589450630e-01   
4.224000000000000e+09    3.183590973466303e-01    -9.484337981569363e-01   
4.225000000000000e+09    3.167933633890481e-01    -9.490466113732919e-01   
4.226000000000000e+09    3.155609859993170e-01    -9.493453073253947e-01   
4.227000000000000e+09    3.142849795183698e-01    -9.498917525731899e-01   
4.228000000000000e+09    3.126472706123862e-01    -9.503152101526613e-01   
4.229000000000000e+09    3.114115660293512e-01    -9.507165710018241e-01   
4.230000000000000e+09    3.099877721308742e-01    -9.514929124181067e-01   
4.231000000000000e+09    3.086819549757607e-01    -9.518920141436462e-01   
4.232000000000000e+09    3.071912795103754e-01    -9.522487000137801e-01   
4.233000000000000e+09    3.061247462355861e-01    -9.526665069232568e-01   
4.234000000000000e+09    3.043523013386862e-01    -9.537620817176419e-01   
4.235000000000000e+09    3.030182061238137e-01    -9.537786828337111e-01   
4.236000000000000e+09    3.015413109068248e-01    -9.543721620229110e-01   
4.237000000000000e+09    3.002440169833216e-01    -9.549158660282980e-01   
4.238000000000000e+09    2.991637062605427e-01    -9.556080139575193e-01   
4.239000000000000e+09    2.972918300323095e-01    -9.558273048756925e-01   
4.240000000000000e+09    2.961501591789571e-01    -9.564626318683919e-01   
4.241000000000000e+09    2.942907091492926e-01    -9.568539020451947e-01   
4.242000000000000e+09    2.927902226307558e-01    -9.573761633864646e-01   
4.243000000000000e+09    2.912834611159835e-01    -9.578444847284598e-01   
4.244000000000000e+09    2.896804396161206e-01    -9.585289085479938e-01   
4.245000000000000e+09    2.877884228097555e-01    -9.588711691134022e-01   
4.246000000000000e+09    2.870008293993154e-01    -9.592329095593174e-01   
4.247000000000000e+09    2.851379009712390e-01    -9.597730358587651e-01   
4.248000000000000e+09    2.832898188683980e-01    -9.601271963706047e-01   
4.249000000000000e+09    2.816741924948702e-01    -9.606503365306688e-01   
4.250000000000000e+09    2.803360956089124e-01    -9.611653518042810e-01   
4.251000000000000e+09    2.786823154644442e-01    -9.617178967409618e-01   
4.252000000000000e+09    2.762787713378362e-01    -9.622128636972694e-01   
4.253000000000000e+09    2.750852204610062e-01    -9.630645029477966e-01   
4.254000000000000e+09    2.735399375218732e-01    -9.629901553135746e-01   
4.255000000000000e+09    2.715094104185103e-01    -9.635792560044332e-01   
4.256000000000000e+09    2.697932357575034e-01    -9.639151453569251e-01   
