[Version] 2.0
! Rohde & Schwarz Vector Network Analyzer
! Rohde-Schwarz,ZNL20-2Port,1323001220200009,1.71.1.10-23.02.1.238
! 
! Port Assignments:
! Nominal Port -> Actual Test Port
! --------------------------------
!   1 -> 1
!   2 -> 2

! Created: GMT+2 2025-01-17 12:06:15

# Hz S RI R 50

[Number of Ports] 2
[Two-Port Data Order] 21_12
[Number of Frequencies] 16001

[Network Data] 
! freq[Hz]               S11[Re]                  S11[Im]                  S21[Re]                  S21[Im]                  S12[Re]                  S12[Im]                  S22[Re]                  S22[Im]                  
4.000000000000000e+09    5.549877479778637e-01    -8.366631493502770e-01   3.297592411174209e-05    -2.482527126916969e-05   -1.268044180549302e-04   -1.211879882067850e-04   5.388605998509165e-01    -8.150997450278339e-01   
4.001000000000000e+09    5.536383766400202e-01    -8.378434568322977e-01   1.931500658805355e-04    -6.784060257895126e-05   1.406342233072068e-04    1.208318950658578e-04    5.367128827899781e-01    -8.166102606834276e-01   
4.002000000000000e+09    5.522119112664196e-01    -8.386853414817405e-01   1.850273176052066e-05    -4.900859143011306e-05   -8.160205313320306e-05   2.443921201379033e-05    5.344825548527229e-01    -8.171362745819060e-01   
4.003000000000000e+09    5.509240787872163e-01    -8.391729067850532e-01   -6.734992124404713e-05   -1.378617111160476e-04   7.857765356165136e-05    -3.758949148124675e-05   5.327321280715519e-01    -8.182665188085397e-01   
4.004000000000000e+09    5.499937487021024e-01    -8.402898799834593e-01   -4.034491157180917e-05   8.481629845622905e-05    4.925862053673289e-05    -2.039908046426706e-05   5.303396272262254e-01    -8.195046412638948e-01   
4.005000000000000e+09    5.485122008565338e-01    -8.412894234924367e-01   3.406624957024572e-05    -1.995932152924411e-05   -1.215007379032187e-04   -1.810733714342369e-04   5.285247065409664e-01    -8.203164710898722e-01   
4.006000000000000e+09    5.473673825426968e-01    -8.419168938777011e-01   -1.392313839885159e-04   5.467072107736359e-05    -2.580257600947827e-04   2.184944341939510e-04    5.264953592197060e-01    -8.217088583855396e-01   
4.007000000000000e+09    5.462732058178001e-01    -8.428222099048558e-01   7.398943778295088e-05    8.319371526258861e-05    2.647350145644637e-05    -2.590263274648101e-05   5.243982482330954e-01    -8.230630789653056e-01   
4.008000000000000e+09    5.449188393770562e-01    -8.439578257672933e-01   -1.102000485298170e-04   4.486939835631832e-05    -2.122641960986731e-04   -4.694611628650711e-05   5.227307438566193e-01    -8.240460347976416e-01   
4.009000000000000e+09    5.437672447370311e-01    -8.446505079595347e-01   6.157321407213860e-05    -2.632939715731096e-06   -6.212867452296997e-06   6.912775156702269e-05    5.206585842670084e-01    -8.253668805041988e-01   
4.010000000000000e+09    5.423031175362723e-01    -8.450051601477773e-01   4.905597785451632e-05    -3.438673264986625e-05   -7.216415159204502e-05   7.329271025433880e-05    5.182147421440590e-01    -8.267981296693917e-01   
4.011000000000000e+09    5.410484691786930e-01    -8.463917059357753e-01   -1.268293378900779e-04   1.841679814268206e-04    1.558792629337806e-05    -1.922448793667184e-05   5.165426614390850e-01    -8.283465235678981e-01   
4.012000000000000e+09    5.400329752613091e-01    -8.467896854699497e-01   1.413027692826267e-04    1.514609986080609e-04    2.140882411632131e-05    1.647814991450649e-06    5.146391760176211e-01    -8.295939317902132e-01   
4.013000000000000e+09    5.382713889282671e-01    -8.473653376087109e-01   7.441191647110191e-05    1.964289210793275e-04    -9.703775990084494e-05   -2.798599252832483e-05   5.133551451239988e-01    -8.310006843207979e-01   
4.014000000000000e+09    5.370294892940776e-01    -8.480891071133767e-01   6.697146831392443e-05    -1.476673450574287e-04   -1.461239784111577e-05   -5.702741875108081e-05   5.114008775541077e-01    -8.322605655913802e-01   
4.015000000000000e+09    5.356381854695470e-01    -8.490160184980184e-01   -3.711756626178508e-05   5.173229895986644e-05    -6.106139598715488e-05   9.908411938433838e-06    5.095435327386592e-01    -8.335057580893459e-01   
4.016000000000000e+09    5.346079173381005e-01    -8.493211874241635e-01   -1.398667420676040e-04   -1.893701175575919e-04   1.053705417219091e-04    2.244788518583047e-04    5.079833628791774e-01    -8.353819593377149e-01   
4.017000000000000e+09    5.335480929065963e-01    -8.500076827107304e-01   1.196628445699234e-04    4.376463988186972e-05    -6.240096821787175e-05   -6.103275718252665e-05   5.063544650971333e-01    -8.365673889867677e-01   
4.018000000000000e+09    5.320432374277254e-01    -8.506993634447724e-01   4.076915104385636e-05    1.773257135265846e-04    2.075700700424782e-04    -1.267315050608647e-04   5.046337112398596e-01    -8.379137545631298e-01   
4.019000000000000e+09    5.306972573308628e-01    -8.509146110426578e-01   -3.684038261895119e-05   -8.992398054771816e-05   -5.652944696547594e-05   -4.620416635871767e-05   5.032558842661344e-01    -8.390901210283213e-01   
4.020000000000000e+09    5.296480531796751e-01    -8.516784587659998e-01   4.907413703827099e-05    -1.763148731310470e-05   1.213982749173323e-04    2.866740679572662e-05    5.016496253181716e-01    -8.404236844102221e-01   
4.021000000000000e+09    5.282179185207883e-01    -8.521031675317030e-01   -9.575917282380155e-05   -2.504198249763501e-04   7.090311640858028e-05    1.007736133303333e-05    5.003685670655146e-01    -8.414421796252015e-01   
4.022000000000000e+09    5.269181374714330e-01    -8.528079628773817e-01   1.531095153435957e-05    -3.986369519036594e-06   1.597051092522817e-04    1.162683735289924e-04    4.986774480311527e-01    -8.427040265499555e-01   
4.023000000000000e+09    5.256824436172638e-01    -8.535539876672666e-01   -8.275146039923610e-05   -1.325905668650586e-04   -1.607904389256852e-05   5.665914965041349e-05    4.974720573637179e-01    -8.441336436591218e-01   
4.024000000000000e+09    5.244030525716613e-01    -8.538366079637965e-01   -1.896847642993614e-04   -1.222276529550467e-04   6.710420933189291e-05    -3.934445817919356e-05   4.966039718116336e-01    -8.456043875504794e-01   
4.025000000000000e+09    5.233548842489630e-01    -8.540572690681693e-01   6.002178527066674e-05    2.202327205040324e-05    1.586467587346495e-04    4.079167442264129e-05    4.952488972199901e-01    -8.466416406961375e-01   
4.026000000000000e+09    5.218756944724225e-01    -8.546614743156584e-01   6.791810438595840e-05    -5.750821375692936e-05   7.783855217304385e-06    -6.832723449430281e-05   4.941259362875272e-01    -8.480483312305006e-01   
4.027000000000000e+09    5.203420704240518e-01    -8.548629054133535e-01   1.111195940164378e-04    -8.249833539593633e-05   3.177942561770143e-05    7.500760853247996e-05    4.932512654075256e-01    -8.487886411721067e-01   
4.028000000000000e+09    5.189826603166745e-01    -8.553944947384582e-01   -5.483977965639476e-05   -4.801758684185996e-05   3.633739422356352e-05    -1.646874410004034e-04   4.921830317306399e-01    -8.501395511004954e-01   
4.029000000000000e+09    5.180449002683438e-01    -8.561395895010570e-01   3.498175776937866e-05    -1.652965850673545e-04   -4.707998237954247e-06   -5.539030228705545e-05   4.908850114187749e-01    -8.511294611911850e-01   
4.030000000000000e+09    5.165797960712024e-01    -8.562242399851978e-01   -1.504679308897951e-05   7.947632219676827e-05    -4.753727083013776e-05   5.289158548373551e-05    4.898443335129726e-01    -8.523268276025984e-01   
4.031000000000000e+09    5.153033605745735e-01    -8.569625665456124e-01   -7.768755719250914e-05   -4.727817103930734e-05   1.596926912450532e-04    1.426634617175833e-04    4.892405520767756e-01    -8.529275214511017e-01   
4.032000000000000e+09    5.140614556490956e-01    -8.571773740161498e-01   9.023910499593434e-05    1.308757353082474e-06    4.453265068040282e-05    -2.832906961940653e-05   4.882233740797691e-01    -8.540642609140672e-01   
4.033000000000000e+09    5.124168896855184e-01    -8.574491700392007e-01   -2.590368450798439e-04   9.277267768186371e-05    -1.637983499930876e-04   -8.385437511732967e-05   4.873227538273445e-01    -8.550245993367735e-01   
4.034000000000000e+09    5.109856157076809e-01    -8.580905036094760e-01   7.791884462367284e-05    -1.270954598086397e-04   -1.483430731355968e-04   -5.745861518552279e-05   4.864586979350483e-01    -8.561217058898652e-01   
4.035000000000000e+09    5.095500746408316e-01    -8.585287237622399e-01   4.136419949708059e-05    2.317717729185526e-05    -1.020399141481072e-04   5.023323827845597e-05    4.855157352311022e-01    -8.572157174005487e-01   
4.036000000000000e+09    5.084465775199546e-01    -8.588924389512008e-01   -7.005976259375120e-05   4.906267109105528e-05    9.747370894472962e-05    1.184342154358012e-04    4.849316026756573e-01    -8.578916072879689e-01   
4.037000000000000e+09    5.070037320205517e-01    -8.594292419437993e-01   -8.987890363418341e-05   1.291086530701580e-04    9.781153050341971e-05    1.131082939518755e-04    4.841571621869846e-01    -8.592159742705033e-01   
4.038000000000000e+09    5.055228706906087e-01    -8.599450360308828e-01   1.036621378018629e-04    -8.163387784125955e-05   1.926283098117415e-04    9.051533857417202e-05    4.836024594205634e-01    -8.599728762092804e-01   
4.039000000000000e+09    5.041044058026707e-01    -8.602591267623353e-01   -4.286690501875090e-05   1.407148282320723e-04    -6.066004057371244e-05   4.116490040392937e-05    4.824093314659458e-01    -8.607368566376908e-01   
4.040000000000000e+09    5.028928168287842e-01    -8.608008718970891e-01   3.997271611230580e-05    1.734130891108607e-04    1.630503565407069e-04    1.726966789702748e-04    4.819121011938601e-01    -8.617213187943689e-01   
4.041000000000000e+09    5.014451206635281e-01    -8.615804101284523e-01   8.049904101018661e-05    -1.044528909066718e-04   -1.022643918181803e-04   6.741912187946365e-05    4.810876033279986e-01    -8.626557804127374e-01   
4.042000000000000e+09    5.002469793020060e-01    -8.622602360041492e-01   -6.444680136365032e-06   3.498058008679721e-06    1.255892071657562e-04    1.580224046531049e-05    4.807975418577913e-01    -8.632771796643504e-01   
4.043000000000000e+09    4.989997604430250e-01    -8.625702936561540e-01   -1.052379874374377e-05   1.428768956614359e-04    -6.004411814720297e-05   -1.208925904141985e-04   4.801567803789873e-01    -8.641631575987851e-01   
4.044000000000000e+09    4.976176277490102e-01    -8.634359307915230e-01   -1.015106188080769e-04   -1.732738956869968e-04   1.781213461834117e-04    8.541381625561521e-05    4.799542493277548e-01    -8.652267251471929e-01   
4.045000000000000e+09    4.964926741398449e-01    -8.641310993013476e-01   -4.117318214653624e-05   -2.533686206868364e-05   2.073347868982407e-04    3.892682578260512e-05    4.793126718108112e-01    -8.658524670931466e-01   
4.046000000000000e+09    4.951444186224588e-01    -8.646430171921700e-01   3.984025825544979e-05    1.045765585395604e-04    -1.439302291582996e-04   -2.088858049960188e-04   4.788349672038820e-01    -8.664895106263149e-01   
4.047000000000000e+09    4.936023351586852e-01    -8.654316522079464e-01   -4.584119137272527e-05   4.612556856036364e-05    -7.584307486943085e-06   1.853382687547579e-05    4.782548436923266e-01    -8.673258572013692e-01   
4.048000000000000e+09    4.928824611528064e-01    -8.661956444469932e-01   -1.904835964017830e-04   -4.160752543312621e-05   1.433952389633846e-04    9.637479576433434e-06    4.779936809528336e-01    -8.678610924059496e-01   
4.049000000000000e+09    4.915594071602570e-01    -8.668799190060492e-01   4.348302706414203e-05    -1.620549430691469e-05   2.355023203983848e-05    1.580012443491446e-06    4.777274820373137e-01    -8.685307086460842e-01   
4.050000000000000e+09    4.908208734042164e-01    -8.677085016518791e-01   -5.731241675278536e-05   2.342531309108872e-05    6.627346401031759e-05    -5.362064700762293e-05   4.775229748491356e-01    -8.692899149936669e-01   
4.051000000000000e+09    4.896190143799627e-01    -8.685820106628920e-01   8.733376544845873e-07    6.023869781931037e-05    -1.251658118598645e-04   6.549468601524689e-05    4.772161580783171e-01    -8.699555783223536e-01   
4.052000000000000e+09    4.884213632325880e-01    -8.691996379119198e-01   -3.499024661354361e-06   -1.244345028887574e-04   9.445412628533896e-05    8.880531756235035e-05    4.770854219039571e-01    -8.703965238052893e-01   
4.053000000000000e+09    4.873134275555053e-01    -8.700492515013126e-01   -1.469202123184854e-04   -4.794726770937131e-06   -3.133768236064996e-05   -9.949540963383068e-05   4.769316301059556e-01    -8.710909500792208e-01   
4.054000000000000e+09    4.864518706045694e-01    -8.708973464544734e-01   -4.266728440342953e-07   2.032202356824289e-04    -6.725763743256280e-05   2.552806754751380e-05    4.768517026541039e-01    -8.714082906945152e-01   
4.055000000000000e+09    4.858137025808929e-01    -8.713447633525118e-01   -1.400686138521681e-04   6.216021569897253e-05    8.417934707930907e-05    -9.654053278646457e-05   4.765983658781288e-01    -8.720005325612540e-01   
4.056000000000000e+09    4.846632951096695e-01    -8.724088414395847e-01   -3.444026425303153e-06   1.510017580988059e-05    8.172607497341419e-06    1.387863619001903e-04    4.764598550856034e-01    -8.724095667640849e-01   
4.057000000000000e+09    4.838023276191178e-01    -8.732666434635801e-01   -5.922054738806751e-06   4.073301457346880e-05    1.237354935978466e-04    -1.225725358785134e-04   4.761628073594622e-01    -8.726687322622003e-01   
4.058000000000000e+09    4.828473804402436e-01    -8.739512148048981e-01   -1.065557679895036e-04   -3.145216626740144e-05   5.746633734584555e-05    1.329173131075192e-04    4.762316120594651e-01    -8.728066404192319e-01   
4.059000000000000e+09    4.818828155714693e-01    -8.748220564582494e-01   1.072806474151729e-05    -5.063631263840528e-05   1.653184493837650e-04    -8.867971584708295e-06   4.761039584867578e-01    -8.732665322572718e-01   
4.060000000000000e+09    4.812024888996959e-01    -8.757382683257208e-01   -1.572337192485220e-05   -2.709970774523710e-05   -8.570878863301044e-05   -1.284304018017844e-04   4.756629557349071e-01    -8.733371054797862e-01   
4.061000000000000e+09    4.807802556578983e-01    -8.761320234994563e-01   -2.410505714596326e-04   1.397504343845252e-04    -8.233855840775070e-05   -1.469475766212218e-04   4.759173994711544e-01    -8.733037621721658e-01   
4.062000000000000e+09    4.799449043565746e-01    -8.773033129200304e-01   1.836000470499301e-05    -6.495222319366175e-05   -9.183701518239024e-05   4.212110705295291e-05    4.757495010855761e-01    -8.732660360190753e-01   
4.063000000000000e+09    4.794017209211553e-01    -8.781337703348291e-01   1.645644508122165e-04    5.477307342700270e-05    3.931551959472647e-05    -1.793818272638308e-04   4.755359183861834e-01    -8.731204670952971e-01   
4.064000000000000e+09    4.787053337092004e-01    -8.787155596049291e-01   -5.755818613053807e-05   1.399283711141478e-04    1.757203336330392e-04    1.349264901745539e-05    4.753481574204210e-01    -8.732067422272529e-01   
4.065000000000000e+09    4.779202555705405e-01    -8.795509104861139e-01   -5.578568212271641e-05   1.014325439722417e-04    1.553953634334562e-04    -1.296191177241351e-04   4.751498619401942e-01    -8.726385505749382e-01   
4.066000000000000e+09    4.774432807422767e-01    -8.805588891056252e-01   -4.647040603335248e-05   -2.247748171891925e-06   1.646163311963495e-04    -7.055713387673824e-05   4.746075549222044e-01    -8.727309849892845e-01   
4.067000000000000e+09    4.767513132875645e-01    -8.811593670496259e-01   -1.290553860620422e-04   1.257148405546128e-04    1.388625756652995e-04    -2.998287183113037e-05   4.742511023929358e-01    -8.722531817330174e-01   
4.068000000000000e+09    4.760458463439354e-01    -8.816735012820636e-01   1.962757807042371e-05    -4.462162509670749e-05   -8.726559201216398e-05   -1.019915024521395e-04   4.736647772543621e-01    -8.721083369641711e-01   
4.069000000000000e+09    4.754381719102488e-01    -8.829071961366723e-01   3.174972865434510e-05    -4.331388233995522e-05   7.300205601761445e-06    -3.714317118969024e-06   4.732013005965770e-01    -8.718498662321724e-01   
4.070000000000000e+09    4.750024680593199e-01    -8.834066547458234e-01   -1.225671086591041e-04   -1.938430808842652e-04   -5.076151561913040e-05   -9.079595087669459e-05   4.725934137920131e-01    -8.714023889174178e-01   
4.071000000000000e+09    4.742735590437313e-01    -8.838343618324042e-01   -1.141650767338156e-04   -3.560989829298343e-05   -8.604749056483905e-05   -4.574032052936342e-05   4.719396478276880e-01    -8.711427226487815e-01   
4.072000000000000e+09    4.736382638205223e-01    -8.847473626976061e-01   -5.820001468442365e-05   1.572538564149125e-04    1.542377588900750e-05    -9.216533692464297e-05   4.711829309582403e-01    -8.708348650021125e-01   
4.073000000000000e+09    4.734496561260780e-01    -8.853715976306329e-01   -6.407886916865535e-05   -6.911391804228308e-05   2.304835965648989e-07    1.319005714776819e-04    4.703885054225931e-01    -8.705020161095747e-01   
4.074000000000000e+09    4.727490058926791e-01    -8.863110792043785e-01   -4.747517100818753e-05   -1.781706889773637e-05   -3.659917586952015e-06   1.199820142224526e-04    4.691474610395250e-01    -8.703400010887959e-01   
4.075000000000000e+09    4.721651439500536e-01    -8.871033395615386e-01   -7.408789544872072e-05   3.431881494566200e-05    1.151642137979442e-04    1.729874419592003e-05    4.685131186428452e-01    -8.699042154469573e-01   
4.076000000000000e+09    4.715161657399990e-01    -8.876597551552011e-01   3.178227277679203e-05    5.699267039716186e-05    -3.369707380574652e-05   -4.582159061776101e-05   4.676349896404295e-01    -8.696905707279801e-01   
4.077000000000000e+09    4.709605822444359e-01    -8.883934393397032e-01   9.536948131112114e-05    -7.961440829923538e-05   -7.655643848463387e-05   6.510846635686277e-05    4.659201951312842e-01    -8.695406619383111e-01   
4.078000000000000e+09    4.702459466328919e-01    -8.893824153502147e-01   4.419515453960149e-05    5.295966484536064e-05    2.625428008248738e-05    1.133343769695553e-04    4.649903326973215e-01    -8.688931044767746e-01   
4.079000000000000e+09    4.693402546214110e-01    -8.899852076193935e-01   -2.779671848217920e-05   2.966455606371268e-05    1.673716643768836e-04    -1.832616606760920e-04   4.635430521965292e-01    -8.690568562853408e-01   
4.080000000000000e+09    4.690244637402245e-01    -8.903955987768836e-01   2.203099130571238e-05    -6.226817932290610e-05   7.527549472158978e-05    2.593373098321072e-05    4.622695968893857e-01    -8.689763839968485e-01   
4.081000000000000e+09    4.685082379761945e-01    -8.911649811085083e-01   -9.719516455850291e-05   6.861636184690825e-05    -1.040290004380272e-05   8.877965343283656e-05    4.606160071993377e-01    -8.686270689079688e-01   
4.082000000000000e+09    4.680852849860064e-01    -8.914315543926274e-01   1.399537787634866e-04    3.984511015166526e-05    4.306126259983849e-05    -1.573700274615400e-04   4.592827813294817e-01    -8.687173435322475e-01   
4.083000000000000e+09    4.671416421238055e-01    -8.922037460025335e-01   1.395930584109243e-04    1.515668932264460e-04    3.689729416317762e-05    -5.822370844187915e-05   4.576077857833996e-01    -8.687157622674331e-01   
4.084000000000000e+09    4.666053632292701e-01    -8.931680835186709e-01   1.232684341482702e-04    3.896803814105311e-05    -7.956587240222671e-05   9.754509759485120e-05    4.558858345235753e-01    -8.689397896141919e-01   
