[Version] 2.0
! Rohde & Schwarz Vector Network Analyzer
! Rohde-Schwarz,ZNL20-2Port,1323001220200009,1.71.1.10-23.02.1.238
! 
! Port Assignments:
! Nominal Port -> Actual Test Port
! --------------------------------
!   1 -> 1
!   2 -> 2

! Created: GMT+2 2025-01-17 12:06:35

# Hz S RI R 50

[Number of Ports] 2
[Two-Port Data Order] 21_12
[Number of Frequencies] 16001

[Network Data] 
! freq[Hz]               S11[Re]                  S11[Im]                  S21[Re]                  S21[Im]                  S12[Re]                  S12[Im]                  S22[Re]                  S22[Im]                  
4.000000000000000e+09    5.549421971090706e-01    -8.370149323363614e-01   1.664734595154744e-04    1.107750730621965e-05    1.612166970550483e-05    4.898746089890861e-05    5.390124101199282e-01    -8.152455948315319e-01   
4.001000000000000e+09    5.537500414279940e-01    -8.376865728374582e-01   5.462416202607311e-05    2.123400138850288e-06    5.526154610268269e-05    5.996479999597474e-05    5.369408165217739e-01    -8.164060960962147e-01   
4.002000000000000e+09    5.521938875575220e-01    -8.384171771774515e-01   1.842658037441240e-05    -1.810666051644487e-04   -1.451614335481934e-04   4.088564491803048e-05    5.347662337750244e-01    -8.172132350078440e-01   
4.003000000000000e+09    5.512753100196836e-01    -8.398295453696487e-01   5.927351448704017e-05    -9.759854267308284e-05   2.759282055182585e-05    -1.293874674373869e-04   5.326405775876143e-01    -8.183444030428756e-01   
4.004000000000000e+09    5.499820676146941e-01    -8.401942017422641e-01   -5.811727610435813e-05   -4.686532904728651e-05   -1.184699423611818e-04   1.661689340742100e-05    5.305395028740435e-01    -8.195803088801382e-01   
4.005000000000000e+09    5.488110452379400e-01    -8.412189901492101e-01   2.009548254415978e-05    -1.270290820165738e-05   -2.407139035683738e-05   -1.419593225613834e-04   5.288573824037343e-01    -8.204851169995396e-01   
4.006000000000000e+09    5.474671646133199e-01    -8.418383582259273e-01   -6.790065169293877e-05   2.910965305551114e-05    1.956811310041911e-04    1.105911149442302e-04    5.263171170622111e-01    -8.215736159571015e-01   
4.007000000000000e+09    5.463806369629792e-01    -8.427983312866271e-01   -1.470381198581210e-04   1.588441390283588e-04    7.604350622890871e-06    -2.442109494491222e-05   5.243231015960328e-01    -8.228219472072437e-01   
4.008000000000000e+09    5.447731459155162e-01    -8.436819708938348e-01   -1.753323085878387e-04   1.230539452146231e-04    -1.690474690407263e-04   -2.322281303850782e-05   5.224952612874649e-01    -8.240397707652677e-01   
4.009000000000000e+09    5.435753798974876e-01    -8.444340605455621e-01   -6.149570036981764e-05   -9.601796404644806e-05   -6.661764810108737e-06   -6.057334080133781e-05   5.205126883491359e-01    -8.251668915717680e-01   
4.010000000000000e+09    5.424861695460111e-01    -8.451569620409861e-01   1.227195614869222e-04    -2.812760184218629e-06   1.309467313452880e-04    -1.515295529694379e-04   5.183296551281228e-01    -8.267781004336623e-01   
4.011000000000000e+09    5.409935124950732e-01    -8.459907681098826e-01   -1.133428929420151e-04   1.062357569178507e-05    -2.611774953082020e-05   3.367589316612418e-05    5.165976150763403e-01    -8.280047357946378e-01   
4.012000000000000e+09    5.395982721180362e-01    -8.467299119570990e-01   -1.220113040396265e-04   -7.142731236613138e-05   1.208480048412915e-04    1.120813191227596e-04    5.147641394214477e-01    -8.292004765188852e-01   
4.013000000000000e+09    5.382931022029719e-01    -8.475175239460977e-01   5.115870009913624e-05    -7.318148127109531e-05   -2.629949503531760e-05   -3.912153791371173e-05   5.128192658268574e-01    -8.307174985564615e-01   
4.014000000000000e+09    5.371676251619063e-01    -8.476679576151630e-01   -1.049316829362159e-04   4.654528410564542e-05    -8.060648195107233e-05   -2.817334015885744e-05   5.112726620258361e-01    -8.320717577323317e-01   
4.015000000000000e+09    5.360709895714469e-01    -8.484669658359665e-01   1.321660661340631e-04    2.446085005578845e-04    -1.005668118809354e-04   -5.981316897093280e-05   5.094215865200832e-01    -8.335818178787484e-01   
4.016000000000000e+09    5.345863798857680e-01    -8.494266175001313e-01   3.519972509915886e-05    7.795079761886998e-05    -1.177570172033842e-04   -4.895332108670248e-05   5.080942274290257e-01    -8.352707703560558e-01   
4.017000000000000e+09    5.334536556439716e-01    -8.498678884748602e-01   -2.954322799583812e-06   -1.072600696240415e-04   2.124579125277787e-05    -1.335409122671169e-05   5.063877256597443e-01    -8.363246261921302e-01   
4.018000000000000e+09    5.319340101689567e-01    -8.509001771848222e-01   1.351522350220041e-04    1.712195468930316e-04    3.061641320279291e-04    9.549268762425602e-05    5.047882213510773e-01    -8.376684687802060e-01   
4.019000000000000e+09    5.307736145228292e-01    -8.511054544450556e-01   6.563252508713123e-06    1.107255578360621e-05    8.439595313035324e-05    7.197110954690680e-05    5.030469018712679e-01    -8.387379020786191e-01   
4.020000000000000e+09    5.295111819339825e-01    -8.514182159295379e-01   -2.158912871084649e-06   -1.257847723974598e-04   7.032380662044050e-05    -2.851313755242747e-05   5.017336242527445e-01    -8.405350606827779e-01   
4.021000000000000e+09    5.283276440638283e-01    -8.520789306942184e-01   -1.691747358744938e-04   4.928703212418735e-05    -2.165246643583837e-05   1.350748325566188e-04    5.001543413292084e-01    -8.415603197725841e-01   
4.022000000000000e+09    5.269608645704434e-01    -8.527980379658084e-01   1.501166720043120e-05    -2.445729079468291e-04   4.901442770749510e-05    1.509910274337471e-04    4.992340870860399e-01    -8.429611192164910e-01   
4.023000000000000e+09    5.259080788268100e-01    -8.533154775044375e-01   6.801847066738526e-05    -2.639280939282916e-04   3.346135800414136e-05    7.743785235729587e-05    4.977867128802060e-01    -8.443917872363774e-01   
4.024000000000000e+09    5.243715599761770e-01    -8.536621816133745e-01   1.275816015672448e-05    -1.605929156476163e-04   5.163653721397524e-05    5.870970347914301e-06    4.965359345510343e-01    -8.451973934755767e-01   
4.025000000000000e+09    5.232654030878658e-01    -8.540000430261067e-01   -1.283407030811187e-05   1.675037842861837e-04    -6.178046012214619e-05   4.884976021552649e-05    4.955299339548117e-01    -8.465137139552837e-01   
4.026000000000000e+09    5.217603871798305e-01    -8.544568856026532e-01   -6.017824794971919e-05   1.301806359604432e-05    -2.105916838345123e-04   -7.856019200146892e-06   4.941896474442158e-01    -8.479157604878488e-01   
4.027000000000000e+09    5.205177074422555e-01    -8.551379990605994e-01   4.849168466904053e-05    -4.758400802610700e-05   -3.664140183763016e-05   -1.015098337099057e-04   4.930927490584727e-01    -8.488053032223630e-01   
4.028000000000000e+09    5.193810011139732e-01    -8.554186990698794e-01   8.991491247196656e-05    -6.459176201320111e-05   9.042755438157624e-05    -6.044955712985400e-05   4.917965577093182e-01    -8.498899246487451e-01   
4.029000000000000e+09    5.179916135789174e-01    -8.561157653277487e-01   -1.748546867888226e-04   -1.417276233648421e-05   1.999660341880210e-04    1.709622708518558e-06    4.911663653894645e-01    -8.509420379762571e-01   
4.030000000000000e+09    5.164117576721153e-01    -8.562901531474159e-01   2.922257098894233e-05    -4.765385453757613e-05   8.886757150692395e-05    -1.586214206661352e-05   4.900511481391516e-01    -8.524098888303752e-01   
4.031000000000000e+09    5.151826687332833e-01    -8.568298779867322e-01   2.234568789827880e-04    5.647742316610960e-05    -1.271850524708352e-04   -5.613076959669040e-05   4.891969951746465e-01    -8.530690781675558e-01   
4.032000000000000e+09    5.139761800343418e-01    -8.573685544929510e-01   -1.576543936204106e-05   -1.633925565487285e-04   5.852785691596592e-05    1.373754554819086e-04    4.882213045184505e-01    -8.543392824635224e-01   
4.033000000000000e+09    5.125359258979900e-01    -8.574086848702930e-01   -6.570678570257745e-05   6.470833489258384e-05    -1.674390899098872e-04   -5.693231736016089e-05   4.873848699157963e-01    -8.550364411597489e-01   
4.034000000000000e+09    5.111743880645589e-01    -8.579107411868717e-01   -6.467829457217563e-05   -3.211877952475581e-05   -6.138820081417322e-05   1.155070671763483e-05    4.864749693095495e-01    -8.559784079571957e-01   
4.035000000000000e+09    5.097500821278341e-01    -8.586216623133108e-01   1.043374580000855e-04    3.795174559034182e-05    1.158357712757897e-04    5.019819259376385e-05    4.858522727931853e-01    -8.571742059693259e-01   
4.036000000000000e+09    5.084231211109873e-01    -8.590350615294704e-01   -7.807433817307136e-05   7.672464685403346e-05    6.724134321552354e-06    -3.781686981874046e-05   4.851832830278339e-01    -8.578075419173153e-01   
4.037000000000000e+09    5.068150139238561e-01    -8.592970910164619e-01   -1.892940208308758e-05   -1.093556651450603e-04   6.992055670765237e-05    4.698855120571262e-05    4.843170979869306e-01    -8.588557586139667e-01   
4.038000000000000e+09    5.056958842066860e-01    -8.597987280338778e-01   1.080317687261132e-04    -1.799379433730045e-04   -3.127596144709151e-05   -2.699969317525252e-05   4.836689072213556e-01    -8.596016295644816e-01   
4.039000000000000e+09    5.042276315109643e-01    -8.602285972161856e-01   -2.818402393070857e-05   -7.203184507673978e-05   -2.300310781752145e-05   1.503470200734010e-05    4.829507074221238e-01    -8.606931119344428e-01   
4.040000000000000e+09    5.029422669839241e-01    -8.607583543019370e-01   1.266733839553311e-04    3.629290833842561e-05    -1.659456322288869e-04   6.675235887905165e-05    4.820443717703817e-01    -8.616205094788213e-01   
4.041000000000000e+09    5.015917345374014e-01    -8.614432072193073e-01   -7.841270740648968e-05   -5.301815636466757e-05   -6.026348587754617e-05   -3.635326560557545e-05   4.815813822940768e-01    -8.626026024509238e-01   
4.042000000000000e+09    5.001386323243271e-01    -8.618840908943081e-01   2.347307296355817e-05    7.530654461874107e-05    2.609274962698067e-05    -6.801861368054248e-05   4.810672676254256e-01    -8.632381885969398e-01   
4.043000000000000e+09    4.987928226163088e-01    -8.627430398544564e-01   4.870396973475950e-05    -1.393224078327420e-05   -6.222108238738396e-05   -1.957622830908595e-07   4.804099350629010e-01    -8.639930647383023e-01   
4.044000000000000e+09    4.977359758697480e-01    -8.631889655730773e-01   -8.093924403245384e-05   1.345513000762733e-04    8.355276005698027e-05    7.004896157333484e-05    4.799213100218768e-01    -8.649438401256823e-01   
4.045000000000000e+09    4.963903597342654e-01    -8.640161662245311e-01   -4.007042487820046e-05   -1.974655679768888e-04   -3.505269583634626e-05   1.900724229891043e-04    4.794859775554889e-01    -8.659275472843242e-01   
4.046000000000000e+09    4.952150816205754e-01    -8.649078169187129e-01   -8.643134168564569e-06   7.541672959975614e-05    -1.822505891855779e-04   -4.291618519499358e-05   4.790793511839188e-01    -8.664774517995433e-01   
4.047000000000000e+09    4.939132805217366e-01    -8.655034726874479e-01   -1.523934568507642e-04   -1.557972387913283e-04   -1.308065305956401e-04   -1.001680156498710e-04   4.786774604679696e-01    -8.672212063596396e-01   
4.048000000000000e+09    4.928188673285592e-01    -8.662980753766130e-01   7.060914942696191e-05    -1.030639786047678e-04   9.443031941932029e-05    -7.356632199569068e-05   4.784108939544146e-01    -8.679841659390818e-01   
4.049000000000000e+09    4.917654314834872e-01    -8.669914038714379e-01   2.435710561246123e-04    -5.820104860275447e-05   -8.011334604133202e-05   2.111953732779266e-04    4.779212937064419e-01    -8.685641325750437e-01   
4.050000000000000e+09    4.906434990040190e-01    -8.677060468578556e-01   -3.922881173179128e-05   1.211352770409211e-04    6.192541562868101e-05    7.518280290415736e-05    4.774823802695627e-01    -8.691372600545646e-01   
4.051000000000000e+09    4.896287069215182e-01    -8.682870925091706e-01   3.426783642785374e-05    1.714241457207820e-04    -1.557489342536723e-04   -1.678152033181276e-04   4.770563887049093e-01    -8.697587582975370e-01   
4.052000000000000e+09    4.885989571682076e-01    -8.693971504432183e-01   1.750945171697509e-04    -6.056990946444408e-05   -5.941284010719076e-05   1.052374122538606e-04    4.769906879294366e-01    -8.703451086488346e-01   
4.053000000000000e+09    4.873364085575941e-01    -8.700431084584399e-01   5.858037350729303e-05    1.104819648934229e-04    -2.112674568490421e-04   -1.211119147944440e-04   4.771099246165735e-01    -8.709211761946454e-01   
4.054000000000000e+09    4.866202562735312e-01    -8.708239130814075e-01   -1.600331763407632e-04   -4.359153104474587e-06   1.199854578833295e-05    1.294830204905671e-05    4.766012798203610e-01    -8.714136841804205e-01   
4.055000000000000e+09    4.859703175190425e-01    -8.715578163640185e-01   -9.971851204861393e-05   -1.618352283998025e-04   1.213413723582021e-04    1.442694309626687e-04    4.765500718726656e-01    -8.719684559947555e-01   
4.056000000000000e+09    4.849338509127263e-01    -8.724820537022799e-01   -6.081288716112793e-05   -1.531199331161176e-04   -3.728377831696960e-05   -8.610158324932406e-05   4.764545328173745e-01    -8.722895156669079e-01   
4.057000000000000e+09    4.838114586564472e-01    -8.731530112580642e-01   1.091267032217969e-05    1.932562655430563e-04    6.940742523548055e-06    -4.644909891502036e-05   4.763836658901781e-01    -8.725604269848913e-01   
4.058000000000000e+09    4.827935366344346e-01    -8.740036984347120e-01   4.494457579074325e-05    6.785695919192173e-05    -9.913778691779214e-05   -5.722284289397293e-05   4.763787627058283e-01    -8.727873461266545e-01   
4.059000000000000e+09    4.821059390703717e-01    -8.747954468527609e-01   -6.519067720204305e-05   -1.139371464669523e-04   -7.989177972184288e-06   -6.210999216274506e-06   4.759692212064917e-01    -8.732284208405664e-01   
4.060000000000000e+09    4.814955670332022e-01    -8.756738469657833e-01   2.004600074349017e-04    -3.015753212745590e-05   1.651662214533850e-05    3.817163011854545e-05    4.761557049011118e-01    -8.729427771602675e-01   
4.061000000000000e+09    4.807023343137301e-01    -8.763498753018033e-01   1.633372390358138e-05    1.402262674071183e-04    1.104486317551290e-05    -9.813528875310626e-05   4.757193977084176e-01    -8.730714709760775e-01   
4.062000000000000e+09    4.801978339020649e-01    -8.770671645269754e-01   -5.272692739395914e-05   -9.834885772521862e-05   -1.040628486402203e-05   -4.054091612491187e-05   4.759461172238310e-01    -8.730517472668149e-01   
4.063000000000000e+09    4.793518717080468e-01    -8.782568211387891e-01   -2.366485750895130e-05   4.721543895594925e-05    -8.314773515602195e-05   1.418921852554805e-04    4.752876135784994e-01    -8.729581249921879e-01   
4.064000000000000e+09    4.785964776090106e-01    -8.788606726328043e-01   1.286707537597413e-05    8.802206010192114e-05    1.668440958364053e-04    7.242989266890029e-05    4.754787745799498e-01    -8.727359805213381e-01   
4.065000000000000e+09    4.779973661109002e-01    -8.796134097296694e-01   -7.112805721182932e-05   -2.064140462021230e-05   4.346580485379276e-06    -4.838717833992657e-05   4.751798669791117e-01    -8.727522201972489e-01   
4.066000000000000e+09    4.773296841789255e-01    -8.804451015470620e-01   1.305463452304344e-04    2.648941143584985e-05    -6.224351059459926e-05   -4.508385699427466e-05   4.748214360333415e-01    -8.727512915461635e-01   
4.067000000000000e+09    4.767135243588761e-01    -8.811847165273429e-01   -1.962187397372254e-04   -2.377817323756326e-05   -3.580640567629277e-05   -1.341341076869615e-04   4.742024891976799e-01    -8.721710891488471e-01   
4.068000000000000e+09    4.762090298617975e-01    -8.818904821507143e-01   -1.764569444022956e-05   2.801649381970244e-05    -1.599577063240261e-04   -1.296772440393276e-05   4.739352390710717e-01    -8.719233031489214e-01   
4.069000000000000e+09    4.754679883378142e-01    -8.828482360608428e-01   -1.758784617518955e-04   -5.719260283926508e-05   1.037062286207311e-04    1.608491647087402e-04    4.732497651023967e-01    -8.717969586644069e-01   
4.070000000000000e+09    4.748180008839124e-01    -8.833602709969340e-01   -1.304192707722605e-04   7.407267795051299e-05    3.740959323926441e-05    -5.496343165881782e-05   4.727503185326457e-01    -8.712824303486210e-01   
4.071000000000000e+09    4.744186068313532e-01    -8.842039578899118e-01   1.541764241624519e-05    7.192810239539186e-06    2.785325173134115e-05    -1.927409432163150e-04   4.721125799225102e-01    -8.713936493210109e-01   
4.072000000000000e+09    4.740019052780322e-01    -8.851400214691392e-01   -2.549433800147811e-04   -6.405390540857979e-05   -4.195859783756580e-05   -4.412063761349816e-05   4.711867696720358e-01    -8.707540732647716e-01   
4.073000000000000e+09    4.732545039605160e-01    -8.850169575873915e-01   -2.086784508128673e-05   -2.265136885449166e-05   -1.873336915721896e-05   3.860926276242455e-05    4.703054853016911e-01    -8.703593668945006e-01   
4.074000000000000e+09    4.724348874217183e-01    -8.860623894045574e-01   -1.600015954009804e-04   -4.284419784560182e-05   6.215861093176458e-05    -5.166107933606158e-05   4.694278278655848e-01    -8.702477701307312e-01   
4.075000000000000e+09    4.721320946223850e-01    -8.869975384371293e-01   -1.315870249493069e-04   2.325179006907405e-05    6.686843804176452e-05    -1.797493374492347e-05   4.684212982495679e-01    -8.697988460548560e-01   
4.076000000000000e+09    4.715144620654182e-01    -8.873350814969836e-01   -1.229984585840005e-04   9.573849933219123e-05    6.246871461767768e-05    -2.580869983388464e-05   4.678182942364947e-01    -8.694246017359852e-01   
4.077000000000000e+09    4.709174246857659e-01    -8.883432417225173e-01   1.113693262850595e-05    -1.260568662590219e-06   2.537647833994957e-05    -5.818528173646633e-05   4.661486897879650e-01    -8.692654349674441e-01   
4.078000000000000e+09    4.705184010413256e-01    -8.891542632465834e-01   3.111474202755909e-05    -5.356122443041496e-05   -1.481794899629397e-04   7.070698909138112e-05    4.652163436601064e-01    -8.686575481525416e-01   
4.079000000000000e+09    4.697559104944604e-01    -8.898998935614880e-01   1.738509577065595e-04    -6.261315958074959e-05   2.239884201688098e-04    -3.985935921515596e-05   4.638227009391324e-01    -8.691213519822857e-01   
4.080000000000000e+09    4.691410169813516e-01    -8.901247009080593e-01   2.071048014601857e-05    8.598944821629009e-05    -4.696027565712835e-05   3.693177404602335e-05    4.622333761083048e-01    -8.687265795052287e-01   
4.081000000000000e+09    4.685942239699574e-01    -8.910553500555967e-01   -1.656811049313394e-04   -1.151890168191196e-06   1.723410651129223e-04    3.791549731580128e-05    4.608522170263388e-01    -8.687577242119600e-01   
4.082000000000000e+09    4.682300950106613e-01    -8.912328886969529e-01   1.355726769370326e-04    -1.630659998215948e-04   2.379078837040683e-04    1.626159654222468e-04    4.592177935728970e-01    -8.688143960495160e-01   
4.083000000000000e+09    4.670656618636082e-01    -8.926964317869682e-01   4.059359814950711e-05    -4.407818779511793e-05   2.237299926739045e-05    5.033601336538194e-06    4.575619929870238e-01    -8.686460286524457e-01   
4.084000000000000e+09    4.670140106023796e-01    -8.926113905427272e-01   -1.337191411765807e-05   9.747044476458985e-05    1.161266914042591e-04    -1.041672709752229e-04   4.559477585073566e-01    -8.691074263452206e-01   
