[Version] 2.0
! Rohde & Schwarz Vector Network Analyzer
! Rohde-Schwarz,ZNL20-2Port,1323001220200009,1.71.1.10-23.02.1.238
! 
! Port Assignments:
! Nominal Port -> Actual Test Port
! --------------------------------
!   1 -> 1
!   2 -> 2

! Created: GMT+2 2025-01-17 12:09:53

# Hz S RI R 50

[Number of Ports] 2
[Two-Port Data Order] 21_12
[Number of Frequencies] 16001

[Network Data] 
! freq[Hz]               S11[Re]                  S11[Im]                  S21[Re]                  S21[Im]                  S12[Re]                  S12[Im]                  S22[Re]                  S22[Im]                  
4.000000000000000e+09    5.542591186531037e-01    -8.373479028416063e-01   -2.861541315511304e-05   1.866732076373322e-04    2.709227801590143e-06    1.195740654840282e-04    5.391444026459207e-01    -8.151437560421645e-01   
4.001000000000000e+09    5.535085249638181e-01    -8.379000431883080e-01   -6.005585872840898e-05   -1.920728003637724e-04   6.198199333985304e-05    -3.864130367360850e-05   5.368094908182839e-01    -8.164441250211492e-01   
4.002000000000000e+09    5.521739930127730e-01    -8.384844047272887e-01   1.396515183466335e-04    1.265105018066675e-04    -1.720377708193844e-04   -4.995761546780780e-05   5.347418913021342e-01    -8.172961101152612e-01   
4.003000000000000e+09    5.510682035214368e-01    -8.393267122548632e-01   -8.922343340671428e-05   -4.814354069090456e-05   1.018738940021939e-04    -1.475339604233780e-04   5.324812998969056e-01    -8.181837215968466e-01   
4.004000000000000e+09    5.497905293625371e-01    -8.404523833258150e-01   -1.377630731728582e-04   7.991100073363538e-05    3.905074326985912e-05    3.886492170458097e-05    5.304507947964801e-01    -8.194869104337783e-01   
4.005000000000000e+09    5.486935365572911e-01    -8.414001216173326e-01   1.000230648787635e-04    -1.226259060446732e-05   -4.494720058631210e-05   5.454609196420292e-05    5.286540088422939e-01    -8.204701586412722e-01   
4.006000000000000e+09    5.472464325799247e-01    -8.418566087059026e-01   1.949109973226876e-04    -5.485529375112936e-05   3.740116305990465e-05    1.491377671621472e-04    5.265982438776692e-01    -8.217536666306408e-01   
4.007000000000000e+09    5.461588999425762e-01    -8.425967157250276e-01   1.034534690160638e-05    -1.093522127360863e-05   -1.215742970682861e-04   -1.785179866145831e-04   5.245271459067627e-01    -8.228294981970383e-01   
4.008000000000000e+09    5.446710239169633e-01    -8.436422980734368e-01   4.987430187397868e-05    -4.241634124734464e-05   -1.135462739595229e-04   7.379331652631306e-05    5.224822508945449e-01    -8.240220353905391e-01   
4.009000000000000e+09    5.438469006087461e-01    -8.446582386438426e-01   2.463337239442769e-05    -1.203887178280533e-04   1.708219316105753e-04    6.010226863535332e-05    5.205912805518608e-01    -8.252048533399865e-01   
4.010000000000000e+09    5.426526606388028e-01    -8.455563669077889e-01   4.434041185367651e-05    -1.198941166124586e-04   2.776303657620783e-05    1.242755328268515e-05    5.184440861872945e-01    -8.267557779206255e-01   
4.011000000000000e+09    5.407946146908820e-01    -8.461512554121583e-01   -3.880652445745753e-06   9.401562372657218e-07    -2.099598920547380e-05   8.201725541293044e-05    5.169833965511350e-01    -8.280029584889991e-01   
4.012000000000000e+09    5.395587245702104e-01    -8.469737162906551e-01   1.411193078893095e-04    1.078764820706032e-04    -8.519260535214002e-05   8.626056289044078e-05    5.149180103219350e-01    -8.294916739989379e-01   
4.013000000000000e+09    5.383574854779050e-01    -8.476015609218464e-01   -7.257255693029293e-06   1.498638529104807e-04    1.333473603410435e-04    3.476527945972717e-05    5.131710681753332e-01    -8.305322823182999e-01   
4.014000000000000e+09    5.369678113659424e-01    -8.480692152298429e-01   6.940115522896574e-05    -1.380241476065690e-06   7.551168115925495e-05    -3.193315914082822e-05   5.111197132072409e-01    -8.323570917867480e-01   
4.015000000000000e+09    5.355329654408159e-01    -8.488468126641646e-01   -1.930259644982438e-04   2.111390146370062e-05    1.918864519492965e-05    9.212888797574512e-06    5.096011801115899e-01    -8.336064381636129e-01   
4.016000000000000e+09    5.345738398166049e-01    -8.498949668927341e-01   -2.205406510684370e-05   -1.004395209440877e-04   -1.476016927796078e-04   1.240401837000063e-04    5.079854047774781e-01    -8.351816212760284e-01   
4.017000000000000e+09    5.333990194478933e-01    -8.499424272594893e-01   -3.480067874290075e-06   1.640692987651886e-04    -7.915115250075384e-06   -1.358698424971445e-04   5.064744543275091e-01    -8.364300383258133e-01   
4.018000000000000e+09    5.319414517067920e-01    -8.508462883761173e-01   -1.163194973717541e-04   1.121390340695151e-04    -3.295351133459899e-05   3.652915137847123e-05    5.047754276301401e-01    -8.374575472803621e-01   
4.019000000000000e+09    5.307385715968393e-01    -8.512005991827036e-01   -2.981800068397151e-05   -1.030267926377268e-04   8.674324218118066e-05    -1.200611775056001e-04   5.033008649064188e-01    -8.391101058184932e-01   
4.020000000000000e+09    5.294939321416536e-01    -8.518390908757459e-01   2.566078922130141e-05    -3.396438972520533e-05   -1.294427360728556e-05   1.186817693908468e-04    5.017225542740035e-01    -8.403163715435965e-01   
4.021000000000000e+09    5.280156228827247e-01    -8.520011258522082e-01   -1.592055371351759e-04   -5.341416942342959e-05   9.141922497648951e-05    1.209616290308971e-04    5.005235242670555e-01    -8.412776099941879e-01   
4.022000000000000e+09    5.265901888446869e-01    -8.530552024367724e-01   -3.145495880060412e-05   -8.511670947957436e-05   -6.307305190981357e-06   5.764506606778688e-05    4.994027515206297e-01    -8.428546262742130e-01   
4.023000000000000e+09    5.255775532889612e-01    -8.534517016767620e-01   8.088428015171528e-05    -1.151323571251345e-04   -8.906706294935599e-05   -8.231435666190221e-05   4.979124868574901e-01    -8.438712880064523e-01   
4.024000000000000e+09    5.244471659759018e-01    -8.538398697816724e-01   1.155244766678884e-04    4.968736965812769e-05    3.227697553724166e-05    -2.412026354350558e-04   4.969505649694774e-01    -8.454586611675184e-01   
4.025000000000000e+09    5.230694119261514e-01    -8.542849032409703e-01   1.770242064935801e-05    6.374951954495071e-05    -5.445773281360419e-05   2.937142681651972e-05    4.955644106674952e-01    -8.465436387987396e-01   
4.026000000000000e+09    5.217215132485195e-01    -8.546569628779876e-01   9.469403509870008e-05    -2.209132759152779e-05   1.836528418153343e-05    -1.273010585255456e-04   4.942579849176943e-01    -8.477616726603495e-01   
4.027000000000000e+09    5.201939514206977e-01    -8.548104905690107e-01   2.162021185704582e-04    5.382554178365592e-05    -9.663352406642292e-06   8.198701652902094e-05    4.933150609580123e-01    -8.488055129672759e-01   
4.028000000000000e+09    5.193696910409147e-01    -8.555002538387881e-01   -9.510104055198699e-05   -2.610538438648001e-05   -7.450280766550381e-05   1.161604637173007e-04    4.920271940620095e-01    -8.501519921006493e-01   
4.029000000000000e+09    5.179612259108359e-01    -8.560179752567681e-01   -1.907857570154261e-05   -2.711419157054257e-05   2.996223853094948e-05    7.543857957165772e-05    4.914392846762188e-01    -8.510440016070374e-01   
4.030000000000000e+09    5.163464488507160e-01    -8.562996019124257e-01   5.894138341953481e-05    1.753251845402937e-05    1.403532044724225e-04    -4.924700503041649e-05   4.900994660851293e-01    -8.522140273326611e-01   
4.031000000000000e+09    5.151382361988355e-01    -8.568850745905287e-01   3.113971487765761e-05    -1.451709552556329e-05   7.597704612062655e-05    -8.489123602023447e-05   4.893764273767796e-01    -8.530129114167218e-01   
4.032000000000000e+09    5.140370814717751e-01    -8.572919259238844e-01   1.047105029553512e-04    -5.186505825237325e-05   -1.436859192006492e-04   1.578040310556975e-04    4.885039010349881e-01    -8.543387332027345e-01   
4.033000000000000e+09    5.125098119631162e-01    -8.578078616796171e-01   -1.480292415066734e-04   -1.534453106275025e-04   -3.795622252069822e-05   6.894521103099708e-05    4.875724370231265e-01    -8.551833283436376e-01   
4.034000000000000e+09    5.111355657364105e-01    -8.581253140101858e-01   1.029061383397911e-04    3.970495392872859e-05    -1.224613749681969e-04   1.095154262791709e-04    4.866733947962384e-01    -8.563210793401841e-01   
4.035000000000000e+09    5.098359526600654e-01    -8.586945927845390e-01   -1.373098256308714e-04   -1.509659170339477e-04   1.237010483400912e-04    -2.569902572966302e-04   4.857559092879830e-01    -8.571077331052979e-01   
4.036000000000000e+09    5.084778015229691e-01    -8.587668439325583e-01   7.352263480393707e-06    3.436338256921413e-06    2.773988338106486e-05    -2.145809448841672e-05   4.852433729514976e-01    -8.578543232003026e-01   
4.037000000000000e+09    5.069500160729655e-01    -8.593935772367225e-01   -7.645450496569458e-05   3.459337203268587e-05    2.652242685499559e-04    -1.001441450212850e-05   4.843718912936071e-01    -8.587697878344891e-01   
4.038000000000000e+09    5.054793942736576e-01    -8.598010386410591e-01   -1.711221901865659e-04   -5.726163602330232e-05   8.632237886591786e-05    9.390422585421221e-05    4.833857054477925e-01    -8.596941587409572e-01   
4.039000000000000e+09    5.042217596616545e-01    -8.603749934198575e-01   8.477933601992549e-05    -4.911810741844652e-06   2.798355611318401e-05    -3.316122234332027e-05   4.829730288791283e-01    -8.607607931655151e-01   
4.040000000000000e+09    5.031113390184520e-01    -8.608888462415928e-01   4.402195589586914e-05    -3.758974143413284e-05   -9.392753937241373e-05   1.192601307456224e-04    4.824621869760602e-01    -8.616459877309385e-01   
4.041000000000000e+09    5.014474265435559e-01    -8.614202486800878e-01   -9.815274380387077e-05   -1.976477321745925e-04   1.038292249016297e-04    6.480566834902191e-05    4.817951486621410e-01    -8.625337214560675e-01   
4.042000000000000e+09    5.002170933151691e-01    -8.622186382494669e-01   6.587397978935829e-05    2.304689304940881e-05    9.033482099788404e-05    -6.916700959443882e-05   4.812639692996991e-01    -8.632697897184697e-01   
4.043000000000000e+09    4.990403665906846e-01    -8.627236431793053e-01   -9.128152742680462e-05   -1.352495443334993e-04   -1.608503456638271e-04   9.295734565371341e-05    4.805292136450774e-01    -8.641140873637464e-01   
4.044000000000000e+09    4.974995101018114e-01    -8.633158962939894e-01   -1.701637777093334e-06   6.794461636880933e-05    1.567745536759039e-04    -1.948397750145799e-04   4.802745050534837e-01    -8.649323404580493e-01   
4.045000000000000e+09    4.963736636004792e-01    -8.638829421366704e-01   1.277993119749769e-04    3.538955706281433e-06    -4.590334793021818e-05   5.066308103380707e-05    4.792693188800913e-01    -8.658035512948002e-01   
4.046000000000000e+09    4.950773063231985e-01    -8.647337468371021e-01   -5.681469853910793e-05   -5.566665964314270e-05   -2.483069538567350e-05   -8.237796715557469e-06   4.789830793823399e-01    -8.661700677267781e-01   
4.047000000000000e+09    4.936675237914530e-01    -8.653335688715194e-01   -1.892287483137142e-05   -7.319387495279495e-05   1.374959869086479e-04    -1.563937057785041e-04   4.787328008334012e-01    -8.670837364281020e-01   
4.048000000000000e+09    4.926193882681680e-01    -8.662055882381231e-01   1.136231384696663e-04    2.359559001459197e-05    4.695938976307741e-05    -3.913509171817111e-05   4.783301663379198e-01    -8.680999610497671e-01   
4.049000000000000e+09    4.914044808490691e-01    -8.668464713453318e-01   -3.034289566517751e-05   1.601228738640520e-05    -2.721928454759504e-05   3.679377016661840e-05    4.779497424207946e-01    -8.686643833714203e-01   
4.050000000000000e+09    4.906145299946914e-01    -8.674062873485211e-01   -1.032087814668180e-04   1.313122170269216e-04    8.644899459053780e-05    4.625104934776879e-05    4.782045785301308e-01    -8.691694794161477e-01   
4.051000000000000e+09    4.896995067404257e-01    -8.683857044305903e-01   -2.961362143153761e-05   -8.865171662612361e-05   2.460276151469855e-05    -1.249681971021381e-04   4.773706764968422e-01    -8.695851196374933e-01   
4.052000000000000e+09    4.887131182499191e-01    -8.693939833066616e-01   -1.256201981306456e-04   -1.399096249589031e-04   -1.752446812195960e-04   1.346558477894809e-04    4.770699096959189e-01    -8.704475189850136e-01   
4.053000000000000e+09    4.875265756238976e-01    -8.699797235284786e-01   -6.784483383050724e-05   -7.537541230363854e-05   2.405760732284712e-06    -4.200550615062890e-05   4.769841331281312e-01    -8.707941142673014e-01   
4.054000000000000e+09    4.863243766468245e-01    -8.709237452793355e-01   -2.490410871889304e-05   1.509124542938560e-04    -1.179885292479768e-05   7.373991430567646e-06    4.768299631225603e-01    -8.713014874881733e-01   
4.055000000000000e+09    4.855154730654997e-01    -8.713630129748422e-01   -1.064008395077937e-04   -9.002967667242606e-06   1.833863288243406e-04    1.879478524292211e-04    4.768331503002611e-01    -8.717904103316462e-01   
4.056000000000000e+09    4.847811084318336e-01    -8.725432332590773e-01   -1.222640971711509e-04   1.086616069858108e-04    -1.846424252863441e-05   2.163335552929546e-04    4.764499037361145e-01    -8.721765593385167e-01   
4.057000000000000e+09    4.838946223952526e-01    -8.734182961878441e-01   -9.303688121708716e-05   1.197336095523693e-04    4.036107219532521e-05    4.223488727293550e-05    4.765020592445006e-01    -8.724418340219487e-01   
4.058000000000000e+09    4.829439475745710e-01    -8.739148051236495e-01   2.643754244246270e-05    3.653762298957350e-05    3.279787729134941e-05    7.291767227352822e-05    4.763986565628548e-01    -8.725599429954246e-01   
4.059000000000000e+09    4.820988244096112e-01    -8.749335534369580e-01   -7.500067024834785e-05   -1.615540798188422e-05   -2.017138097601745e-05   5.814727362540908e-05    4.763711789281349e-01    -8.729257131439505e-01   
4.060000000000000e+09    4.814686190910488e-01    -8.756753548491251e-01   3.477406191789459e-05    2.603295399626030e-05    1.884068539433345e-05    1.396657874581070e-04    4.761589424760807e-01    -8.730127207319588e-01   
4.061000000000000e+09    4.804577157664557e-01    -8.766243092056759e-01   -1.397579807891340e-05   1.231769520723937e-04    6.928246191133811e-06    9.030952461946464e-05    4.761801794950689e-01    -8.732630447703603e-01   
4.062000000000000e+09    4.799848066983147e-01    -8.769798126213875e-01   1.026026769089923e-05    -1.338403155468735e-05   -9.723457399254265e-05   -8.932097809192633e-05   4.758659682537686e-01    -8.731149342853647e-01   
4.063000000000000e+09    4.792420326127391e-01    -8.780078480498353e-01   -3.801604519301649e-05   1.708620247790442e-04    5.635886522140562e-05    1.009600612199508e-05    4.756445339506189e-01    -8.730919293876102e-01   
4.064000000000000e+09    4.784573875757999e-01    -8.788656797088821e-01   -5.539602279538884e-05   -1.397488111302394e-04   -6.427120500357637e-07   5.299027768653219e-05    4.754928599995776e-01    -8.729677996400950e-01   
4.065000000000000e+09    4.778114309093270e-01    -8.795026333852795e-01   2.095203965339238e-04    7.500231216110744e-06    -2.454028469134503e-05   1.590029301340126e-05    4.752701853918495e-01    -8.725978773602359e-01   
4.066000000000000e+09    4.772397712034508e-01    -8.804756979933733e-01   1.125563700577717e-04    -7.103752839488594e-05   -1.671070468833189e-05   -7.914956431973612e-05   4.749320798900608e-01    -8.726696575459199e-01   
4.067000000000000e+09    4.767910717810735e-01    -8.813313257188641e-01   4.966529668023166e-05    6.975328077311058e-05    5.247473298978821e-05    1.176389263068860e-04    4.744737180305481e-01    -8.722403747822202e-01   
4.068000000000000e+09    4.759094910546711e-01    -8.817207540789677e-01   6.388007451127843e-05    1.770220236024338e-04    -1.878727064761814e-05   -2.785488511802627e-05   4.739323504910837e-01    -8.716582568804254e-01   
4.069000000000000e+09    4.756514994711140e-01    -8.828152688564519e-01   -9.402655786551568e-06   -1.054970305860693e-04   -1.668739712730266e-04   1.633670479373239e-04    4.736180054991002e-01    -8.715725875557147e-01   
4.070000000000000e+09    4.748121409707500e-01    -8.832600825268632e-01   8.267854199343684e-05    9.911137194942686e-05    2.697416849013026e-05    -1.785686170057251e-04   4.729254010581755e-01    -8.713574892624375e-01   
4.071000000000000e+09    4.744126633378211e-01    -8.840718479799172e-01   1.903329246600438e-05    8.003804036026839e-05    -1.584052900292246e-04   -1.366720824468463e-04   4.721024696340339e-01    -8.710949260585630e-01   
4.072000000000000e+09    4.736773251400501e-01    -8.850157865769408e-01   -1.574543583392686e-04   -6.858465565740472e-05   5.922105456834737e-05    7.143908545698944e-05    4.713318983284235e-01    -8.705335974331199e-01   
4.073000000000000e+09    4.728389683243985e-01    -8.853882527961422e-01   5.882676347573724e-05    1.692305877120744e-04    -1.294152386989588e-04   1.439714683305190e-04    4.705832044655028e-01    -8.702413768089196e-01   
4.074000000000000e+09    4.724520061041304e-01    -8.859408133014866e-01   3.414671471725663e-04    1.027330822616856e-04    -1.537294029265746e-04   -1.335991604503526e-04   4.696828969195964e-01    -8.701302556747694e-01   
4.075000000000000e+09    4.719192200856600e-01    -8.874129013560073e-01   6.165690192156160e-05    2.896349668319211e-05    -1.366781448477760e-04   1.349487869564544e-05    4.684784616410553e-01    -8.698593508545747e-01   
4.076000000000000e+09    4.714019404788876e-01    -8.876169702576676e-01   5.629809010365247e-05    2.220663082310647e-04    -1.281072936188543e-05   -1.015923754155717e-04   4.677791426563158e-01    -8.696383462923308e-01   
4.077000000000000e+09    4.706233213923402e-01    -8.882893125077107e-01   -5.175544348907095e-05   -1.638034523511127e-05   -7.647357298241581e-05   -1.647285587738468e-04   4.662845686826925e-01    -8.690319708376878e-01   
4.078000000000000e+09    4.703549004157087e-01    -8.892977840990393e-01   2.005491844804370e-05    -9.709614995186070e-05   -4.977712284029071e-05   1.024040164881788e-04    4.651162740022657e-01    -8.691022380284853e-01   
4.079000000000000e+09    4.695528277177065e-01    -8.898546416232999e-01   1.874581307058442e-04    -8.291232845587689e-06   1.594809229853687e-05    -8.351235696628979e-06   4.638932727832170e-01    -8.687651352167227e-01   
4.080000000000000e+09    4.689622488746003e-01    -8.905105675404941e-01   2.252833026696908e-04    5.459735668793835e-05    -2.008855247243813e-05   8.270866176477806e-05    4.623173305278370e-01    -8.690404235186456e-01   
4.081000000000000e+09    4.684157939289895e-01    -8.911450542369912e-01   6.135573331338419e-05    9.231768975483661e-05    2.060050840004388e-04    1.038709598989043e-04    4.609289827927338e-01    -8.688763274360183e-01   
4.082000000000000e+09    4.679675106603226e-01    -8.915237831750424e-01   1.349118572421295e-04    8.896805671105312e-05    1.268345041590782e-04    1.658436321407446e-04    4.595518058519888e-01    -8.687833005538830e-01   
4.083000000000000e+09    4.670108838048719e-01    -8.925824920507370e-01   1.931708782259377e-04    1.077799908326516e-05    4.397826421405125e-07    -7.007433958907465e-05   4.577720143493694e-01    -8.686037745531616e-01   
4.084000000000000e+09    4.665107440420693e-01    -8.930241029896815e-01   -1.472466479645204e-04   2.727681405212500e-04    4.168107681878186e-06    1.565990441183607e-04    4.558954862702420e-01    -8.687078020362252e-01   
