[Version] 2.0
! Rohde & Schwarz Vector Network Analyzer
! Rohde-Schwarz,ZNL20-2Port,1323001220200009,1.71.1.10-23.02.1.238
! 
! Port Assignments:
! Nominal Port -> Actual Test Port
! --------------------------------
!   1 -> 1
!   2 -> 2

! Created: GMT+2 2025-01-17 12:10:11

# Hz S RI R 50

[Number of Ports] 2
[Two-Port Data Order] 21_12
[Number of Frequencies] 16001

[Network Data] 
! freq[Hz]               S11[Re]                  S11[Im]                  S21[Re]                  S21[Im]                  S12[Re]                  S12[Im]                  S22[Re]                  S22[Im]                  
4.000000000000000e+09    5.546610544173228e-01    -8.369620185937214e-01   1.357537086032408e-04    1.740978621913058e-04    -3.963690513701314e-05   -1.958492379561556e-05   5.382105942574135e-01    -8.155563438270560e-01   
4.001000000000000e+09    5.528554100866230e-01    -8.379981708156289e-01   3.160511957409587e-05    8.187709466037391e-06    -3.504277969623539e-05   1.993358210873765e-06    5.361969000584256e-01    -8.163353966179799e-01   
4.002000000000000e+09    5.519478967767567e-01    -8.389597642486792e-01   1.531880049679959e-05    -2.107023714004798e-04   8.202256997757299e-05    -3.926343267010772e-05   5.339219476524357e-01    -8.174258682908228e-01   
4.003000000000000e+09    5.508470606062353e-01    -8.398774410492459e-01   -3.386120473640853e-05   8.313546708709721e-06    -4.143508089427607e-05   1.905717230142851e-05    5.323840618015666e-01    -8.184144978805428e-01   
4.004000000000000e+09    5.496472084490827e-01    -8.406318734633396e-01   3.461422039070357e-06    1.242582068599280e-05    -8.876844824349240e-05   -4.714199050564430e-05   5.301623928171184e-01    -8.195754512397215e-01   
4.005000000000000e+09    5.483221598651368e-01    -8.416082691068321e-01   2.226567905267489e-04    7.190494989368923e-05    5.858188226020449e-05    -8.718972962618494e-05   5.282577019270215e-01    -8.205566308237187e-01   
4.006000000000000e+09    5.471595157137171e-01    -8.421928377315631e-01   2.792036646104993e-05    -6.158977308648857e-06   -2.633226516058766e-04   1.802950072072374e-04    5.256130966259478e-01    -8.217230809357479e-01   
4.007000000000000e+09    5.460387105719502e-01    -8.428670905920576e-01   -3.444334403965187e-05   -1.476488662051685e-04   8.490172515419859e-05    -1.143178910595934e-04   5.243009823396760e-01    -8.231591332706167e-01   
4.008000000000000e+09    5.441757128346895e-01    -8.440936120839063e-01   -2.978459058055855e-04   1.592621864237106e-04    -2.042502137475411e-05   -2.580964091804262e-05   5.219407392688413e-01    -8.243173533415551e-01   
4.009000000000000e+09    5.432610093070014e-01    -8.446653066616964e-01   4.179469881400327e-05    -1.197074987931727e-04   -8.366067852894018e-05   -1.611944208169353e-04   5.198322592341981e-01    -8.251274701516991e-01   
4.010000000000000e+09    5.418345305719954e-01    -8.454781234108977e-01   3.266047723600187e-05    -1.024863262842425e-05   6.258538019668936e-05    -6.577906134352055e-06   5.178199812210883e-01    -8.268725082190891e-01   
4.011000000000000e+09    5.406510283490241e-01    -8.462308964972882e-01   1.305947829114796e-04    4.760469058684552e-05    2.081485539035777e-04    1.047853434286412e-04    5.159464248520843e-01    -8.284378658132864e-01   
4.012000000000000e+09    5.393906388894024e-01    -8.472067220811320e-01   1.794372757852976e-04    -6.243718102284268e-05   -1.598211202769514e-04   -1.112415550416757e-04   5.144560591481031e-01    -8.297364388559222e-01   
4.013000000000000e+09    5.378953439612707e-01    -8.474364786936831e-01   1.049924235904713e-04    2.195086012338569e-05    6.730358125137017e-05    1.934441286283550e-05    5.128536445206691e-01    -8.309337212266368e-01   
4.014000000000000e+09    5.367560792253194e-01    -8.481517039396105e-01   -3.834777530665710e-05   -1.370590631341670e-04   4.788667156358080e-05    -6.048142883820727e-05   5.106066663369805e-01    -8.324429008001717e-01   
4.015000000000000e+09    5.356104757135950e-01    -8.491425396150241e-01   1.693189147169926e-04    6.296938730248506e-05    -1.261263657167515e-04   5.541011321867527e-05    5.092571375340229e-01    -8.335113691576267e-01   
4.016000000000000e+09    5.343929293732108e-01    -8.498246062121531e-01   -8.695449758993839e-06   7.650319933845779e-05    -5.256747048245929e-05   -1.000767391887671e-04   5.074381582894318e-01    -8.352816656616278e-01   
4.017000000000000e+09    5.330217038652102e-01    -8.502777658229691e-01   7.014332912183499e-05    2.089810145700594e-04    -1.884592236177532e-05   -1.654566368026801e-04   5.056318987861100e-01    -8.364131622297581e-01   
4.018000000000000e+09    5.319120590892115e-01    -8.509882937232133e-01   -5.046314861131653e-05   9.813031159216966e-07    2.748836503105942e-04    -5.486016328062777e-05   5.040898337042591e-01    -8.380206663348323e-01   
4.019000000000000e+09    5.303196708895018e-01    -8.512232695613899e-01   -5.632039689370112e-05   -7.570694845506394e-05   -7.721134255191983e-05   3.573459857413829e-05    5.028263182885533e-01    -8.393263696138921e-01   
4.020000000000000e+09    5.294499064580165e-01    -8.520111895099975e-01   1.876511187175749e-06    3.369164936446641e-05    1.324379171965552e-04    4.676673070498603e-05    5.014099980141956e-01    -8.403651311763916e-01   
4.021000000000000e+09    5.278882952890170e-01    -8.526006964937523e-01   6.094667873520238e-05    -2.892792228831458e-04   -1.703756233173322e-04   -4.098228395312186e-05   4.999143449995117e-01    -8.416398175731229e-01   
4.022000000000000e+09    5.265001893664548e-01    -8.531614220349985e-01   4.415842620002489e-05    3.718831551563880e-05    8.554181533163299e-05    1.565707694491170e-04    4.983232637858986e-01    -8.427050320711679e-01   
4.023000000000000e+09    5.255235210318467e-01    -8.535953689755055e-01   -2.061890217128034e-05   -2.244173870183626e-05   4.675150198247357e-05    8.386582264543582e-05    4.971978885301732e-01    -8.441815595059109e-01   
4.024000000000000e+09    5.242279421926256e-01    -8.542816663978572e-01   8.111066788490431e-05    -1.522079409356125e-05   4.117606082738678e-05    3.059050925586552e-05    4.960830063426131e-01    -8.455519362133186e-01   
4.025000000000000e+09    5.231915618484143e-01    -8.542015798015353e-01   1.687787927980062e-04    1.873724272412997e-05    -7.288314900994490e-05   1.577423565618288e-04    4.950512966375778e-01    -8.468038174124515e-01   
4.026000000000000e+09    5.214323295731168e-01    -8.551046687410123e-01   6.539288543383026e-05    -1.247171318341719e-04   -1.562123339219082e-04   -4.101523304210269e-06   4.936411820008749e-01    -8.481577939775723e-01   
4.027000000000000e+09    5.200085527351976e-01    -8.551415058085123e-01   9.693823487727877e-05    2.487111396615562e-04    1.027692694364877e-04    1.128552708370317e-04    4.923862711622947e-01    -8.488851919537612e-01   
4.028000000000000e+09    5.190287047170721e-01    -8.554402393705806e-01   1.016948387626339e-04    7.600158450459542e-05    -1.525221441125724e-04   6.364546675081275e-05    4.915737021514256e-01    -8.500481576947289e-01   
4.029000000000000e+09    5.175652665507035e-01    -8.561561801223193e-01   -6.791618631386606e-05   2.086768915676541e-04    1.790755437810421e-04    2.401554494697784e-04    4.905444530118890e-01    -8.513678684897559e-01   
4.030000000000000e+09    5.161890713586548e-01    -8.563626621771112e-01   -4.294875103364217e-05   -6.403131006970104e-06   -2.079202756036387e-04   4.211824589131318e-05    4.895907280888325e-01    -8.522973814895985e-01   
4.031000000000000e+09    5.151623445732668e-01    -8.571973755135089e-01   -5.891007270674366e-05   -3.016316520063113e-05   9.620768981328994e-05    -1.876404803419120e-04   4.885143427371761e-01    -8.534028404811582e-01   
4.032000000000000e+09    5.135556277633837e-01    -8.576166510129627e-01   6.902069166725430e-05    -9.084221775436003e-05   3.510053877403875e-05    -1.361743603020815e-04   4.878439290818872e-01    -8.545455472856024e-01   
4.033000000000000e+09    5.123080799030449e-01    -8.579123996164183e-01   5.424139312579575e-05    2.242442130239222e-05    -1.390195448187491e-04   1.033183375755366e-04    4.867866589331719e-01    -8.550566299755108e-01   
4.034000000000000e+09    5.109120688972812e-01    -8.580227486515333e-01   1.165137051450343e-04    3.205201756238642e-05    -1.168605468896252e-04   -4.978268763165343e-05   4.861423062172035e-01    -8.563426089015744e-01   
4.035000000000000e+09    5.094209508769535e-01    -8.586745665622225e-01   -5.346799791481934e-05   -1.090080947753249e-04   -3.337338289772460e-05   1.354008152961085e-05    4.853584886770338e-01    -8.569940381902043e-01   
4.036000000000000e+09    5.084398471939030e-01    -8.590203167317589e-01   -3.079748904353869e-05   -5.058488145915227e-05   -5.385149476626872e-05   -2.836143723178144e-05   4.845262209778441e-01    -8.578317764621473e-01   
4.037000000000000e+09    5.067915679942472e-01    -8.595398496086277e-01   6.565237260239933e-05    -8.003832665999263e-05   -1.672987279544964e-04   -1.187891019545089e-04   4.835129393294720e-01    -8.591209200721921e-01   
4.038000000000000e+09    5.055193532784594e-01    -8.600549443763432e-01   3.991285187591935e-05    4.176819260461056e-05    1.128192757183296e-04    -4.719058830605307e-06   4.831377196605188e-01    -8.598879679522642e-01   
4.039000000000000e+09    5.042404165114127e-01    -8.605145535258573e-01   -6.244647815150601e-05   4.005097493978399e-05    -1.780482755486285e-04   -5.728313517169163e-05   4.821610233886373e-01    -8.610639891788249e-01   
4.040000000000000e+09    5.029339330272554e-01    -8.610546942899059e-01   1.096395923274919e-04    2.396021916385529e-05    1.215483216527628e-04    -4.599436009334896e-05   4.814021438890345e-01    -8.614567227973505e-01   
4.041000000000000e+09    5.013095125999774e-01    -8.616094357266501e-01   -7.490630390275880e-05   4.267269051977671e-05    6.538373287507361e-05    3.725698230822505e-05    4.811584121463985e-01    -8.625704625630189e-01   
4.042000000000000e+09    5.001467794808748e-01    -8.623019514568688e-01   -1.228759915079061e-04   8.987568683938143e-05    1.651586410315226e-04    1.346506018085883e-04    4.807131595830490e-01    -8.635106377640497e-01   
4.043000000000000e+09    4.987002662651472e-01    -8.629082109508407e-01   -4.875427781473126e-05   -9.781000916683869e-05   -1.437155930570004e-04   -5.232640146194867e-05   4.800796175172637e-01    -8.640990595286679e-01   
4.044000000000000e+09    4.975246849868573e-01    -8.634655690140464e-01   -1.562087187531344e-04   -7.271124039791619e-05   1.306376336918496e-04    -5.504846521769947e-05   4.793454944400896e-01    -8.649782613434639e-01   
4.045000000000000e+09    4.961691488529850e-01    -8.640569736073199e-01   -2.288671742239435e-05   5.592424443358060e-05    -9.508861991483444e-05   3.104835522862309e-05    4.786807896595552e-01    -8.657503472735042e-01   
4.046000000000000e+09    4.948409136343949e-01    -8.649103983500269e-01   4.680473009640710e-05    1.200203373221995e-04    -1.665246162148349e-04   -9.650850059071071e-05   4.785113571648418e-01    -8.662848346650289e-01   
4.047000000000000e+09    4.935543421461248e-01    -8.657711269430881e-01   8.021035938855138e-05    -1.215241889531070e-04   -5.856171505289906e-05   -3.801094490101578e-05   4.780173532985365e-01    -8.669422918451495e-01   
4.048000000000000e+09    4.924938623845156e-01    -8.663835929507404e-01   4.794486147675018e-05    -1.071348099249222e-04   6.415354822018001e-05    -3.242307268930894e-05   4.778346529694958e-01    -8.680355090376097e-01   
4.049000000000000e+09    4.913470998656050e-01    -8.669929992858786e-01   1.769070470196259e-04    -7.897714331789560e-05   -5.639384259812603e-05   7.514934635273884e-07    4.774459139806877e-01    -8.688344866803379e-01   
4.050000000000000e+09    4.905216385991322e-01    -8.676997195761065e-01   3.064173917343736e-05    6.795334749473884e-05    2.000901813904059e-04    2.452835214338008e-05    4.771436545782058e-01    -8.693298007301381e-01   
4.051000000000000e+09    4.893393309879838e-01    -8.687596338287941e-01   -3.885567195843087e-05   6.118404086561176e-05    1.097641615933453e-04    -1.333751572190116e-05   4.767398054032743e-01    -8.696999733561351e-01   
4.052000000000000e+09    4.882701591245276e-01    -8.693937175145805e-01   1.611060864747947e-04    -6.385140785031381e-05   1.236897052471901e-04    1.021435865604846e-04    4.764719161266006e-01    -8.703677052211082e-01   
4.053000000000000e+09    4.872832590352367e-01    -8.703159031037015e-01   9.832418658086097e-05    -3.551985093680790e-05   -2.232314068343055e-05   7.051275711915675e-05    4.764106824924597e-01    -8.709205358009388e-01   
4.054000000000000e+09    4.861867170191658e-01    -8.711103144300144e-01   -1.287858676476811e-04   -3.898487669477874e-05   1.087318980474749e-04    5.563667456860475e-05    4.761753578670929e-01    -8.712960340542119e-01   
4.055000000000000e+09    4.854377377040593e-01    -8.715952071354841e-01   8.161081116029802e-05    1.872365469962310e-05    8.106317272797188e-05    -5.908455953516913e-05   4.760093184592472e-01    -8.720020208984586e-01   
4.056000000000000e+09    4.846223928839892e-01    -8.727151765326974e-01   7.806490753005374e-05    -9.424942732453353e-05   1.234976735172824e-04    1.192153845672175e-04    4.757639789676790e-01    -8.722987521229875e-01   
4.057000000000000e+09    4.836535942341559e-01    -8.735036167705439e-01   -1.855858946711114e-04   -2.115784833733357e-05   1.675374799395918e-04    -8.305776157953994e-05   4.759655398968263e-01    -8.726067749443212e-01   
4.058000000000000e+09    4.826841680417134e-01    -8.738681739337573e-01   4.736131964809588e-05    -8.904455529168669e-05   1.842067553144174e-05    9.436666007773154e-05    4.757265320072132e-01    -8.729370740818440e-01   
4.059000000000000e+09    4.819297618010582e-01    -8.752017696314942e-01   1.368663885845269e-04    -1.448184519422323e-04   3.928590501264530e-05    -3.223985800019581e-05   4.755301471362390e-01    -8.729023277253307e-01   
4.060000000000000e+09    4.811090467523578e-01    -8.758801617068207e-01   -5.300282348534235e-05   1.217222045996577e-04    2.270858432652224e-04    -4.544668918959448e-05   4.754450780335054e-01    -8.731102569134023e-01   
4.061000000000000e+09    4.805818735067506e-01    -8.766465524911112e-01   -1.665322271936007e-04   -3.234419107339608e-05   5.886407469043908e-05    5.817595325907373e-07    4.752651731321819e-01    -8.731287201502446e-01   
4.062000000000000e+09    4.797871786562085e-01    -8.771584788039508e-01   -1.130105673522280e-05   9.547819752358302e-06    -3.924937570437320e-05   -1.010908338811373e-04   4.751551015562586e-01    -8.732911049007682e-01   
4.063000000000000e+09    4.789804221767083e-01    -8.781121116186674e-01   3.380012807579996e-05    4.500273177883088e-05    -1.116260191727766e-04   -1.175343278762802e-04   4.747915808050150e-01    -8.733270791448371e-01   
4.064000000000000e+09    4.782714923043591e-01    -8.789417916942160e-01   -1.005185591979906e-04   7.885301943949029e-05    1.393024791757816e-04    8.023280052379110e-05    4.749244050122771e-01    -8.729302831867070e-01   
4.065000000000000e+09    4.774423598068036e-01    -8.795605426021791e-01   7.075650592086114e-05    -2.728525328899612e-05   9.652814679057524e-05    3.250193109711385e-05    4.745748374952384e-01    -8.727810064267173e-01   
4.066000000000000e+09    4.769074144566692e-01    -8.806612024782565e-01   -1.396091899226283e-05   2.294940828229606e-04    7.527988134075177e-05    -5.977147674369955e-05   4.743622484294125e-01    -8.728607304437312e-01   
4.067000000000000e+09    4.762997224357356e-01    -8.814561977047859e-01   5.582446773697259e-05    -6.867918604390040e-05   -3.250069070272596e-05   -2.623298582905117e-05   4.736535795324471e-01    -8.722443621176830e-01   
4.068000000000000e+09    4.757407185231037e-01    -8.817657031999331e-01   1.087927656533069e-05    1.011097661749067e-04    -4.134900631491521e-05   7.975082819249680e-05    4.732383251447514e-01    -8.720185952535596e-01   
4.069000000000000e+09    4.753955421328862e-01    -8.829182780782625e-01   -1.555758192559287e-05   -1.433540627699425e-04   -9.970782765256790e-06   -4.013843599953043e-05   4.726624089406032e-01    -8.717222412273166e-01   
4.070000000000000e+09    4.745200711472389e-01    -8.836474340274224e-01   3.004005441425149e-06    2.200603976309565e-04    1.378122636306478e-04    2.372161147768987e-05    4.719302318031738e-01    -8.711717004569459e-01   
4.071000000000000e+09    4.741318028816155e-01    -8.842301102928286e-01   1.711859026167706e-05    -5.725406944606045e-05   -7.983762458764268e-05   1.480871099622540e-04    4.714688528898643e-01    -8.712081416977135e-01   
4.072000000000000e+09    4.737650712781553e-01    -8.847360531694324e-01   -1.577935306438614e-04   1.686509599075961e-04    1.155214387815073e-05    1.172249412341026e-04    4.709726791968562e-01    -8.708521773305387e-01   
4.073000000000000e+09    4.730974444640657e-01    -8.855084954177702e-01   -7.334736937203604e-07   -6.574159340268382e-06   -1.793717149473023e-05   2.505789591505130e-06    4.701131620722417e-01    -8.704796025874946e-01   
4.074000000000000e+09    4.722383592523174e-01    -8.865105535570832e-01   1.439270797451844e-04    3.095485325915466e-05    -3.324064766214884e-06   1.471965529706702e-05    4.689160192810391e-01    -8.700833627556220e-01   
4.075000000000000e+09    4.718150293520633e-01    -8.873039814708705e-01   -4.500781527534576e-05   -1.325117058323145e-05   -8.006139412968882e-05   -7.531087902340296e-05   4.678502284535199e-01    -8.698943570632115e-01   
4.076000000000000e+09    4.709660223675416e-01    -8.880006573497417e-01   4.788146185622710e-05    6.400611956047861e-05    -3.451738402119568e-05   -1.255269300013384e-05   4.671212451161258e-01    -8.696138767419720e-01   
4.077000000000000e+09    4.706470962184290e-01    -8.884410031288736e-01   -2.028568847250812e-04   4.942880729600447e-05    6.566209415510592e-05    8.400472867724695e-05    4.654504720008431e-01    -8.692887261167350e-01   
4.078000000000000e+09    4.700432032604421e-01    -8.896846580339215e-01   1.000509238423995e-04    -8.548945192872717e-05   -1.356033821040306e-04   4.336649913478738e-05    4.644636721312491e-01    -8.691147006233326e-01   
4.079000000000000e+09    4.696772882346673e-01    -8.901587029633184e-01   2.047578180164801e-04    -6.362160725352408e-05   1.280842078149257e-04    2.010211134026361e-05    4.630614536767294e-01    -8.689419375941482e-01   
4.080000000000000e+09    4.686042242209651e-01    -8.906926735303616e-01   1.028459755295961e-04    -8.133991390685932e-05   -6.386124146886888e-05   6.504203150857684e-06    4.615297964836950e-01    -8.689342906715730e-01   
4.081000000000000e+09    4.684356503356936e-01    -8.911453407161526e-01   -1.654609974847001e-04   1.956180600003638e-05    -1.164505785081222e-04   7.401090760027571e-06    4.599165835031280e-01    -8.687496271210760e-01   
4.082000000000000e+09    4.680766878852735e-01    -8.918070447297954e-01   9.000445315679884e-05    1.781558507838133e-05    1.073322568417614e-05    1.087084390894530e-04    4.587684293061632e-01    -8.686332473708996e-01   
4.083000000000000e+09    4.670135224435811e-01    -8.925918874272437e-01   9.458750067081729e-05    -1.465906397428038e-04   2.528719843822069e-04    7.282756999785583e-05    4.569348759818062e-01    -8.688301904248723e-01   
4.084000000000000e+09    4.664079945662774e-01    -8.932327838951654e-01   1.129641041512616e-04    6.353878315395336e-06    7.998488977018619e-07    9.047558297615732e-05    4.551330276295514e-01    -8.690764151846810e-01   
