[Version] 2.0
! Rohde & Schwarz Vector Network Analyzer
! Rohde-Schwarz,ZNL20-2Port,1323001220200009,1.71.1.10-23.02.1.238
! 
! Port Assignments:
! Nominal Port -> Actual Test Port
! --------------------------------
!   1 -> 1
!   2 -> 2

! Created: GMT+2 2025-01-17 12:10:39

# Hz S RI R 50

[Number of Ports] 2
[Two-Port Data Order] 21_12
[Number of Frequencies] 16001

[Network Data] 
! freq[Hz]               S11[Re]                  S11[Im]                  S21[Re]                  S21[Im]                  S12[Re]                  S12[Im]                  S22[Re]                  S22[Im]                  
4.000000000000000e+09    5.542306477908194e-01    -8.370132912572540e-01   -5.110410187257901e-05   1.229680882650828e-04    -4.064907178929146e-06   -1.910499014635458e-05   5.383848456087550e-01    -8.157553583493020e-01   
4.001000000000000e+09    5.528256366749723e-01    -8.381596721518587e-01   9.463871994937176e-05    -2.588657671189995e-04   1.596242876308271e-05    4.853279454391129e-05    5.363988323722109e-01    -8.166957920832411e-01   
4.002000000000000e+09    5.517560910909556e-01    -8.389945180904873e-01   -5.736070121800535e-05   6.786362649227156e-05    1.701869945009446e-04    1.566336473967168e-04    5.342354481834400e-01    -8.177374516725403e-01   
4.003000000000000e+09    5.505329700077026e-01    -8.397134759411804e-01   -1.741830516741438e-04   -1.337099213995092e-04   -1.185109033271046e-04   1.802146039192294e-04    5.322775179937100e-01    -8.186746237443606e-01   
4.004000000000000e+09    5.492607953485692e-01    -8.402645830624502e-01   -1.433219350555647e-06   4.883861021221168e-05    -5.095130012575127e-05   -1.290914506341197e-04   5.300453530280271e-01    -8.199057320012223e-01   
4.005000000000000e+09    5.481604139108206e-01    -8.416359456229039e-01   4.743139187023620e-05    -2.206770192001948e-04   3.595344891465957e-05    -4.960004222851515e-06   5.283814735907323e-01    -8.206953442378329e-01   
4.006000000000000e+09    5.470926122297992e-01    -8.419764718237367e-01   -8.673671584567389e-05   2.398638609219287e-06    5.343495200050031e-05    -4.096311009107246e-05   5.260474952494073e-01    -8.218468393611276e-01   
4.007000000000000e+09    5.459532002911809e-01    -8.431883771832555e-01   5.874968301322260e-05    -2.578628913599779e-05   1.348168064257801e-04    -3.994712960095707e-05   5.241261032650033e-01    -8.234513921987232e-01   
4.008000000000000e+09    5.447393457761527e-01    -8.441124905682872e-01   1.138398115194345e-04    -6.835837486616181e-05   -5.000398279217365e-05   -1.172452200191434e-04   5.222894449530735e-01    -8.242654858136276e-01   
4.009000000000000e+09    5.431616310617624e-01    -8.445484290168707e-01   -8.314943079396648e-05   1.811424679317045e-04    2.392570194279747e-05    -1.958629798806024e-05   5.203049490467786e-01    -8.260609691645135e-01   
4.010000000000000e+09    5.419745206276526e-01    -8.454888731879073e-01   1.080200020109491e-04    1.814616577293848e-04    4.579800972129587e-05    -1.437151161553392e-05   5.184354180995143e-01    -8.266764972812368e-01   
4.011000000000000e+09    5.408964629026473e-01    -8.464929931189110e-01   4.420758736230879e-05    -7.125342414778984e-05   1.300292334928880e-04    2.167821305048172e-04    5.159722254369870e-01    -8.284664089694953e-01   
4.012000000000000e+09    5.393585483137801e-01    -8.471021443078016e-01   2.269898447634632e-04    1.086280002918847e-04    7.809810023378794e-06    4.280581340126624e-05    5.143974562614007e-01    -8.293904296333711e-01   
4.013000000000000e+09    5.382498345959422e-01    -8.474840982707652e-01   -2.929329569483874e-05   2.348245965550412e-04    -9.850814781952305e-05   -5.045712051712826e-06   5.128295575556920e-01    -8.311467990927640e-01   
4.014000000000000e+09    5.363927906651191e-01    -8.484301106125323e-01   1.370847416717545e-04    -6.594116041983965e-05   -5.173232217944235e-05   2.058367796544396e-05    5.107076655989664e-01    -8.328823963682696e-01   
4.015000000000000e+09    5.353432005254551e-01    -8.494424845102718e-01   -2.505713473147757e-05   4.547876673590256e-05    -8.583378276417762e-05   -2.471370066673764e-04   5.094355147784251e-01    -8.342205960733796e-01   
4.016000000000000e+09    5.342042510619448e-01    -8.497817442373927e-01   4.372925712100498e-06    -2.055135822515055e-04   -1.150840975781586e-04   1.119496747680232e-04    5.076013972099364e-01    -8.352151636844469e-01   
4.017000000000000e+09    5.328561044111914e-01    -8.502268850751881e-01   1.849203875944266e-04    1.196868827434623e-04    -5.504022942847120e-05   -7.479497088127378e-05   5.059794890101118e-01    -8.364886182338541e-01   
4.018000000000000e+09    5.316858133517864e-01    -8.511768680997348e-01   -1.012246101971485e-05   -3.343154797985396e-05   -2.111691231479413e-04   -6.013879561928329e-05   5.044302207939617e-01    -8.381509166613564e-01   
4.019000000000000e+09    5.306686777269271e-01    -8.513137174720258e-01   -1.153271794560328e-04   -3.161765945441750e-05   2.675604797363249e-05    7.635227022074750e-05    5.027991109360550e-01    -8.394775094011777e-01   
4.020000000000000e+09    5.291607962933764e-01    -8.518945752625562e-01   2.158539826804850e-04    1.205276753213383e-04    6.223405431423073e-05    2.226981992683570e-04    5.013900453462438e-01    -8.405967327083818e-01   
4.021000000000000e+09    5.278678521242727e-01    -8.525524590614476e-01   5.324406983175183e-06    -1.820074115161819e-04   -4.757707165283226e-05   2.739159642226072e-05    5.000860979736997e-01    -8.422426831673949e-01   
4.022000000000000e+09    5.267221299066949e-01    -8.530958681857868e-01   -2.615379644896604e-05   -9.702298318994858e-05   -5.416546057288865e-05   -1.382432873510265e-04   4.986353580914448e-01    -8.430940604249832e-01   
4.023000000000000e+09    5.255438303738486e-01    -8.537071049271356e-01   7.206478070614886e-07    -1.180966336196630e-05   -7.712179665791922e-05   -1.768203615790809e-04   4.971401356252899e-01    -8.443270166577861e-01   
4.024000000000000e+09    5.239951259195618e-01    -8.539618284933320e-01   -1.726456229480149e-04   1.581079746299483e-04    -3.157481966157235e-05   1.107988746838895e-04    4.962044042549565e-01    -8.456557252807759e-01   
4.025000000000000e+09    5.227325004659851e-01    -8.544951026099636e-01   5.829419962940887e-05    -4.757351453008577e-05   -7.465416547419764e-05   7.881294554555925e-06    4.949639719465825e-01    -8.467671203096453e-01   
4.026000000000000e+09    5.214976974216322e-01    -8.549256264449043e-01   1.609625983114963e-05    1.065447637811941e-04    1.621950873503757e-04    2.281512045399310e-05    4.942384529252983e-01    -8.480140467888548e-01   
4.027000000000000e+09    5.199687536651403e-01    -8.552742352661789e-01   1.636575397952772e-04    1.716074891397555e-05    -5.465809307093062e-05   8.942987339521483e-05    4.927573922150726e-01    -8.489371329360572e-01   
4.028000000000000e+09    5.186601182858157e-01    -8.557580427358272e-01   -2.904651443427051e-05   9.061535202808036e-05    1.414502425053371e-04    3.332486458319598e-05    4.917819058908550e-01    -8.504974704155828e-01   
4.029000000000000e+09    5.175928773037985e-01    -8.565532452766851e-01   -2.176796752644274e-05   1.292781418062033e-04    5.697969927237575e-05    1.555490502635884e-05    4.906997542970596e-01    -8.511145791106002e-01   
4.030000000000000e+09    5.162396381629946e-01    -8.565667467654970e-01   -6.823054408351278e-05   -1.061830107335722e-04   9.864845453454227e-06    -1.427542173943805e-05   4.898050959178809e-01    -8.526242633844752e-01   
4.031000000000000e+09    5.149436279279804e-01    -8.570933914947135e-01   -8.633958826051475e-05   -5.861078116801047e-05   -4.580710218577463e-05   -1.297086475512613e-04   4.889503493255556e-01    -8.536658794796140e-01   
4.032000000000000e+09    5.135482481151854e-01    -8.574485870820742e-01   -1.038672612626808e-04   -1.048643830746887e-04   -8.753904197904603e-05   -8.039806426234642e-05   4.881670758684297e-01    -8.545567136591478e-01   
4.033000000000000e+09    5.121041100614935e-01    -8.575747302016438e-01   6.163655193687909e-05    -4.361116381177128e-05   3.569610132102373e-05    4.383332225408052e-05    4.870513741682819e-01    -8.550538619488272e-01   
4.034000000000000e+09    5.106904125657572e-01    -8.582418267665302e-01   2.059080077281144e-04    1.927614877151960e-04    9.160945124673393e-05    -2.355608408228977e-05   4.862461985559107e-01    -8.564922261148173e-01   
4.035000000000000e+09    5.092938487247897e-01    -8.585736440930161e-01   -5.504046367675652e-05   1.014252359207697e-04    4.961118722590061e-05    1.422647812485855e-04    4.853347860058321e-01    -8.573326765567945e-01   
4.036000000000000e+09    5.081169605155564e-01    -8.592146740706302e-01   -3.388668783104310e-06   6.518983645125520e-06    4.364128624410151e-05    1.868069796839155e-05    4.846331908636172e-01    -8.581033825508441e-01   
4.037000000000000e+09    5.063657304060665e-01    -8.595656876082062e-01   1.335197987279562e-05    -7.377077586628946e-05   5.561540656357434e-05    1.709633944264059e-04    4.840374940020846e-01    -8.590343580559938e-01   
4.038000000000000e+09    5.053430228481285e-01    -8.601184634757340e-01   3.176223733182820e-05    3.453386956502053e-05    -3.380777199209874e-05   -2.671062419625127e-05   4.831696723314645e-01    -8.601962536657198e-01   
4.039000000000000e+09    5.038338147535734e-01    -8.607510815355511e-01   8.534290408563647e-05    2.550319465974279e-04    -5.926025437934356e-05   2.235977972250121e-04    4.823877564937335e-01    -8.610910995952216e-01   
4.040000000000000e+09    5.023528872787685e-01    -8.612244728705437e-01   1.022510026556663e-04    -1.582148189062546e-05   1.462551019993122e-04    -1.859710790823703e-05   4.817305564021999e-01    -8.617626405723071e-01   
4.041000000000000e+09    5.010728897349704e-01    -8.616035393519214e-01   1.547366237453301e-04    -1.974633945076038e-04   -3.035393770955462e-05   3.338170584626707e-05    4.814958800574708e-01    -8.626989372940728e-01   
4.042000000000000e+09    4.998554111018220e-01    -8.621987284915836e-01   -5.104493370991803e-05   1.897509095890704e-04    2.395588586380610e-07    -2.016176309018810e-05   4.807189771585992e-01    -8.634932426320990e-01   
4.043000000000000e+09    4.986300354666300e-01    -8.629433042609478e-01   1.584888224667956e-05    -3.051642674142449e-05   -5.265497066713277e-05   -6.802515885228650e-05   4.801880218862102e-01    -8.643922150207656e-01   
4.044000000000000e+09    4.974040341329634e-01    -8.635691841293304e-01   1.283668970600222e-04    5.669321351416173e-05    2.284413955649253e-04    4.838358363538884e-05    4.794402599972481e-01    -8.652440951093284e-01   
4.045000000000000e+09    4.961524568345718e-01    -8.641785391779307e-01   -6.878205771473324e-05   -2.523039263907166e-05   9.916851027542582e-06    -4.601305012362116e-05   4.790684539929601e-01    -8.659479119610660e-01   
4.046000000000000e+09    4.945698210803357e-01    -8.650195269194330e-01   -1.189918583250062e-04   9.922064009053993e-05    1.886456745691458e-05    -2.916259749331697e-04   4.786236200057186e-01    -8.666880810310424e-01   
4.047000000000000e+09    4.935266642450654e-01    -8.655992905026320e-01   2.537033922241751e-05    -1.823726809779242e-05   2.897528618101012e-05    -3.319301763944268e-05   4.780756847428623e-01    -8.673606808373017e-01   
4.048000000000000e+09    4.925346656615837e-01    -8.664648386207685e-01   3.517310459928539e-05    7.739786369853220e-05    7.374873763319530e-05    -2.612125063968402e-04   4.778068341982001e-01    -8.682388454065976e-01   
4.049000000000000e+09    4.914307873469563e-01    -8.671948775024101e-01   -1.517940400950031e-04   7.920592439769281e-06    -2.085191876062296e-04   3.353095765629952e-05    4.775279349896696e-01    -8.687155079856582e-01   
4.050000000000000e+09    4.901675466846122e-01    -8.678953846240132e-01   2.291688894094888e-04    5.502127016399729e-05    7.709883369396952e-05    -4.372438668664033e-05   4.775110460743438e-01    -8.693256577718048e-01   
4.051000000000000e+09    4.893213905710921e-01    -8.686335294405698e-01   -4.182061229191798e-05   1.572289926378185e-05    -8.823906826626752e-05   7.864859013697516e-05    4.770189832688360e-01    -8.699837095401436e-01   
4.052000000000000e+09    4.882754646528559e-01    -8.694866390179349e-01   2.436043540199068e-05    -2.322462839914411e-05   -9.334681432633527e-05   3.559509693144258e-05    4.767752973780767e-01    -8.707298932531333e-01   
4.053000000000000e+09    4.871525600151599e-01    -8.703563374699902e-01   -3.780189618105757e-05   -1.293633597007253e-04   1.038335356213929e-04    -6.580845008637825e-05   4.767778877878463e-01    -8.709964554806248e-01   
4.054000000000000e+09    4.860294974232241e-01    -8.713037480902917e-01   1.409903094407368e-04    9.398808208123205e-05    8.157685234595349e-05    1.032747505255594e-04    4.764350062900244e-01    -8.714049040269982e-01   
4.055000000000000e+09    4.851828194301556e-01    -8.716303498443269e-01   -1.608214756163335e-04   3.178499631627301e-05    -1.445141776242028e-04   -5.090509383164738e-05   4.764151769612777e-01    -8.722044021349969e-01   
4.056000000000000e+09    4.843035547265092e-01    -8.731350998163815e-01   -1.949576150752622e-04   5.391356290205981e-05    -1.566617105864152e-04   -3.587295985008175e-05   4.760051916846801e-01    -8.723046182538505e-01   
4.057000000000000e+09    4.835160404235878e-01    -8.736192111036717e-01   -1.889749218494289e-05   8.269860474435437e-05    -8.212747983961746e-05   6.223166063900015e-05    4.759177016972648e-01    -8.726724915493054e-01   
4.058000000000000e+09    4.823665062525577e-01    -8.741708624185135e-01   9.380708030663132e-05    -2.291917450275682e-05   3.065815704800929e-05    1.016759919878225e-04    4.759334126182180e-01    -8.729179687401974e-01   
4.059000000000000e+09    4.818249193410325e-01    -8.750056671407958e-01   4.108180150882418e-05    -1.885775114518807e-04   5.416880622786163e-05    6.749425610932595e-05    4.758473875116306e-01    -8.733200700396024e-01   
4.060000000000000e+09    4.811969561317495e-01    -8.759629555481728e-01   1.502731738570145e-04    -3.728708439285474e-05   2.406661943121599e-04    -2.301303834650116e-04   4.756093026205324e-01    -8.733258356188511e-01   
4.061000000000000e+09    4.801429294236363e-01    -8.766275412633325e-01   5.428337932340893e-05    7.542011936955849e-05    -4.059984726926258e-05   -9.027094605307163e-05   4.753805261242617e-01    -8.732190370766918e-01   
4.062000000000000e+09    4.797728463008452e-01    -8.774390329458269e-01   6.803760833882326e-06    5.147429998455790e-05    -1.357126564549197e-04   -4.645238338690000e-05   4.756157741287740e-01    -8.732376842069728e-01   
4.063000000000000e+09    4.788786509531283e-01    -8.782409491637294e-01   5.293474567746799e-05    8.402970521634045e-05    -5.844585382700747e-06   -1.580174591419249e-05   4.751278080987027e-01    -8.731324126943193e-01   
4.064000000000000e+09    4.782449141769954e-01    -8.791630227125228e-01   1.699476968545070e-04    5.781976385074126e-05    6.697691822214928e-05    -1.953212787056760e-04   4.753490444445037e-01    -8.733503068379941e-01   
4.065000000000000e+09    4.777116673285362e-01    -8.794755980301752e-01   1.794278097666374e-04    -1.221554367910916e-04   1.198044066947104e-06    -4.965003848618441e-05   4.746288231478285e-01    -8.730799733736943e-01   
4.066000000000000e+09    4.768490130129650e-01    -8.807214893191928e-01   -8.689574575804780e-05   1.871872780147033e-05    8.702439313723591e-05    -8.505714318611051e-05   4.746192659162001e-01    -8.728978996815994e-01   
4.067000000000000e+09    4.760803957283177e-01    -8.814894897452629e-01   -6.163577110945207e-06   -8.463115120043346e-05   5.250254734607167e-05    -1.997211881534575e-05   4.738713635717632e-01    -8.725443076405492e-01   
4.068000000000000e+09    4.757751783075914e-01    -8.819565743687907e-01   3.982535258677636e-05    -1.272806893014434e-05   -1.346628836630594e-05   2.479872341586630e-05    4.736673134927947e-01    -8.721829526446309e-01   
4.069000000000000e+09    4.751581580760414e-01    -8.830973466109207e-01   6.930478425096987e-05    -7.976086556851429e-05   -4.466096246720166e-05   2.343816982513163e-04    4.731961871292702e-01    -8.719901380061684e-01   
4.070000000000000e+09    4.746865208701244e-01    -8.834932022324704e-01   5.626787471846547e-05    -5.860912856744941e-05   -7.346992482824442e-05   -1.193606682008794e-04   4.721734913816034e-01    -8.717327421817254e-01   
4.071000000000000e+09    4.740489635879861e-01    -8.843618912770517e-01   -7.714633966872587e-06   -4.597060651992214e-05   -1.010551107536853e-04   -1.671942148753434e-04   4.718110238819072e-01    -8.713111114179398e-01   
4.072000000000000e+09    4.731456221280178e-01    -8.850283145188331e-01   -5.963493035694607e-05   -1.152289473589375e-04   2.338038427085191e-05    -5.271157376444209e-05   4.712456845011875e-01    -8.710383973768445e-01   
4.073000000000000e+09    4.728144432909603e-01    -8.855270367903292e-01   9.188581895512568e-05    1.582553365146513e-04    9.221938372654675e-05    1.145427585316347e-04    4.702196437354817e-01    -8.707673764451977e-01   
4.074000000000000e+09    4.716542726461804e-01    -8.866656113197640e-01   -1.516357779703831e-04   -1.117942193198083e-04   -8.140225952901958e-05   9.630105222045684e-05    4.692478873428555e-01    -8.704267641475476e-01   
4.075000000000000e+09    4.719226721199335e-01    -8.875118662457367e-01   3.217242268812262e-05    5.442499926463569e-05    -6.737410294213322e-05   2.351353402940605e-04    4.679931482539973e-01    -8.702239180781123e-01   
4.076000000000000e+09    4.711144546312828e-01    -8.880694100638180e-01   -6.274470726709895e-05   3.849383928233051e-05    -6.237012249897588e-05   -1.190727353219736e-04   4.671638684263318e-01    -8.697354989433582e-01   
4.077000000000000e+09    4.705811765330156e-01    -8.885600422287027e-01   -7.973717990103291e-05   -1.132275619463058e-04   -1.479797310955283e-04   -9.311983904219313e-05   4.659299067131940e-01    -8.693621356031574e-01   
4.078000000000000e+09    4.698473181060000e-01    -8.896133690393375e-01   -5.301016513504498e-05   5.247480069637263e-05    7.851151349798809e-05    -1.187187187240960e-04   4.644956409237213e-01    -8.691373879147968e-01   
4.079000000000000e+09    4.689864071791229e-01    -8.901150021095209e-01   -2.467341478863168e-04   -3.997036105376309e-06   1.110766163406300e-04    3.516485788785697e-05    4.634764907526320e-01    -8.691566875220963e-01   
4.080000000000000e+09    4.686712295637760e-01    -8.905876592394710e-01   8.547825091947134e-05    -9.892678111181742e-06   -1.283565871133582e-04   1.758538989766648e-05    4.620143617380874e-01    -8.691202002714010e-01   
4.081000000000000e+09    4.680314732463884e-01    -8.913876379969766e-01   -2.881737184661602e-05   3.491684333243935e-05    1.208914321535740e-04    5.657915599986739e-05    4.603136373975377e-01    -8.689827642842076e-01   
4.082000000000000e+09    4.676465392423935e-01    -8.918810408841533e-01   7.866601111629122e-05    -5.882044637238016e-05   -4.012962760075189e-05   -5.605118979543167e-05   4.587632530136463e-01    -8.686875967566957e-01   
4.083000000000000e+09    4.667904648464275e-01    -8.927012011982447e-01   3.202873478269028e-05    -3.329687180585300e-05   -2.503652310605849e-05   -7.590770062029749e-05   4.574686947041517e-01    -8.689453345383830e-01   
4.084000000000000e+09    4.658183506387088e-01    -8.933327994632897e-01   1.789384162136912e-05    3.014051951164840e-05    3.038960660189733e-05    2.390853234975263e-04    4.555291563668954e-01    -8.692088080790658e-01   
