[Version] 2.0
! Rohde & Schwarz Vector Network Analyzer
! Rohde-Schwarz,ZNL20-2Port,1323001220200009,1.71.1.10-23.02.1.238
! 
! Port Assignments:
! Nominal Port -> Actual Test Port
! --------------------------------
!   1 -> 1
!   2 -> 2

! Created: GMT+2 2025-01-17 12:10:59

# Hz S RI R 50

[Number of Ports] 2
[Two-Port Data Order] 21_12
[Number of Frequencies] 16001

[Network Data] 
! freq[Hz]               S11[Re]                  S11[Im]                  S21[Re]                  S21[Im]                  S12[Re]                  S12[Im]                  S22[Re]                  S22[Im]                  
4.000000000000000e+09    5.543747417832715e-01    -8.368422861082689e-01   -1.738466242614833e-04   -7.223880732138057e-05   1.653872729555839e-04    6.792520181936391e-05    5.385408700518745e-01    -8.157337153925059e-01   
4.001000000000000e+09    5.528397331954628e-01    -8.378566381516925e-01   -1.995594957368116e-05   1.334492884979325e-04    6.245587270620416e-05    2.016821726239307e-04    5.363599243643236e-01    -8.165928082451136e-01   
4.002000000000000e+09    5.516452111947000e-01    -8.385559621959674e-01   -1.927634495885117e-04   1.159519091312378e-04    -2.114060222136516e-05   2.098698888722745e-05    5.342255574899839e-01    -8.177543178958068e-01   
4.003000000000000e+09    5.506691214090143e-01    -8.396811835453528e-01   -1.006878978003553e-04   9.687894869612985e-05    1.626402005774987e-04    -1.095258650563582e-05   5.323065739373409e-01    -8.186893141035096e-01   
4.004000000000000e+09    5.492844296027384e-01    -8.406987114541228e-01   -5.080259956767023e-05   6.477507543722215e-05    -9.962135222863276e-05   1.046368126000951e-04    5.304479677778157e-01    -8.197426456488046e-01   
4.005000000000000e+09    5.479313948025520e-01    -8.412543236149086e-01   -3.517237688124003e-05   -4.624061209399211e-05   1.770099805617677e-04    1.295025885112225e-05    5.282403877061513e-01    -8.207700561069706e-01   
4.006000000000000e+09    5.471372828774355e-01    -8.423393714278726e-01   1.156309540133247e-05    2.264551336057433e-04    2.412212298935546e-05    -6.767140818086776e-05   5.261009324469280e-01    -8.218461677470974e-01   
4.007000000000000e+09    5.454251839655599e-01    -8.428570172849980e-01   -4.846464954532832e-05   4.993920733563906e-06    3.815929403748461e-06    -3.790642126883275e-05   5.238578208143243e-01    -8.232715007787312e-01   
4.008000000000000e+09    5.445376531368502e-01    -8.441559714119058e-01   -8.377018116256483e-05   2.815589103115906e-05    -3.187484291153885e-05   2.434489467892880e-05    5.218130724237794e-01    -8.246682634379847e-01   
4.009000000000000e+09    5.432456653207134e-01    -8.450120385836458e-01   -5.310366748784090e-06   -1.310743506955133e-04   1.090339472012552e-04    2.086591720976836e-05    5.201411113983259e-01    -8.256166000152965e-01   
4.010000000000000e+09    5.420222246140936e-01    -8.456650372523595e-01   5.075973467243462e-05    -1.898904870875942e-04   -2.295876152265886e-05   -1.137548779696777e-04   5.180198937100937e-01    -8.270779863112312e-01   
4.011000000000000e+09    5.403524955226582e-01    -8.464094123547033e-01   1.380751886865587e-04    -9.464459931534738e-06   -6.344356386519702e-05   -5.180095903972124e-05   5.161571143076850e-01    -8.284568100170737e-01   
4.012000000000000e+09    5.394634755023431e-01    -8.468847289693394e-01   -3.574287897166125e-05   -1.291418742563254e-04   -6.057119853974928e-05   9.550027921192804e-05    5.142289408635294e-01    -8.298530883314251e-01   
4.013000000000000e+09    5.380055953550357e-01    -8.479017368257277e-01   -5.468187424447466e-05   -2.200517111375588e-05   1.335902038075303e-04    -6.287125564383859e-05   5.129290221261064e-01    -8.311705451470452e-01   
4.014000000000000e+09    5.365364688535966e-01    -8.483625922531779e-01   -7.650555066190749e-06   -1.048208393098507e-04   1.398520646291759e-04    9.723116364597720e-05    5.108845473044815e-01    -8.325141834755685e-01   
4.015000000000000e+09    5.354795809950742e-01    -8.493844106766421e-01   4.588035952673900e-05    1.387489734474953e-04    -2.830852668568399e-05   2.957150833791793e-05    5.092424135356055e-01    -8.340451659484330e-01   
4.016000000000000e+09    5.343732003590037e-01    -8.500760377636791e-01   9.025299770196953e-06    -1.250508739901882e-05   -6.851464645946734e-05   -1.012568368758171e-04   5.075869717353124e-01    -8.354020689094828e-01   
4.017000000000000e+09    5.331058682975197e-01    -8.504225908389192e-01   1.974088806393890e-04    2.456873308842974e-05    1.184668306991819e-04    -4.100009941850613e-06   5.059967614520622e-01    -8.366796065157930e-01   
4.018000000000000e+09    5.318299232714576e-01    -8.512933069955095e-01   -1.239136182679188e-04   4.506894502873355e-05    8.214615443295794e-05    5.929273978691825e-05    5.043315888041254e-01    -8.380460708559088e-01   
4.019000000000000e+09    5.303284976462974e-01    -8.512134048183451e-01   5.467287212673845e-05    -7.474212479832822e-05   4.546171733719485e-05    -1.111733196549550e-04   5.027640644175565e-01    -8.395024236727180e-01   
4.020000000000000e+09    5.289661184463031e-01    -8.521011433989096e-01   1.377600079278318e-04    6.722279119942633e-05    1.203896076469654e-04    -1.062782659756188e-04   5.013906123001858e-01    -8.406746454573305e-01   
4.021000000000000e+09    5.278097753279571e-01    -8.524537513413272e-01   1.849377513806942e-04    -1.621699990711640e-04   3.707327578313858e-05    9.591552485952118e-05    5.001731030183476e-01    -8.417341019713181e-01   
4.022000000000000e+09    5.262557002887274e-01    -8.530127367094040e-01   3.048986486883098e-05    -8.156224446229607e-05   8.925850132522210e-05    2.001502755544793e-04    4.989911412909118e-01    -8.432544195360723e-01   
4.023000000000000e+09    5.257325625938135e-01    -8.537480142615743e-01   1.287154315995674e-04    1.205920717991583e-04    -8.636626804989057e-05   8.880393094582941e-07    4.974326765746787e-01    -8.442920057856665e-01   
4.024000000000000e+09    5.238886750334500e-01    -8.540277700313290e-01   -1.164054301791515e-04   -8.085806085574583e-05   9.671978936444971e-06    1.914119777385870e-04    4.962968720610981e-01    -8.457693916285320e-01   
4.025000000000000e+09    5.227895324325393e-01    -8.543799660914473e-01   -2.306202132804150e-04   1.212349346464850e-05    7.502044373797252e-05    4.892881154934322e-05    4.949438492432597e-01    -8.469887341453840e-01   
4.026000000000000e+09    5.212598653193891e-01    -8.549280597889785e-01   -2.150586139557953e-05   -5.234264644309101e-05   -1.553556855873322e-04   -5.056120125838456e-05   4.940398731050178e-01    -8.480555429578378e-01   
4.027000000000000e+09    5.201496926356388e-01    -8.556082737588878e-01   1.343886117736887e-04    4.952343156657203e-06    2.642395728431058e-05    1.240710815762370e-05    4.928066381430016e-01    -8.492510081244484e-01   
4.028000000000000e+09    5.187565033856213e-01    -8.557009020861153e-01   1.573814286652558e-04    -1.714655715219484e-04   4.632016314081344e-05    1.396444597873716e-04    4.917687141789656e-01    -8.503075605096437e-01   
4.029000000000000e+09    5.175800119954352e-01    -8.564069843961934e-01   -6.806283765681487e-06   1.696193397245949e-04    7.582209335522738e-05    1.063662381801635e-05    4.906095329962964e-01    -8.514100253951022e-01   
4.030000000000000e+09    5.162072049979795e-01    -8.568761253252369e-01   1.783613115585283e-04    1.997900047419348e-05    3.536895951331726e-05    -6.165074057055435e-05   4.896718044984701e-01    -8.527669040043132e-01   
4.031000000000000e+09    5.151482718982536e-01    -8.571183042627113e-01   -4.511769201665198e-05   -1.098951387034345e-04   1.751790529207276e-06    4.081591657978426e-05    4.888605135195711e-01    -8.534425351508125e-01   
4.032000000000000e+09    5.135587924600455e-01    -8.575054999093533e-01   -2.540775614394995e-04   -9.111385967140930e-05   -7.616136414305806e-05   -9.574665047670146e-05   4.880423867062497e-01    -8.544870888878264e-01   
4.033000000000000e+09    5.122143871795292e-01    -8.580109256560724e-01   -1.222173214885380e-04   2.479835176080046e-04    -8.939776080106151e-05   1.272637714876772e-04    4.868283660351299e-01    -8.555548721552576e-01   
4.034000000000000e+09    5.106159938447640e-01    -8.584661308612574e-01   8.646651294252867e-05    -1.215789669853537e-04   -5.709852223558316e-05   1.173155339291379e-04    4.861750739369378e-01    -8.567846757284510e-01   
4.035000000000000e+09    5.092749097229758e-01    -8.589095389515655e-01   5.311709560177534e-05    -3.081362701790576e-05   -1.606659682691320e-04   -5.397612271144315e-05   4.853293378781611e-01    -8.576004371141117e-01   
4.036000000000000e+09    5.079406479137116e-01    -8.591739939420201e-01   -1.246134694852180e-04   5.205486918948953e-05    -2.913360194748186e-05   -4.862860523786763e-05   4.847135709797170e-01    -8.585812798900637e-01   
4.037000000000000e+09    5.065860487826229e-01    -8.596131107014230e-01   -1.331712341254922e-04   -1.011094579032373e-04   -1.063117336530531e-04   9.863397586113013e-06    4.838748825808213e-01    -8.592486661933821e-01   
4.038000000000000e+09    5.054064854803495e-01    -8.600323497656568e-01   -6.889794568961113e-05   -3.675065557210234e-05   -2.538335945620535e-05   6.428380566849579e-05    4.832584972334331e-01    -8.601528400851493e-01   
4.039000000000000e+09    5.041382959234525e-01    -8.605635832702485e-01   -1.660331709239742e-04   -1.180883222153697e-04   2.411899410710924e-05    -1.175576346485154e-05   4.827279321605038e-01    -8.610838039134597e-01   
4.040000000000000e+09    5.027830143652350e-01    -8.610769101644543e-01   1.177076357804187e-04    -1.195886872981208e-04   7.039728642022469e-05    -5.787256972364987e-05   4.818911411228093e-01    -8.620594057772984e-01   
4.041000000000000e+09    5.010571412286433e-01    -8.619988233326399e-01   -5.291552643670613e-06   -2.690830407675032e-05   6.170889327949048e-05    -6.391264740960471e-05   4.811936617672918e-01    -8.628091917973356e-01   
4.042000000000000e+09    4.997965301195422e-01    -8.623240089478880e-01   1.057896609553569e-06    1.463608865074012e-04    -1.065415394440765e-04   3.044638162363932e-05    4.805723365297821e-01    -8.636444805633793e-01   
4.043000000000000e+09    4.985310676715420e-01    -8.630045479015181e-01   -1.794976199016696e-05   -2.042153846979334e-05   -9.725634519886553e-06   -7.391831717446426e-05   4.800808803289031e-01    -8.642957897963850e-01   
4.044000000000000e+09    4.971989814223972e-01    -8.634453163600834e-01   -1.900980512569989e-05   5.909563433837989e-05    -5.502207218391216e-05   1.034089768427811e-04    4.796543585758942e-01    -8.650754569003848e-01   
4.045000000000000e+09    4.960328698436450e-01    -8.642241572725142e-01   2.175085975292257e-05    -1.102769088765411e-04   7.564792542001303e-05    6.950334118021952e-05    4.791597582182245e-01    -8.661943948622386e-01   
4.046000000000000e+09    4.946567562478529e-01    -8.648475498444034e-01   -7.674096691474863e-05   1.052711004528232e-04    2.276562720127943e-04    2.260028508646089e-04    4.788860202952711e-01    -8.665135237934798e-01   
4.047000000000000e+09    4.935263499261290e-01    -8.657600014605333e-01   -5.802110392946178e-06   -1.084311904270418e-04   -8.200296654838948e-05   -4.195134324529545e-05   4.781550304659878e-01    -8.674627153283938e-01   
4.048000000000000e+09    4.924107158768508e-01    -8.663152191671855e-01   -2.155461181065612e-05   1.339181710360650e-04    -1.672504580217792e-04   1.686306945093104e-05    4.780132579934370e-01    -8.680258007859629e-01   
4.049000000000000e+09    4.911940633270885e-01    -8.671809699622169e-01   1.280522072382343e-04    -1.217396618517077e-04   -1.260298610382538e-05   -7.003544828726767e-05   4.775199824173951e-01    -8.690482278185854e-01   
4.050000000000000e+09    4.904369369593397e-01    -8.679058055445905e-01   1.619954090986837e-06    1.718334852111928e-04    1.587880054733969e-04    2.531495786924371e-05    4.773093575371509e-01    -8.693464613590370e-01   
4.051000000000000e+09    4.891912941470546e-01    -8.687815787794450e-01   1.532167606046122e-04    5.883697848757757e-05    -7.922360733158194e-05   -4.057005395277136e-05   4.768827924781768e-01    -8.698942913644480e-01   
4.052000000000000e+09    4.883206658279907e-01    -8.697980365626805e-01   1.133213495301436e-04    -8.429225092268942e-05   -1.225892914384244e-04   3.442714849562996e-05    4.766202106535807e-01    -8.706139128791845e-01   
4.053000000000000e+09    4.870394980216507e-01    -8.701492604436064e-01   -1.264742324786664e-05   9.593871013580722e-05    1.035976860903945e-04    1.283430748630098e-04    4.767861313045857e-01    -8.712613472565683e-01   
4.054000000000000e+09    4.861599801519758e-01    -8.710968594147626e-01   3.328930680691226e-05    -5.884820885126588e-05   -1.038434287455704e-04   -2.223468905433981e-05   4.765647259719791e-01    -8.717837779868456e-01   
4.055000000000000e+09    4.854988111611448e-01    -8.717177822314828e-01   7.409387837222219e-05    -8.944715854190589e-06   2.047644133554147e-04    -1.456649160762601e-05   4.762993278553481e-01    -8.722292912052000e-01   
4.056000000000000e+09    4.842127126322959e-01    -8.728550561877275e-01   -1.906805959212134e-04   1.011927408565945e-05    1.552724951270585e-04    -3.931371894412207e-05   4.759831658849445e-01    -8.724382457327517e-01   
4.057000000000000e+09    4.833955491964194e-01    -8.733976289639319e-01   -8.880946101790320e-05   -3.898881907026458e-05   2.814165009757703e-06    -1.120064086888473e-04   4.759343562967725e-01    -8.728181343210153e-01   
4.058000000000000e+09    4.824382657468703e-01    -8.741151760200864e-01   -2.156756255802857e-04   -5.179721307467161e-05   1.804851783841041e-05    2.769272338098488e-05    4.757724378264311e-01    -8.730417081565398e-01   
4.059000000000000e+09    4.817695294404864e-01    -8.752938094993823e-01   5.207532378722186e-05    -9.645803050750024e-05   1.145991673788038e-04    -9.322851548197766e-06   4.756028031453759e-01    -8.733923321554127e-01   
4.060000000000000e+09    4.810267013358869e-01    -8.756624715787434e-01   2.566536752489514e-05    4.960508301704942e-05    1.833849252134484e-04    8.452574099592985e-05    4.756413175812911e-01    -8.732762891351223e-01   
4.061000000000000e+09    4.802564198086091e-01    -8.768184406226118e-01   1.145976533187331e-04    -4.870255138848440e-05   -3.493385365637807e-05   -1.930541553083744e-05   4.754527893121583e-01    -8.734428647963953e-01   
4.062000000000000e+09    4.796789958273659e-01    -8.775869032431975e-01   -1.791466956934716e-04   4.234554767609448e-05    2.088074302199417e-05    4.295917215246093e-05    4.752930224581698e-01    -8.733636002037208e-01   
4.063000000000000e+09    4.788496697249727e-01    -8.781412202682585e-01   -2.630465739640183e-05   1.314126561554536e-04    4.381525181662489e-05    5.803024935193457e-05    4.752525019855143e-01    -8.730895482176895e-01   
4.064000000000000e+09    4.781615317261921e-01    -8.789457960600620e-01   -8.894076453769605e-05   1.267258209623238e-05    -1.118869847428927e-04   8.702284340657294e-05    4.749829788404914e-01    -8.733402283477033e-01   
4.065000000000000e+09    4.774735933008135e-01    -8.797251823866221e-01   -1.927274841249011e-07   4.417803412779690e-05    1.059986058229751e-04    -4.825104365577244e-05   4.747494198307538e-01    -8.728779597062438e-01   
4.066000000000000e+09    4.769135732262246e-01    -8.809484519792697e-01   3.412921739128208e-05    -1.375375193672849e-04   3.613881603797763e-05    -2.393574527289897e-05   4.742090504372164e-01    -8.731888426400622e-01   
4.067000000000000e+09    4.763303440077242e-01    -8.813886004631484e-01   -1.188032814761832e-04   1.493388386570190e-04    1.526602621199089e-04    -7.688205500088507e-05   4.741190524500418e-01    -8.727032849018959e-01   
4.068000000000000e+09    4.759559582941568e-01    -8.820713665761317e-01   2.475453679724858e-05    -3.591346887752954e-05   -8.715524678066665e-05   4.369439912869315e-05    4.735660125786080e-01    -8.723553949108004e-01   
4.069000000000000e+09    4.749535552042864e-01    -8.831486230213739e-01   4.335994006240971e-05    -1.513437436930872e-05   -8.933444364663930e-05   8.791444586638773e-05    4.731150121688847e-01    -8.721776437076848e-01   
4.070000000000000e+09    4.744123663212778e-01    -8.834159254526223e-01   8.358119885460031e-05    7.608336296152936e-05    2.160418614777473e-04    -4.198114786479707e-05   4.721377411242660e-01    -8.718000462896870e-01   
4.071000000000000e+09    4.737601931001895e-01    -8.843923478386509e-01   5.747913541157816e-05    3.253446886319956e-05    -9.302025108276774e-05   -6.981937039273905e-05   4.715771198669786e-01    -8.713394929645640e-01   
4.072000000000000e+09    4.732381601019680e-01    -8.851003019861596e-01   1.574649659610606e-04    -2.038401123833560e-04   -5.822653784649525e-05   -5.198371388787274e-05   4.709250641094361e-01    -8.710444818751426e-01   
4.073000000000000e+09    4.728750385075868e-01    -8.856745463430844e-01   -1.638915331096012e-05   1.441564976811482e-05    -3.161415739893382e-05   1.098603071154823e-04    4.699825886179284e-01    -8.708840166949353e-01   
4.074000000000000e+09    4.720844266069760e-01    -8.866606863795922e-01   -1.583814064817125e-04   -8.717307863501605e-05   -2.430318940290548e-05   1.402361649946929e-04    4.691768714695433e-01    -8.704702990277393e-01   
4.075000000000000e+09    4.715994029989883e-01    -8.873104437452792e-01   6.577306541558813e-06    -6.335123983433453e-05   -1.085598675163495e-05   6.282624283039593e-05    4.683101393397077e-01    -8.701126863509522e-01   
4.076000000000000e+09    4.709447694937588e-01    -8.879874091682167e-01   7.215657050801274e-06    -1.188725311245764e-05   -1.137551235744636e-04   1.531999476997482e-04    4.670689535125097e-01    -8.700689537001673e-01   
4.077000000000000e+09    4.701876635087998e-01    -8.883954223469988e-01   5.104168446149929e-05    5.977640858371139e-05    -1.164659463878818e-05   -1.829405936355262e-04   4.656636361701290e-01    -8.694554460507845e-01   
4.078000000000000e+09    4.695699366004009e-01    -8.894843474885031e-01   6.239415982583314e-05    -5.212003479901017e-05   -2.182362575411981e-04   1.946278644299475e-04    4.646288778404520e-01    -8.694006598979305e-01   
4.079000000000000e+09    4.692792202729682e-01    -8.899927131538603e-01   3.666449996283424e-05    1.022934059004576e-04    1.119587307650302e-04    -7.970802947949170e-05   4.634143799121918e-01    -8.691089068063904e-01   
4.080000000000000e+09    4.685786490883370e-01    -8.906283139099467e-01   -3.936838522341238e-05   -3.416678090437881e-06   2.227227909805604e-05    9.295345305710539e-06    4.616518257783104e-01    -8.691899486880723e-01   
4.081000000000000e+09    4.681751431987316e-01    -8.915365779170701e-01   -6.782361935434973e-06   5.207483839299656e-05    -6.652095301592505e-05   -2.306506789520691e-05   4.604038014550833e-01    -8.690647407509369e-01   
4.082000000000000e+09    4.675217130450027e-01    -8.915644072016707e-01   -7.731846713123430e-05   -5.246939631543098e-05   1.743848155291385e-05    -1.780207384441863e-05   4.588675778689752e-01    -8.690753333808990e-01   
4.083000000000000e+09    4.670705755781995e-01    -8.922650967847158e-01   7.839400916100574e-05    -1.096860460034939e-04   8.126457700896205e-05    3.140289525880390e-05    4.571064966290641e-01    -8.691727799044588e-01   
4.084000000000000e+09    4.665731115542691e-01    -8.934774682690384e-01   -6.840840935380651e-05   1.168891292654195e-04    1.705903276112713e-04    -3.472260017765128e-05   4.551564296837946e-01    -8.694360186951336e-01   
