[Version] 2.0
! Rohde & Schwarz Vector Network Analyzer
! Rohde-Schwarz,ZNL20-2Port,1323001220200009,1.71.1.10-23.02.1.238
! 
! Port Assignments:
! Nominal Port -> Actual Test Port
! --------------------------------
!   1 -> 1
!   2 -> 2

! Created: GMT+2 2025-01-17 12:11:21

# Hz S RI R 50

[Number of Ports] 2
[Two-Port Data Order] 21_12
[Number of Frequencies] 16001

[Network Data] 
! freq[Hz]               S11[Re]                  S11[Im]                  S21[Re]                  S21[Im]                  S12[Re]                  S12[Im]                  S22[Re]                  S22[Im]                  
4.000000000000000e+09    5.541580730733504e-01    -8.374888695981727e-01   -2.013479587797969e-04   6.152596864751430e-05    -4.287122346199523e-05   -1.408332243095826e-04   5.386076445040799e-01    -8.154826998022577e-01   
4.001000000000000e+09    5.530385917817623e-01    -8.385506350357842e-01   2.102625279944582e-05    -1.036687799639400e-04   -1.003774420591876e-04   1.180085657075379e-04    5.363327584703144e-01    -8.168016158794980e-01   
4.002000000000000e+09    5.519087342575489e-01    -8.389703958223683e-01   4.722189672159012e-05    1.114667635950027e-06    2.077046526045180e-05    -1.189203881675988e-04   5.343302267863702e-01    -8.176299315601669e-01   
4.003000000000000e+09    5.506731928997717e-01    -8.400752618482404e-01   1.748706540609258e-04    -1.767459591252538e-04   1.653990947682970e-04    9.108788518465161e-06    5.323166487061872e-01    -8.187097696752166e-01   
4.004000000000000e+09    5.492708998582003e-01    -8.405091169283543e-01   4.527883707177246e-05    5.045400138909825e-06    -8.007323602586150e-05   -4.721715842105444e-05   5.303086635942182e-01    -8.197053110816255e-01   
4.005000000000000e+09    5.479299839335898e-01    -8.416929691722735e-01   7.674394879098161e-08    1.078283447217554e-04    7.311933895000947e-06    1.051534392621102e-04    5.279966325981481e-01    -8.208989561327249e-01   
4.006000000000000e+09    5.467490636329081e-01    -8.421027645442817e-01   2.436865066387375e-05    -6.271909638563495e-05   1.830921447347827e-04    2.054375512394389e-05    5.259461858378695e-01    -8.220551708448798e-01   
4.007000000000000e+09    5.455925219276101e-01    -8.429587396358283e-01   -2.106820041004744e-06   -1.598039711542208e-04   7.638507568006076e-05    5.622786204890451e-05    5.239957596583660e-01    -8.233061558485661e-01   
4.008000000000000e+09    5.444269791680257e-01    -8.441424205944343e-01   -1.433061642883876e-04   5.661249560140226e-05    -4.905474880157505e-05   2.477599796137206e-04    5.224042726792661e-01    -8.247102712008421e-01   
4.009000000000000e+09    5.432292559341505e-01    -8.447600847776525e-01   -4.907511687869117e-05   4.069721491772367e-05    4.055232779430356e-05    -3.750645918001566e-05   5.202048733511190e-01    -8.256311957158802e-01   
4.010000000000000e+09    5.419962646824598e-01    -8.453991017959999e-01   3.405166754769697e-05    -1.927112619465615e-05   -7.899121692129912e-05   3.891252872037941e-05    5.180644724436032e-01    -8.272181271410429e-01   
4.011000000000000e+09    5.406857471102519e-01    -8.464930776829299e-01   -1.688058710769669e-04   6.938757167763875e-05    1.095525714165941e-04    1.658242023472263e-04    5.163626485106663e-01    -8.285848615993372e-01   
4.012000000000000e+09    5.393181221196726e-01    -8.471399104285114e-01   -1.408113723196821e-05   1.163249074591114e-04    -4.427178587414898e-05   2.113972549489965e-04    5.142889368815999e-01    -8.296670135699340e-01   
4.013000000000000e+09    5.380882460164544e-01    -8.481823605778491e-01   -1.218017452438859e-05   -1.558934816718802e-05   2.597276540438818e-04    -5.334502053596807e-05   5.126571536390764e-01    -8.313109713980457e-01   
4.014000000000000e+09    5.365688574141811e-01    -8.485970558917442e-01   1.118215528597458e-04    2.308563944600761e-04    7.483877341061773e-05    -2.226875973656913e-05   5.107402019161984e-01    -8.325225674220827e-01   
4.015000000000000e+09    5.354269209393410e-01    -8.493525818169305e-01   3.112401179177058e-05    1.804151599847152e-04    4.030360997893518e-05    1.004501071312751e-04    5.091501993477847e-01    -8.340936341813678e-01   
4.016000000000000e+09    5.343130034475734e-01    -8.500367602800446e-01   -1.313429531858667e-04   1.092373608302846e-04    -1.175565315570979e-04   -4.515478456723759e-05   5.077616352069270e-01    -8.352562820763566e-01   
4.017000000000000e+09    5.330512152040824e-01    -8.508184520048058e-01   -4.151081589914621e-05   1.170771114411148e-04    1.033969264702608e-05    -1.773676202611391e-04   5.060170304686593e-01    -8.367337222519826e-01   
4.018000000000000e+09    5.316185503904236e-01    -8.507989257891840e-01   -8.332333525014140e-05   1.729910113875425e-04    1.693197993136898e-04    -1.738363020876194e-04   5.042876559514796e-01    -8.379671722308355e-01   
4.019000000000000e+09    5.302405555758934e-01    -8.515848261330493e-01   1.095064434786548e-04    -7.839561437918006e-05   -4.126086176637517e-05   -1.794635268546107e-04   5.028846301649942e-01    -8.396032605174377e-01   
4.020000000000000e+09    5.287982394378741e-01    -8.520344420531526e-01   -9.326615011259694e-06   -2.626721332384344e-04   -7.474492767076252e-06   -1.368587101092951e-04   5.010981971432654e-01    -8.409174133427811e-01   
4.021000000000000e+09    5.278798055384106e-01    -8.527340991706447e-01   -1.875708241707609e-04   -1.416017980110254e-04   2.308888273819952e-04    7.778158139853255e-05    5.000738699276989e-01    -8.418351976213517e-01   
4.022000000000000e+09    5.263032049978201e-01    -8.531886181142576e-01   7.614541155059711e-05    -1.081796940339596e-04   -5.475264538889662e-05   2.268072401998830e-05    4.988038249813143e-01    -8.431832812148806e-01   
4.023000000000000e+09    5.254157972688287e-01    -8.537103287692505e-01   1.096206095535116e-05    -1.201429582845934e-04   -4.956830061972657e-05   8.579662338393509e-05    4.974524921328566e-01    -8.445249519738512e-01   
4.024000000000000e+09    5.239017314403667e-01    -8.541180479783358e-01   -1.962413809571238e-05   1.418070952675563e-04    -1.426565968595637e-04   -1.067455433376128e-05   4.963941061752213e-01    -8.456843099068083e-01   
4.025000000000000e+09    5.226715740789589e-01    -8.545095210348789e-01   8.320388818699128e-05    -3.568728952641612e-05   -3.788810611526562e-05   -2.849961286867995e-05   4.951575540057830e-01    -8.471083084766149e-01   
4.026000000000000e+09    5.212369822114282e-01    -8.548454549968949e-01   4.613560189836307e-06    4.738026907515261e-04    7.019851151183551e-05    -3.058866443604218e-05   4.938317490286487e-01    -8.483372457810845e-01   
4.027000000000000e+09    5.200005040450195e-01    -8.552918066741283e-01   -1.870586882165772e-05   3.073713786838512e-05    1.013849443520526e-04    1.751844539275616e-05    4.926417996750997e-01    -8.491271473368638e-01   
4.028000000000000e+09    5.187269106949776e-01    -8.558375617057720e-01   -1.384455873568727e-04   -6.918448666982837e-05   1.350546168211651e-05    1.027259515467976e-04    4.916552079530020e-01    -8.503876436668467e-01   
4.029000000000000e+09    5.176980920963666e-01    -8.567182966330837e-01   -1.946387958817310e-04   -6.632867385526449e-05   2.267197394016324e-04    1.160920401764809e-04    4.904844015491977e-01    -8.515764358481768e-01   
4.030000000000000e+09    5.161627771383906e-01    -8.565807515620707e-01   -5.752088356354730e-05   6.086331525155583e-05    -8.461033738225097e-05   -1.523694977629499e-05   4.893968405093336e-01    -8.528119975671908e-01   
4.031000000000000e+09    5.148079912706750e-01    -8.572139086947841e-01   6.449099590910817e-05    -6.303473757332164e-05   1.547397123213500e-04    -8.636367989715034e-05   4.887013121989680e-01    -8.534731649304278e-01   
4.032000000000000e+09    5.136170929611075e-01    -8.574581574690469e-01   9.765025849816318e-05    9.335859117246595e-06    5.768926624495339e-05    -1.058314657263418e-04   4.878908264370045e-01    -8.546710469908920e-01   
4.033000000000000e+09    5.121825872094748e-01    -8.578728030949864e-01   5.233729940205982e-05    3.565748540044889e-05    8.328933340812652e-06    -1.234368164753875e-04   4.869215204979942e-01    -8.552806829436203e-01   
4.034000000000000e+09    5.107242314358172e-01    -8.585615179557455e-01   -1.292991591567802e-04   6.690653189335692e-06    -4.200084412735487e-05   4.188956546138032e-05    4.859531353286369e-01    -8.567148409843544e-01   
4.035000000000000e+09    5.093138280510683e-01    -8.588833672065915e-01   -1.470424691696824e-04   1.881548330375202e-04    7.282182814935547e-05    -1.981559061908464e-05   4.852139910249045e-01    -8.574581179161830e-01   
4.036000000000000e+09    5.081528267019977e-01    -8.593644408768796e-01   1.017730627195058e-05    -6.410288729460070e-05   4.835653564221041e-05    -3.127329562516679e-05   4.843861120343482e-01    -8.584454611682566e-01   
4.037000000000000e+09    5.065278692988996e-01    -8.597820641127644e-01   -4.348325143342302e-05   -1.021833353789980e-04   8.998410130506737e-05    -3.294025563463453e-05   4.837270803029539e-01    -8.593057975812066e-01   
4.038000000000000e+09    5.052977192037239e-01    -8.601707698292185e-01   -7.956034431089192e-06   -1.452600143135981e-05   -7.544230325119023e-05   -1.259589483697471e-04   4.833357496992017e-01    -8.602048994040529e-01   
4.039000000000000e+09    5.040114258553624e-01    -8.605994644266910e-01   8.668193800318858e-05    1.682313875982694e-04    -9.974243405137630e-06   6.069358722832532e-05    4.824378748806313e-01    -8.611314151645073e-01   
4.040000000000000e+09    5.022599097569465e-01    -8.612379176196824e-01   1.430573814921858e-04    5.062227966548003e-05    -1.279908925283821e-08   4.797155400386250e-06    4.818246197923003e-01    -8.619569782950806e-01   
4.041000000000000e+09    5.012381529850549e-01    -8.614911139427042e-01   1.096307246067201e-04    2.139016835647905e-05    1.600870901362669e-04    4.638415267270811e-05    4.813251893564985e-01    -8.627363590102261e-01   
4.042000000000000e+09    4.997498839148123e-01    -8.625537447392116e-01   4.822636406581505e-05    -1.271420112229837e-04   1.244955621940161e-04    9.291547586584907e-05    4.806382235055314e-01    -8.637693389517411e-01   
4.043000000000000e+09    4.985573834570778e-01    -8.630603957252178e-01   1.049173700687821e-04    -4.241666777811600e-05   -1.155209261201778e-04   -2.046934601065034e-04   4.798307883235144e-01    -8.646160897307631e-01   
4.044000000000000e+09    4.971354490273354e-01    -8.634518594083725e-01   5.198436354317610e-05    -4.355716411072096e-05   9.167839650451719e-05    -5.386715239145038e-05   4.793644022165152e-01    -8.655678030212193e-01   
4.045000000000000e+09    4.959370487889336e-01    -8.642427427016058e-01   -2.044939484538379e-05   -1.903037941035662e-04   1.187382502623647e-04    1.901911864073695e-05    4.790988520204451e-01    -8.660961856272589e-01   
4.046000000000000e+09    4.948598790982874e-01    -8.648905206644613e-01   -5.924779173731105e-05   -8.460783013392174e-05   -2.237215161055106e-05   2.198103423578177e-06    4.785073451298920e-01    -8.668056917197854e-01   
4.047000000000000e+09    4.936531927947197e-01    -8.658650002018095e-01   -2.417551264120656e-04   2.317529581675056e-05    5.578647490376659e-05    -1.632237697401675e-04   4.783882739698135e-01    -8.675067822162514e-01   
4.048000000000000e+09    4.923666682961949e-01    -8.664369362951734e-01   7.521793462104780e-05    9.722741498519896e-06    6.407017786057650e-06    2.531898376558434e-05    4.777892098706599e-01    -8.682233130850854e-01   
4.049000000000000e+09    4.911909670871570e-01    -8.672790802740250e-01   -5.592533607697346e-05   -1.463958030766085e-04   1.060729616276075e-04    1.727682469060296e-04    4.771893564450429e-01    -8.690282362442245e-01   
4.050000000000000e+09    4.902143664226886e-01    -8.679285120124219e-01   -2.800143920839961e-05   5.888980626014630e-06    1.195136457172093e-05    -3.494941616914615e-05   4.772705111616147e-01    -8.696196396824249e-01   
4.051000000000000e+09    4.890542877631598e-01    -8.687872291305644e-01   5.558775483896870e-06    7.326822108632556e-05    -1.538440540724147e-04   -1.297612064137504e-04   4.769220104709829e-01    -8.701730587792108e-01   
4.052000000000000e+09    4.880685401409929e-01    -8.696032133434687e-01   -2.156057658216978e-05   -1.467656548120242e-04   -1.795623146714441e-04   1.295345615282669e-04    4.766435342525888e-01    -8.709235116489579e-01   
4.053000000000000e+09    4.869854828674769e-01    -8.703135133280017e-01   6.659561722017912e-05    -1.203213856433004e-04   6.316848844204487e-05    6.450767671236395e-06    4.765402015423247e-01    -8.713573920315825e-01   
4.054000000000000e+09    4.858999825325170e-01    -8.710834709461298e-01   -6.773485365426438e-05   9.170924074562553e-05    7.203320907447471e-06    -1.288194309444917e-05   4.766409730433389e-01    -8.717326315608881e-01   
4.055000000000000e+09    4.852917581829200e-01    -8.715777779723665e-01   -3.683119512429685e-05   -1.876831020914865e-04   -2.860587210743892e-05   -1.378544918481565e-04   4.762868883339763e-01    -8.724325767164437e-01   
4.056000000000000e+09    4.840724024217491e-01    -8.729474386714071e-01   -9.983266677412326e-06   -4.244018256781335e-05   -1.343982485220520e-04   -8.799681217842768e-05   4.759721893250436e-01    -8.725715119887809e-01   
4.057000000000000e+09    4.834064885609792e-01    -8.733131444974527e-01   -1.163843001631693e-04   1.627241259770382e-04    5.378580581893977e-05    -3.395785499519159e-05   4.761276015813301e-01    -8.729388539892400e-01   
4.058000000000000e+09    4.823769632261848e-01    -8.741872743979069e-01   1.253439845148239e-04    5.819118632671836e-06    1.517062647853866e-04    -1.225031295124272e-04   4.757239540950978e-01    -8.731126212285998e-01   
4.059000000000000e+09    4.816392057889941e-01    -8.752807944982898e-01   9.085388529554636e-06    -2.395200108089629e-05   1.727342924705581e-04    8.328967983187478e-05    4.755926380533727e-01    -8.733369148321682e-01   
4.060000000000000e+09    4.810933337654049e-01    -8.759363223226460e-01   -6.056212355858784e-05   3.862006699505201e-05    1.694445055696035e-04    -7.528839385517485e-05   4.756445748262279e-01    -8.733782215725017e-01   
4.061000000000000e+09    4.801793650770194e-01    -8.770771686582710e-01   -1.211510415037327e-04   7.826643042058914e-05    -8.176566319898678e-05   -3.503304680780609e-05   4.756647775869222e-01    -8.734338155653063e-01   
4.062000000000000e+09    4.794513910265216e-01    -8.774287983514313e-01   3.319560272381961e-05    -1.133276206680491e-04   -6.480522418339137e-05   2.303881135031491e-05    4.753574391049358e-01    -8.734615348899433e-01   
4.063000000000000e+09    4.786909463350125e-01    -8.786813312581560e-01   1.069587204377040e-04    -1.061331429790215e-04   -9.296028050435374e-06   1.001197689342925e-04    4.752817942345707e-01    -8.734357941516278e-01   
4.064000000000000e+09    4.780593998051007e-01    -8.790518052114384e-01   -3.947232347080601e-05   -1.639669562785440e-05   5.254185316645850e-05    2.680002566447493e-05    4.750550926887630e-01    -8.733291784437981e-01   
4.065000000000000e+09    4.775564548798578e-01    -8.798379098887060e-01   7.228793547937659e-05    -1.206943919029808e-05   1.340230109667089e-04    1.175668353222899e-04    4.748339073657477e-01    -8.730830844152015e-01   
4.066000000000000e+09    4.769250187040862e-01    -8.809328626658941e-01   1.304229943142491e-04    -1.889649801011162e-04   -7.021442929797484e-05   -4.784657086510038e-05   4.744431047682822e-01    -8.732354282892895e-01   
4.067000000000000e+09    4.760941843263379e-01    -8.815435028220433e-01   -8.617712882359175e-05   1.016037842026403e-04    1.074606172483279e-04    9.679272331151620e-05    4.739587234770609e-01    -8.726446977773488e-01   
4.068000000000000e+09    4.757030777535620e-01    -8.820410715299049e-01   1.068460311147142e-04    2.889147345324295e-04    -9.044807476326478e-05   -8.981295849833828e-05   4.735851949881400e-01    -8.721296651465916e-01   
4.069000000000000e+09    4.749930594560185e-01    -8.829111959115729e-01   3.555750176453988e-05    -9.615578422610976e-06   -4.934564201067606e-06   5.296113825233949e-05    4.731870958606658e-01    -8.719802882575395e-01   
4.070000000000000e+09    4.742003172624529e-01    -8.836895338057863e-01   1.208428564933868e-05    -5.126125999707457e-05   -2.190948967354916e-04   -7.342844977103872e-05   4.722416943751830e-01    -8.717665931326479e-01   
4.071000000000000e+09    4.736731413843132e-01    -8.844595157251257e-01   -1.117367131523481e-04   -1.880825025090341e-04   -3.147776885656638e-05   7.703758206002052e-05    4.714838959277771e-01    -8.714908601465657e-01   
4.072000000000000e+09    4.732966347641595e-01    -8.851133815315897e-01   -8.839063820149934e-05   -2.578930750207856e-05   2.541001321506181e-04    4.804505710387662e-05    4.710277185316219e-01    -8.710085365083637e-01   
4.073000000000000e+09    4.726094650854076e-01    -8.857681917846232e-01   4.739040197197091e-05    9.057892814600343e-05    -8.507939719334901e-06   -1.660398566443343e-04   4.701729338700676e-01    -8.708317391047481e-01   
4.074000000000000e+09    4.720122616960207e-01    -8.864351927514330e-01   -1.605139238787642e-05   1.727218102783764e-05    -1.628200824766272e-04   8.588127815929737e-05    4.691821545893014e-01    -8.706260867510311e-01   
4.075000000000000e+09    4.714795872234199e-01    -8.871958124490488e-01   -3.131243181731997e-05   -1.082139805671756e-05   1.297196422320045e-04    -3.747286475909169e-05   4.680986641131552e-01    -8.699877841660131e-01   
4.076000000000000e+09    4.710465395019519e-01    -8.879709006722929e-01   -1.665749934929227e-05   1.302542449547314e-04    3.319576348859504e-05    -1.148630144288769e-04   4.672797802140226e-01    -8.702011243588300e-01   
4.077000000000000e+09    4.701121047805487e-01    -8.886642342268345e-01   -7.958632340584562e-05   -2.365162801279052e-05   -1.446646848128583e-06   1.760171888881867e-05    4.660122761731713e-01    -8.695854273998471e-01   
4.078000000000000e+09    4.696045772093148e-01    -8.898244894887117e-01   -2.280768211111679e-05   -3.915006644214314e-05   6.206697502751074e-05    4.903085521861672e-05    4.646836635692033e-01    -8.694540502640812e-01   
4.079000000000000e+09    4.687986219520496e-01    -8.901263260115644e-01   -1.368718478186116e-05   -3.551505148159703e-05   -1.617919774740100e-04   1.976700215587640e-04    4.632242056102902e-01    -8.695762779888216e-01   
4.080000000000000e+09    4.687988337593751e-01    -8.907987740911258e-01   1.258122452734458e-04    2.603731599431243e-05    1.486888227833764e-04    1.666628526897775e-04    4.618817457902781e-01    -8.693392558911662e-01   
4.081000000000000e+09    4.680299449908612e-01    -8.915904701037717e-01   -4.659713058557103e-05   -9.259492491273732e-06   1.064202148116745e-05    6.079797346561115e-05    4.601655941486517e-01    -8.689022801233157e-01   
4.082000000000000e+09    4.679907022779726e-01    -8.917818010283454e-01   -7.036982762353648e-05   -5.253007752706146e-05   8.468371138026720e-06    -1.492977516244701e-04   4.588250168432111e-01    -8.691300037915828e-01   
4.083000000000000e+09    4.666821273454139e-01    -8.926602335004196e-01   8.398539179118625e-05    -4.991484222660986e-05   -7.418651399525899e-05   -1.107366009347564e-04   4.572723011883600e-01    -8.693711993463193e-01   
4.084000000000000e+09    4.659597369011464e-01    -8.932439942082110e-01   7.405417161122266e-05    -4.260925292758028e-06   2.240878078054325e-04    -1.983498575276923e-05   4.553717441002220e-01    -8.692890178281029e-01   
