[Version] 2.0
! Rohde & Schwarz Vector Network Analyzer
! Rohde-Schwarz,ZNL20-2Port,1323001220200009,1.71.1.10-23.02.1.238
! 
! Port Assignments:
! Nominal Port -> Actual Test Port
! --------------------------------
!   1 -> 1
!   2 -> 2

! Created: GMT+2 2025-01-17 12:11:39

# Hz S RI R 50

[Number of Ports] 2
[Two-Port Data Order] 21_12
[Number of Frequencies] 16001

[Network Data] 
! freq[Hz]               S11[Re]                  S11[Im]                  S21[Re]                  S21[Im]                  S12[Re]                  S12[Im]                  S22[Re]                  S22[Im]                  
4.000000000000000e+09    5.540385710108765e-01    -8.373535678645799e-01   8.328142841089929e-06    8.624360162161287e-05    1.941387980907531e-05    -4.875433995705167e-05   5.385339287863217e-01    -8.157916038590192e-01   
4.001000000000000e+09    5.530832721008611e-01    -8.381435271311443e-01   8.602690759861529e-05    -3.536422805212043e-07   -7.684541375023827e-05   4.156656680451129e-05    5.362018115909557e-01    -8.168326448452247e-01   
4.002000000000000e+09    5.516917527467881e-01    -8.387233863285852e-01   1.399847640996206e-05    1.248121053046886e-04    -3.070716352050705e-04   9.714056285236819e-06    5.340525725357259e-01    -8.176749628217910e-01   
4.003000000000000e+09    5.508446709612250e-01    -8.399977128037751e-01   -2.819488707992590e-04   2.613928194979938e-04    2.908134285684266e-04    1.682839246595897e-04    5.323212378907786e-01    -8.189743113434987e-01   
4.004000000000000e+09    5.491175047022641e-01    -8.406114923079223e-01   1.925007998810663e-04    4.370379860766449e-05    -2.302057745908172e-05   -7.172305815996306e-05   5.299727936901442e-01    -8.198569754920115e-01   
4.005000000000000e+09    5.480857537349120e-01    -8.416464373161522e-01   7.885922641789679e-05    -4.751716419601593e-05   1.550127817354358e-04    5.233936696521178e-05    5.281903250682755e-01    -8.207612745563276e-01   
4.006000000000000e+09    5.469542064977290e-01    -8.422271130174409e-01   -4.966897295116748e-05   5.422646336384290e-05    2.534894143759158e-05    3.128139654697597e-05    5.260698107160463e-01    -8.220089817510192e-01   
4.007000000000000e+09    5.455576888110532e-01    -8.429243763493798e-01   8.601606578063067e-05    2.401372498251632e-05    3.745557507187887e-05    -1.232942018278046e-04   5.241057209196557e-01    -8.232670456238246e-01   
4.008000000000000e+09    5.443691387260357e-01    -8.441637909316999e-01   1.482759284856423e-04    -2.350986992528932e-05   -6.146509047342311e-05   -1.438149002148150e-04   5.223478878974667e-01    -8.245652936148555e-01   
4.009000000000000e+09    5.432312357574961e-01    -8.447237564748860e-01   -1.305588004399553e-04   1.430135352781991e-04    3.684539315363366e-05    1.951421665867632e-04    5.201645072477047e-01    -8.257593614926367e-01   
4.010000000000000e+09    5.422625859654886e-01    -8.453871139635142e-01   -1.391617520416735e-04   -2.909327508206333e-05   -2.049153472217438e-05   -4.612000984437354e-05   5.181394287618980e-01    -8.272604386339880e-01   
4.011000000000000e+09    5.406003632712965e-01    -8.461590994986036e-01   -6.474185820559087e-05   -4.322298990422652e-05   -5.356762397791307e-06   -4.683743236841004e-05   5.160727380197719e-01    -8.287751301613259e-01   
4.012000000000000e+09    5.392728718104124e-01    -8.470548224391635e-01   -2.727693940804693e-05   -1.282659365853654e-04   -1.494786993038377e-04   -5.728212558751426e-05   5.142601202141754e-01    -8.302417717466398e-01   
4.013000000000000e+09    5.381473827286672e-01    -8.476871710545764e-01   2.324767793867646e-05    1.294852885208445e-04    1.082418456339760e-04    6.512159058303993e-06    5.128184656249936e-01    -8.313109422133260e-01   
4.014000000000000e+09    5.364289371475800e-01    -8.487040347696599e-01   1.329417709791657e-04    -7.372334018866791e-05   -9.692351966781317e-06   -8.880196568213092e-05   5.109359944965802e-01    -8.326510267014527e-01   
4.015000000000000e+09    5.352151383053924e-01    -8.489324754915630e-01   -1.494531788223159e-04   2.873418394320228e-04    -1.334981187058483e-04   6.418343823725100e-05    5.092597591663517e-01    -8.340188064499032e-01   
4.016000000000000e+09    5.339053563402757e-01    -8.497841604692382e-01   1.257154258042842e-04    -1.012391711337104e-05   8.425120757379895e-05    -1.054571894600542e-05   5.073653041915686e-01    -8.352175665624531e-01   
4.017000000000000e+09    5.329042397476343e-01    -8.503125874777770e-01   -2.985820270749356e-05   1.085922733796077e-04    1.200723313257757e-04    7.941739539683104e-06    5.058375034697612e-01    -8.366709077568006e-01   
4.018000000000000e+09    5.315327738912463e-01    -8.509601137597204e-01   -8.957924443460280e-05   -1.085449468377329e-04   2.293634808272969e-04    -1.161778217339180e-04   5.045237533561590e-01    -8.381047630317920e-01   
4.019000000000000e+09    5.303173565298027e-01    -8.513751773154672e-01   1.540272679947135e-04    -1.259887407836155e-04   -7.129548208606717e-05   -1.450518849888109e-04   5.027920994445314e-01    -8.396048950443095e-01   
4.020000000000000e+09    5.287564753962761e-01    -8.521324134906461e-01   2.356710574724917e-04    -2.534898289186331e-04   -1.390362926099946e-05   1.315239875886599e-04    5.015462091456416e-01    -8.409246591999582e-01   
4.021000000000000e+09    5.280454924037218e-01    -8.525527382037222e-01   6.952537913701093e-05    -9.556914125019717e-05   -1.803242215188944e-05   -6.029467618075432e-05   4.999605234957670e-01    -8.418993465140135e-01   
4.022000000000000e+09    5.262780163179168e-01    -8.529270747571549e-01   -1.482386431063170e-04   -1.192257941169116e-04   -2.866250359398028e-05   -8.505046676683870e-05   4.988739390282387e-01    -8.435787796059341e-01   
4.023000000000000e+09    5.252717338028851e-01    -8.536931117717140e-01   1.886195099723247e-04    4.146822733992243e-05    5.882094901336313e-05    8.556235720485248e-05    4.975445847879263e-01    -8.445897848757230e-01   
4.024000000000000e+09    5.234529785823671e-01    -8.540655662133353e-01   -6.929880586080677e-06   -4.482376955127293e-05   1.070067625273587e-04    -1.288745910504761e-06   4.961001459154307e-01    -8.458747857461805e-01   
4.025000000000000e+09    5.225265012828479e-01    -8.545582128868519e-01   -6.725016082533669e-06   1.162870590310132e-05    -7.043849379132427e-05   -1.137434865435048e-04   4.952213761922304e-01    -8.470191754457272e-01   
4.026000000000000e+09    5.213353954396582e-01    -8.547297950860965e-01   5.043655667910881e-05    2.397642360620062e-04    -1.793906966489573e-04   -6.418792298326501e-05   4.937036399163187e-01    -8.480468275212697e-01   
4.027000000000000e+09    5.200724128960094e-01    -8.553389671612573e-01   -5.840231097344049e-05   -7.059744207394073e-06   7.899502613423960e-05    -5.517999372713428e-05   4.926397649409368e-01    -8.491159417581964e-01   
4.028000000000000e+09    5.186545703344244e-01    -8.558219346429137e-01   -1.787888017267830e-04   3.084535329850726e-04    -1.123036064960950e-04   -4.753319651834084e-06   4.915806805788203e-01    -8.502525219393630e-01   
4.029000000000000e+09    5.174793436399950e-01    -8.563336006728104e-01   -1.394330740849629e-04   -2.137712232704031e-05   8.781073161870658e-05    -3.503410700578343e-05   4.907105460637778e-01    -8.514101276555668e-01   
4.030000000000000e+09    5.161530359610872e-01    -8.564666627868784e-01   1.391549677685507e-06    2.748388533530242e-06    -1.230125822113896e-04   5.720079131702457e-05    4.897371888081380e-01    -8.527473343295656e-01   
4.031000000000000e+09    5.147559038446998e-01    -8.568097237245854e-01   6.945780859824044e-05    -1.529793890380012e-04   8.095984051764544e-05    -2.060076573836503e-04   4.891435121108228e-01    -8.534130406900549e-01   
4.032000000000000e+09    5.134567947865065e-01    -8.575114160371791e-01   -1.760379845068885e-05   -7.657868425997932e-05   4.714670976951658e-06    -1.365672851803965e-04   4.880320097821041e-01    -8.547257148648162e-01   
4.033000000000000e+09    5.119626771088635e-01    -8.579051761335019e-01   -5.347708696107424e-05   7.155382344674685e-05    -1.359750106331415e-04   2.337899391266490e-05    4.869589187557092e-01    -8.554986509441559e-01   
4.034000000000000e+09    5.107337400002322e-01    -8.582768198780466e-01   4.777329598032503e-05    1.685787032214308e-04    -2.817068949753598e-05   -4.882848584730176e-05   4.859778484278980e-01    -8.566147245010824e-01   
4.035000000000000e+09    5.093411299687721e-01    -8.588964690320940e-01   -3.909786004371893e-05   8.141208745312318e-06    -1.139124616449898e-05   -8.123949357524940e-05   4.856592646083991e-01    -8.575794430473446e-01   
4.036000000000000e+09    5.078605061606017e-01    -8.593521361222021e-01   -2.067928073567667e-04   -5.886329678281250e-05   3.810854989661238e-05    -7.265519423452942e-05   4.845665824476802e-01    -8.581843198938178e-01   
4.037000000000000e+09    5.064425751065499e-01    -8.598389916769034e-01   -1.671388942631887e-05   -2.420252530878184e-05   -7.760828246346650e-06   5.788760119172398e-05    4.840896776879015e-01    -8.591576088586418e-01   
4.038000000000000e+09    5.053051891454405e-01    -8.601819977026591e-01   -4.869185611886317e-05   -4.019153289348038e-05   -6.919175553657958e-05   5.313335606871392e-05    4.833877616917132e-01    -8.603068139239147e-01   
4.039000000000000e+09    5.037825397074446e-01    -8.607175790047205e-01   8.296920108616525e-05    -1.033313545966979e-04   -2.246030346344405e-04   -4.171637518257129e-05   4.825277303925859e-01    -8.609385685060824e-01   
4.040000000000000e+09    5.026311555637425e-01    -8.611478230575514e-01   1.580444177189693e-04    5.618382016561663e-05    1.274927483136486e-04    -6.246354454573381e-05   4.817560308319942e-01    -8.619700732808966e-01   
4.041000000000000e+09    5.011297427184945e-01    -8.618705973627159e-01   -6.751597489901357e-05   1.034276998765023e-04    1.801540460709453e-05    1.194607002272179e-04    4.811637072611106e-01    -8.629610079884563e-01   
4.042000000000000e+09    4.998174222298227e-01    -8.625710361582605e-01   -5.039627347852945e-06   6.456313496552941e-05    2.757816705644345e-05    9.898050857198467e-05    4.806821365804868e-01    -8.635560476800219e-01   
4.043000000000000e+09    4.985567996713309e-01    -8.628691251835706e-01   6.036635394546219e-05    6.433340666648855e-05    -1.006531947568711e-04   1.424844030982555e-05    4.801977925346910e-01    -8.643300904455746e-01   
4.044000000000000e+09    4.970687203565067e-01    -8.637261669564881e-01   2.998778744491359e-05    9.149802501347763e-05    1.860246228824902e-05    -9.496210600577086e-05   4.797567682005633e-01    -8.653030198449135e-01   
4.045000000000000e+09    4.959105625801352e-01    -8.642760964661516e-01   -3.440012323582829e-05   -1.486670339682810e-04   1.331487433515191e-04    1.456200354021390e-04    4.788972743700184e-01    -8.658854639396554e-01   
4.046000000000000e+09    4.947159255712930e-01    -8.651324445051061e-01   6.418622613331192e-05    -1.249381414512605e-04   -2.419564631615518e-06   -8.958040003017928e-05   4.785552009767353e-01    -8.665901412680351e-01   
4.047000000000000e+09    4.934979305793618e-01    -8.657326859394402e-01   1.427332951093287e-05    1.509160258644598e-04    -1.039634087417988e-04   -5.156272942709879e-05   4.783054955481621e-01    -8.673041088432689e-01   
4.048000000000000e+09    4.923026042351802e-01    -8.664278500108660e-01   9.451974243569739e-05    -9.200372612939846e-05   1.523869167570196e-04    -8.071447174978667e-05   4.780626198566957e-01    -8.682418845132327e-01   
4.049000000000000e+09    4.910198713496862e-01    -8.668900489998304e-01   4.809993306178622e-05    -2.081474243669956e-04   2.468083652787338e-05    1.497766505278443e-04    4.774551766925120e-01    -8.690360310051046e-01   
4.050000000000000e+09    4.902829994922531e-01    -8.679555560628917e-01   1.094075945959776e-04    8.418227326474758e-05    -4.310700029690241e-05   4.518963673884325e-06    4.775330008882563e-01    -8.698680676171838e-01   
4.051000000000000e+09    4.892687847607591e-01    -8.687485225290424e-01   -2.829199053859482e-05   2.247052300085724e-05    -1.009735559208990e-04   -1.484882817906233e-04   4.769052780474354e-01    -8.700110249128916e-01   
4.052000000000000e+09    4.879199850279856e-01    -8.698968500762934e-01   9.695443336178028e-05    1.669014139299701e-05    -7.118406587466942e-05   -9.032612098847635e-05   4.765557867044368e-01    -8.706105472860847e-01   
4.053000000000000e+09    4.870223139183863e-01    -8.704682597476558e-01   1.516347143997454e-05    -1.453431145649125e-04   7.358151971988662e-06    -1.016026035881747e-04   4.767050547789148e-01    -8.713744840567671e-01   
4.054000000000000e+09    4.860789269001455e-01    -8.712376661989971e-01   -2.419783734115834e-05   -7.693209489144514e-05   -6.221096508681701e-05   1.831676946208255e-05    4.763310350827783e-01    -8.717152538877706e-01   
4.055000000000000e+09    4.851643957042708e-01    -8.718361999369434e-01   -4.523277142853587e-05   3.171028664831898e-05    9.844985211166909e-05    1.663456226588176e-05    4.763889956099348e-01    -8.724125089443442e-01   
4.056000000000000e+09    4.842739296745007e-01    -8.725514615883773e-01   -3.589836984174565e-05   1.005237194691948e-04    1.635475990917724e-04    -7.932465271731638e-05   4.760419348545692e-01    -8.723927106528628e-01   
4.057000000000000e+09    4.832935460535941e-01    -8.733740026831156e-01   -8.619324024407993e-05   9.302441479710463e-05    -3.282581650418619e-05   -2.893660892276568e-05   4.759450374743678e-01    -8.729167307846289e-01   
4.058000000000000e+09    4.824381243503995e-01    -8.741299154979235e-01   -6.301501728940318e-05   1.578944260216906e-04    -3.431886261215382e-05   -6.870457199395391e-05   4.759013165210176e-01    -8.731935757847783e-01   
4.059000000000000e+09    4.817533972159097e-01    -8.752894962292344e-01   1.205843735521500e-05    -6.191269904388663e-07   1.334885007295968e-04    -1.339286828532078e-04   4.757851980060963e-01    -8.733901696059065e-01   
4.060000000000000e+09    4.810991057073572e-01    -8.760120531575099e-01   5.089456441420030e-05    -1.559938361451912e-04   1.802284599559088e-04    1.478361737108302e-05    4.759128117694692e-01    -8.736242656409254e-01   
4.061000000000000e+09    4.802851691965872e-01    -8.768701475942196e-01   2.275992547324620e-05    -8.860538444023035e-05   -2.924690015242286e-05   -7.588273988701586e-05   4.755142546067418e-01    -8.735984386757600e-01   
4.062000000000000e+09    4.794570223610686e-01    -8.775212284942974e-01   -6.396736668869236e-06   -1.825959004152805e-05   -3.051925874920579e-05   7.688859281309064e-05    4.755500860044504e-01    -8.736423669877625e-01   
4.063000000000000e+09    4.786841772598464e-01    -8.784044343684110e-01   -4.477889046877279e-05   -1.522932443073394e-04   6.267816256930238e-05    -6.976578186627706e-05   4.750894891226576e-01    -8.733777798584709e-01   
4.064000000000000e+09    4.782422902439009e-01    -8.790631567059927e-01   -1.107890181796948e-04   7.303296857691487e-05    3.730254551429459e-05    -1.683523921868044e-04   4.750374194948231e-01    -8.733257012762180e-01   
4.065000000000000e+09    4.772903064989203e-01    -8.799066457024943e-01   7.155552828147290e-05    1.049533469931236e-04    5.471869254075620e-05    -9.337185513687862e-05   4.749144546152920e-01    -8.729077426681814e-01   
4.066000000000000e+09    4.768423322676918e-01    -8.810021926738987e-01   4.128771252151304e-05    6.406998130459319e-05    7.005543954499917e-07    -6.238819783722556e-05   4.743469738652845e-01    -8.732780289046885e-01   
4.067000000000000e+09    4.761090789506113e-01    -8.815870972161773e-01   -7.841322494382856e-05   -1.191366711735272e-04   1.079325357633066e-04    5.934365254732224e-05    4.739463758625599e-01    -8.727388885365938e-01   
4.068000000000000e+09    4.756260196708990e-01    -8.824435794806362e-01   -1.741689796757751e-04   6.470589799859235e-05    8.552932427903600e-05    3.704637604840442e-06    4.734203670755616e-01    -8.721889605172949e-01   
4.069000000000000e+09    4.748898755496963e-01    -8.833019920118069e-01   1.751539672074151e-05    5.174075621374552e-05    1.036850800479512e-04    -3.813401347241638e-06   4.730923625238526e-01    -8.720394966371379e-01   
4.070000000000000e+09    4.743555105201724e-01    -8.836557142408841e-01   1.258427494590259e-04    2.949776424684899e-05    -2.235220072338110e-05   -4.613592899590446e-06   4.723127713981832e-01    -8.715690729761306e-01   
4.071000000000000e+09    4.742065093693926e-01    -8.842553959661595e-01   -9.311134900424025e-05   1.079869779766364e-04    6.451799578678621e-06    8.755720680206275e-05    4.716845914490252e-01    -8.715332299363006e-01   
4.072000000000000e+09    4.730466560421973e-01    -8.848851346023650e-01   -1.934097366769739e-04   1.273869130151845e-05    -1.872392452935582e-04   7.959086673533284e-05    4.710189859586841e-01    -8.707462478254918e-01   
4.073000000000000e+09    4.728162490612306e-01    -8.857090564399448e-01   2.383524318350433e-06    7.608526014452595e-06    -5.587623785434031e-05   2.366852534565148e-05    4.703610763984871e-01    -8.707686036633729e-01   
4.074000000000000e+09    4.717942841640786e-01    -8.866836448751241e-01   -8.773078528107125e-05   8.517179995463557e-05    -7.117779558787649e-05   5.915559063599661e-05    4.691658853942080e-01    -8.707085909837999e-01   
4.075000000000000e+09    4.715002233495935e-01    -8.872695662216217e-01   2.057690576150126e-04    1.749051056954437e-04    5.115755408459094e-05    3.636567247976917e-05    4.681504281117690e-01    -8.702105798933251e-01   
4.076000000000000e+09    4.708405500215473e-01    -8.878803932324900e-01   3.471734958009146e-05    -1.146811068346039e-05   -6.757257633843750e-05   -7.875185606984289e-05   4.672990003934490e-01    -8.700973459132394e-01   
4.077000000000000e+09    4.703014224257167e-01    -8.888362075809133e-01   4.196244013019577e-05    -1.407519586672304e-04   1.661334549367874e-05    -1.884257311310654e-04   4.656760769281869e-01    -8.697867914018035e-01   
4.078000000000000e+09    4.696659233477112e-01    -8.893696430817226e-01   4.022122377816950e-05    2.520293673645031e-05    7.264449039406782e-06    4.979534968372521e-05    4.646771686809952e-01    -8.692967493244926e-01   
4.079000000000000e+09    4.693742493624942e-01    -8.902048082743470e-01   -1.735170349126465e-04   -1.649616361614778e-04   -1.370479869193032e-05   1.576117933379879e-06    4.633865196330956e-01    -8.694171726165633e-01   
4.080000000000000e+09    4.685483242487002e-01    -8.905648945149301e-01   3.426060886289487e-06    5.889255244859661e-05    5.855382012390602e-05    -2.060901042025127e-05   4.619231601880894e-01    -8.692616616491161e-01   
4.081000000000000e+09    4.677285724060540e-01    -8.915167641493608e-01   4.014076214667307e-05    3.012167711730842e-05    8.797797597014005e-05    -6.942133714975329e-05   4.603163506273952e-01    -8.693847259867903e-01   
4.082000000000000e+09    4.674961972731059e-01    -8.916173492298833e-01   1.744492863908908e-04    -2.321109159178066e-04   -2.879925597118776e-05   9.092816971005200e-05    4.589998651675920e-01    -8.689961676848791e-01   
4.083000000000000e+09    4.668349958887830e-01    -8.928816561117221e-01   1.495093898011320e-04    1.438427283638800e-04    -3.125793577475256e-05   -5.821239780968065e-06   4.571386773200768e-01    -8.690405345099026e-01   
4.084000000000000e+09    4.660890395466136e-01    -8.934217556818802e-01   2.107105132270831e-04    -1.478699005431160e-05   -4.436572046318573e-05   -7.965894348821171e-05   4.554471852873605e-01    -8.692372754651442e-01   
