[Version] 2.0
! Rohde & Schwarz Vector Network Analyzer
! Rohde-Schwarz,ZNL20-2Port,1323001220200009,1.71.1.10-23.02.1.238
! 
! Port Assignments:
! Nominal Port -> Actual Test Port
! --------------------------------
!   1 -> 1
!   2 -> 2

! Created: GMT+2 2025-01-17 12:11:59

# Hz S RI R 50

[Number of Ports] 2
[Two-Port Data Order] 21_12
[Number of Frequencies] 16001

[Network Data] 
! freq[Hz]               S11[Re]                  S11[Im]                  S21[Re]                  S21[Im]                  S12[Re]                  S12[Im]                  S22[Re]                  S22[Im]                  
4.000000000000000e+09    5.541983919796863e-01    -8.371513436826136e-01   7.824661502967378e-05    5.687258542474677e-05    -3.569605673732224e-05   2.668241936614285e-05    5.383739978337866e-01    -8.154631516057046e-01   
4.001000000000000e+09    5.527974389051106e-01    -8.380506171543456e-01   -1.107902447711354e-05   -1.579429296887949e-04   5.856283373411569e-05    -1.114539537141790e-04   5.367423172972312e-01    -8.167162997462727e-01   
4.002000000000000e+09    5.517282913553926e-01    -8.389635282924444e-01   2.011416517206706e-04    -2.490774933385319e-05   -6.081443907968653e-05   3.342093733584027e-05    5.343462260125886e-01    -8.176403705467203e-01   
4.003000000000000e+09    5.506765445997082e-01    -8.395837027745064e-01   -1.721465074608941e-05   -1.901770311753036e-05   7.327432364425051e-05    2.169948134332723e-05    5.321728373934536e-01    -8.185129612184889e-01   
4.004000000000000e+09    5.492175979991749e-01    -8.405420296531868e-01   -8.214246702866204e-05   -3.734156670456437e-05   4.592938541832299e-05    1.008530435472341e-04    5.305477386756563e-01    -8.197408800564481e-01   
4.005000000000000e+09    5.479852663629357e-01    -8.415377655463607e-01   2.755788078351761e-05    -1.483921483626537e-05   -8.205552975242361e-05   4.033576512097961e-05    5.281749682046671e-01    -8.213587678451559e-01   
4.006000000000000e+09    5.468723244312291e-01    -8.424558467699826e-01   -2.427338946169961e-05   -1.297320183742268e-04   3.083196239525498e-05    7.174167071213254e-06    5.260965670018594e-01    -8.220231028273958e-01   
4.007000000000000e+09    5.454823463261210e-01    -8.430739416626005e-01   1.312014586958828e-04    -2.412839134658047e-04   1.005825922581463e-04    5.730608876033273e-05    5.240181869346724e-01    -8.233394171556965e-01   
4.008000000000000e+09    5.441879299516377e-01    -8.437637130201956e-01   -1.201137245908271e-05   6.262070247533369e-05    1.185339948685271e-04    1.156486007946436e-04    5.220151925754153e-01    -8.247888610897067e-01   
4.009000000000000e+09    5.432814849180883e-01    -8.451361037743768e-01   -8.800989885542182e-05   -2.180433403516807e-04   3.519674035096445e-05    -1.121097027970560e-04   5.205601681286065e-01    -8.258448695067794e-01   
4.010000000000000e+09    5.418467342971135e-01    -8.453376164441408e-01   -2.045111167464293e-04   1.646877562258723e-04    5.854781405589041e-05    -7.447143534170057e-05   5.180498971556119e-01    -8.271891694167148e-01   
4.011000000000000e+09    5.406006823914169e-01    -8.463204654055559e-01   3.246344275692351e-05    1.662403241175979e-05    1.795226387052392e-04    1.857618477665331e-04    5.161026970130880e-01    -8.286618676190880e-01   
4.012000000000000e+09    5.392393702797821e-01    -8.469188057310845e-01   2.123507963487793e-04    8.551495644265410e-06    1.363133642622155e-04    7.280817314440029e-06    5.145046239358043e-01    -8.300302385479463e-01   
4.013000000000000e+09    5.381058535534146e-01    -8.475551983953699e-01   1.232077424519879e-04    4.547949630772691e-06    2.136390317563356e-06    1.628506353814540e-04    5.129904963324908e-01    -8.313029172763803e-01   
4.014000000000000e+09    5.366749343319865e-01    -8.482521423939247e-01   7.936981037415737e-06    4.787753802595910e-05    -1.395166985652623e-04   5.039244241483326e-05    5.111739556234869e-01    -8.328695661287434e-01   
4.015000000000000e+09    5.352896290796864e-01    -8.486789625688040e-01   8.535852927560700e-05    1.623105447268564e-05    3.370427348341400e-05    5.132717553897816e-06    5.094320476776963e-01    -8.340886089898248e-01   
4.016000000000000e+09    5.341798701636975e-01    -8.498336558890882e-01   1.302409601980373e-04    1.346612052910736e-04    1.337675833283977e-04    1.621328179591292e-04    5.072564249337397e-01    -8.354979329626913e-01   
4.017000000000000e+09    5.328408436933602e-01    -8.501068797453427e-01   -2.470917417845191e-05   6.704088814605812e-05    3.448267329812803e-05    7.424523328127149e-05    5.058437825171158e-01    -8.368054956515081e-01   
4.018000000000000e+09    5.314331112564077e-01    -8.510316168755044e-01   5.907643152350252e-05    -5.416095202858818e-05   9.455212417673205e-05    -6.991720744262861e-05   5.043751798666831e-01    -8.381310381540520e-01   
4.019000000000000e+09    5.304112398577179e-01    -8.515817035798002e-01   1.402767603536750e-04    4.543890512565857e-05    -3.937329885489315e-05   7.720970745995456e-05    5.028372954730952e-01    -8.392771177761301e-01   
4.020000000000000e+09    5.291584100271027e-01    -8.522157797063613e-01   -1.022193980008071e-04   -1.572371479590824e-04   8.006253805809688e-05    -4.782210983794886e-05   5.014550331263579e-01    -8.412820923202228e-01   
4.021000000000000e+09    5.275316904516885e-01    -8.524829970696614e-01   1.290945586260853e-04    1.015977348702719e-04    3.006327950006385e-04    7.989769426460626e-05    5.001191997405147e-01    -8.418391221735261e-01   
4.022000000000000e+09    5.263640026830732e-01    -8.531452262744312e-01   9.264014608935411e-05    9.931288893953921e-05    -1.652930406945361e-04   -1.125955067848834e-04   4.984634382712217e-01    -8.431197117363998e-01   
4.023000000000000e+09    5.253523397771247e-01    -8.534705899268952e-01   1.981029037814364e-04    -6.372168475759138e-05   1.653761467299264e-04    5.270464004023351e-05    4.975605881016595e-01    -8.443305419688331e-01   
4.024000000000000e+09    5.238248085165620e-01    -8.541269895178825e-01   -1.434411448388253e-04   -1.224143080076987e-04   7.762028239676111e-05    -1.680219475837021e-04   4.962624952579867e-01    -8.456850010466553e-01   
4.025000000000000e+09    5.228306712411677e-01    -8.546316966373400e-01   2.547072178165310e-04    2.740808069999734e-05    -1.234808572782760e-05   1.112300024417811e-04    4.950514371645571e-01    -8.471724321105438e-01   
4.026000000000000e+09    5.213729185687443e-01    -8.549509752997779e-01   5.343785947717785e-05    -2.497653571065152e-05   5.539348103978184e-05    1.859020958299945e-05    4.938048748968460e-01    -8.482657256748469e-01   
4.027000000000000e+09    5.200942973873440e-01    -8.552923624778854e-01   3.405471693730914e-05    9.310669643018227e-05    -1.676407448240924e-05   8.911412982215830e-05    4.927503415363234e-01    -8.491559374507537e-01   
4.028000000000000e+09    5.187241375882113e-01    -8.559354931144325e-01   -1.438505781304207e-04   2.021945424635543e-04    6.004782222869489e-05    9.313510969155161e-05    4.915956021146712e-01    -8.505469236405474e-01   
4.029000000000000e+09    5.174238479045515e-01    -8.563322931475459e-01   -6.504928107873455e-05   1.097055952019274e-04    -1.561473721576710e-04   -2.647328987334217e-05   4.906367874709913e-01    -8.513379573139173e-01   
4.030000000000000e+09    5.160294367445706e-01    -8.568165877009444e-01   1.826024370271212e-04    -1.008535305326922e-04   1.736957286889996e-05    2.151968845021540e-05    4.895531706190192e-01    -8.527630493238467e-01   
4.031000000000000e+09    5.147943075244353e-01    -8.572325567800810e-01   1.490911036137729e-04    -8.624098103146588e-05   9.175579896075550e-07    -1.125400956735439e-06   4.887403152408071e-01    -8.534764614433520e-01   
4.032000000000000e+09    5.136408210363702e-01    -8.576292915176082e-01   -9.011813414593853e-05   7.275096983726112e-05    1.151893557569287e-05    -7.135090543221496e-05   4.878622079123618e-01    -8.547207873365006e-01   
4.033000000000000e+09    5.120400686727391e-01    -8.578641984426210e-01   -5.301708951606270e-05   -5.615672461983473e-05   -8.640419321483212e-05   7.437391121757816e-05    4.872138090344594e-01    -8.555300490291289e-01   
4.034000000000000e+09    5.107101725255367e-01    -8.584530437405209e-01   3.131487402921410e-05    -1.413258962865665e-04   7.379399559936486e-06    1.060690677422471e-04    4.861731120175679e-01    -8.565697137585626e-01   
4.035000000000000e+09    5.093247271126907e-01    -8.588539892533439e-01   -7.223679432476184e-05   4.244680967789124e-05    -2.297056610173452e-04   1.601699967124219e-04    4.854704156419135e-01    -8.572656202267808e-01   
4.036000000000000e+09    5.077972473596343e-01    -8.591219643693143e-01   2.486330362219433e-05    1.036967037477113e-04    -5.870120738547882e-05   4.344404853410073e-05    4.845502847109674e-01    -8.581593506246692e-01   
4.037000000000000e+09    5.064371559614849e-01    -8.596634085252409e-01   1.475848387010448e-05    3.750115308592471e-05    9.643350133360294e-05    2.267271470744028e-05    4.839641616615335e-01    -8.592649182543021e-01   
4.038000000000000e+09    5.051385259007664e-01    -8.599826914882694e-01   -1.320467307624795e-04   1.081252178883175e-04    5.946454235021855e-05    -1.516224628130391e-04   4.833858411234659e-01    -8.600431432394411e-01   
4.039000000000000e+09    5.039581428344900e-01    -8.606562572900127e-01   1.798776574317657e-04    -1.058155257812174e-04   -1.330668880504885e-04   -1.484141125703863e-04   4.825438927556227e-01    -8.611118167363860e-01   
4.040000000000000e+09    5.024107325898871e-01    -8.611650745046191e-01   9.684657668424730e-05    -4.407136704917108e-05   7.543100451964347e-05    8.078339538539545e-05    4.817153005570219e-01    -8.619673158762092e-01   
4.041000000000000e+09    5.009210644501580e-01    -8.618289971351673e-01   -1.416184735240668e-04   1.476766352154113e-05    1.072000189025018e-04    -6.019081668320334e-05   4.811094473004035e-01    -8.629458240074761e-01   
4.042000000000000e+09    4.996893041700186e-01    -8.624509965193686e-01   3.294007705112126e-05    1.786883632305320e-04    -1.030379990255851e-04   5.485165620517986e-05    4.805579264574614e-01    -8.636804573476003e-01   
4.043000000000000e+09    4.985941776792496e-01    -8.630348936670034e-01   -9.364808642511398e-05   1.806315069078021e-04    -3.672872478323103e-05   -4.840568120164751e-05   4.804181845563754e-01    -8.646648680981410e-01   
4.044000000000000e+09    4.972626799330133e-01    -8.636828593252568e-01   -1.029741475347401e-04   9.769265040788871e-05    3.636347487061184e-05    -4.724783739541622e-05   4.796585130044844e-01    -8.652287466500753e-01   
4.045000000000000e+09    4.959775429216852e-01    -8.641746160036253e-01   -4.033927869367154e-05   -1.675903315649069e-04   5.037549889402800e-05    5.718911400059653e-05    4.791475341044379e-01    -8.656780395520787e-01   
4.046000000000000e+09    4.946944868985675e-01    -8.651909531633657e-01   -2.765313249506657e-05   5.202193156266016e-05    5.686859014508522e-05    -1.197373227004773e-04   4.788567813304041e-01    -8.668646629199416e-01   
4.047000000000000e+09    4.936371040102224e-01    -8.657545566336148e-01   6.586016909301787e-06    -1.337241012011033e-04   -3.843864690497220e-05   4.980226107527416e-05    4.781449007004346e-01    -8.674308950309295e-01   
4.048000000000000e+09    4.924232991113724e-01    -8.666389452946804e-01   -5.030836531918412e-05   -1.012441822028865e-04   6.452141762492020e-05    -9.972380478087670e-05   4.779982026568372e-01    -8.681192462594712e-01   
4.049000000000000e+09    4.912119966786482e-01    -8.671639427696705e-01   7.908970643308238e-06    4.398988491605884e-06    -1.189223854823506e-04   -3.290524133925495e-05   4.775283730555335e-01    -8.690762825647077e-01   
4.050000000000000e+09    4.901264553396696e-01    -8.678796942431746e-01   -5.937395137613694e-05   -4.055464140396763e-06   1.163419441114861e-04    1.862991085406476e-05    4.772774012536268e-01    -8.697135036974122e-01   
4.051000000000000e+09    4.892861068361429e-01    -8.686729541269025e-01   6.978584049280492e-05    3.623450396687158e-05    -2.634291364489266e-05   1.361157463040456e-05    4.771978055075310e-01    -8.700768514152876e-01   
4.052000000000000e+09    4.879001689536991e-01    -8.698039740386643e-01   2.191803281642847e-04    -1.238818873885128e-04   4.313418282644556e-05    -1.564005664176117e-04   4.767406679499199e-01    -8.707246849170235e-01   
4.053000000000000e+09    4.871266598602892e-01    -8.700822540964900e-01   -1.563965542241614e-04   -6.692551846004944e-05   -2.708542097623420e-05   1.187078985352645e-04    4.765720135762051e-01    -8.712332077085106e-01   
4.054000000000000e+09    4.860433836585244e-01    -8.712240604635657e-01   1.102224430079075e-06    2.420139606357138e-05    4.786919723647948e-05    1.178591884961665e-04    4.765774149206674e-01    -8.717284646486573e-01   
4.055000000000000e+09    4.852924732283919e-01    -8.719671786431229e-01   -1.115417927819278e-04   -4.984913462040997e-06   6.033716344977388e-05    3.411540324541830e-05    4.762468404443624e-01    -8.722077386861545e-01   
4.056000000000000e+09    4.841362589345754e-01    -8.728587181992939e-01   -1.128201672220969e-04   -5.918088174961190e-05   1.141184272313605e-04    1.115707180096630e-04    4.760177418624958e-01    -8.722538973918511e-01   
4.057000000000000e+09    4.836259410412828e-01    -8.734664757488909e-01   -1.424572302351898e-05   1.068447522493974e-04    6.265788882533513e-05    6.966400834312494e-06    4.760223784636391e-01    -8.725578888741933e-01   
4.058000000000000e+09    4.824504398919268e-01    -8.740259631603965e-01   -3.631491650984918e-05   2.325406679542024e-05    3.244167428859559e-05    -2.041380995524065e-06   4.759391677401648e-01    -8.731807338296298e-01   
4.059000000000000e+09    4.818706950953288e-01    -8.753269067524864e-01   6.639449520743135e-06    -1.289563901847699e-05   2.941055491552746e-05    1.285026019599830e-04    4.758353942048196e-01    -8.732444372617554e-01   
4.060000000000000e+09    4.809789402598148e-01    -8.760227045402919e-01   1.911599297194293e-05    -2.985485826673652e-05   1.130659163247864e-04    5.773330722276835e-05    4.758285207888240e-01    -8.735145559904776e-01   
4.061000000000000e+09    4.802087328501548e-01    -8.770295570409179e-01   -8.756753338295172e-05   1.286194390169775e-04    -8.364431285299884e-05   5.081471436222407e-06    4.754953823467594e-01    -8.738228122285879e-01   
4.062000000000000e+09    4.794153522893616e-01    -8.774906137834315e-01   2.737771856276401e-04    3.839714312469033e-05    -1.655790708176781e-04   -8.356490737755832e-05   4.753876743144596e-01    -8.732176453050084e-01   
4.063000000000000e+09    4.785593366239202e-01    -8.785484643311170e-01   1.063650599299508e-04    7.773319713664285e-05    -7.344946852511737e-05   8.974154305889715e-06    4.751113034300713e-01    -8.735339827835842e-01   
4.064000000000000e+09    4.782999705008935e-01    -8.791647860481836e-01   -7.059272135524683e-05   -7.236797577041080e-06   -6.763587850916769e-05   5.909473415290165e-05    4.749508315042447e-01    -8.733683303415856e-01   
4.065000000000000e+09    4.773377517690898e-01    -8.800111558362170e-01   1.168204927906230e-04    2.835025770666170e-05    -6.951008645804086e-05   -8.710999433583143e-07   4.745952173483677e-01    -8.734114527562875e-01   
4.066000000000000e+09    4.768358285038111e-01    -8.808919442990556e-01   1.944977575612344e-04    5.232820848018950e-05    6.650332804803066e-05    2.483294934090062e-05    4.745425377156774e-01    -8.729750396048395e-01   
4.067000000000000e+09    4.760723173607682e-01    -8.814879074201961e-01   -2.943090088600848e-05   4.541038341529037e-05    -4.443730906237996e-05   -1.155672435698701e-04   4.741250529343662e-01    -8.724527983742747e-01   
4.068000000000000e+09    4.756144289794936e-01    -8.820821487380959e-01   -9.677682388453038e-05   1.608031012326897e-04    -1.181428004385283e-04   9.686691553718355e-05    4.738502089389574e-01    -8.723357043717185e-01   
4.069000000000000e+09    4.750620709332732e-01    -8.831240960472676e-01   6.190686505402544e-05    -6.932897716822021e-05   1.718548001047346e-05    1.565761199736804e-04    4.729796697133742e-01    -8.721291262630059e-01   
4.070000000000000e+09    4.742249684458772e-01    -8.835651686245571e-01   4.742098817593212e-05    1.725536259870487e-05    1.366021693298158e-04    -1.853450006392501e-04   4.722901244312261e-01    -8.716816633502390e-01   
4.071000000000000e+09    4.737990197281904e-01    -8.846280426773557e-01   -2.775861014908022e-05   1.120797896821996e-04    3.497916539576061e-05    5.999244177853896e-07    4.718699104314245e-01    -8.714364296409247e-01   
4.072000000000000e+09    4.731153081783968e-01    -8.853677832121523e-01   -5.847359524262625e-05   -1.327203326835535e-04   -3.376909458352369e-05   1.263007710212292e-04    4.709681165179284e-01    -8.711117535461304e-01   
4.073000000000000e+09    4.727746404272031e-01    -8.858357021167745e-01   7.610971050985025e-05    -5.809710136929398e-05   -6.145160159494494e-05   1.573131445266906e-04    4.699708097964768e-01    -8.710247147466044e-01   
4.074000000000000e+09    4.722723078370572e-01    -8.866927367162516e-01   -1.267682465572420e-04   -4.389192679180337e-05   -1.369034494742408e-04   8.264748737266414e-05    4.691616185683017e-01    -8.706289467498103e-01   
4.075000000000000e+09    4.716019596211113e-01    -8.876247387884775e-01   -3.701455485124212e-05   -1.830397072730766e-04   -1.032121527260552e-04   2.557779807790637e-06    4.678729331448120e-01    -8.703299470759198e-01   
4.076000000000000e+09    4.706121033385220e-01    -8.882079248156596e-01   -5.198937525033419e-05   -1.083381361720316e-04   -2.792537487299047e-05   -1.062438224452123e-04   4.671058115345376e-01    -8.701089776192987e-01   
4.077000000000000e+09    4.703142011379587e-01    -8.885613691694437e-01   1.696907140507953e-05    -7.190497457996914e-05   -1.369176018562201e-05   -7.730919419027092e-05   4.657730924274760e-01    -8.692415765961152e-01   
4.078000000000000e+09    4.696375673344269e-01    -8.894293363813121e-01   -5.123129833993528e-05   1.711225441370659e-04    1.823850738474080e-05    7.929592239417220e-05    4.643263898742626e-01    -8.694057823334937e-01   
4.079000000000000e+09    4.690495704235778e-01    -8.900367499687564e-01   -9.321801297031283e-05   2.183314331451137e-06    7.641580078595662e-05    1.221730544763887e-04    4.632489429105609e-01    -8.693486249429205e-01   
4.080000000000000e+09    4.686896836986654e-01    -8.907229795684882e-01   5.522264800239023e-05    1.245517709927616e-04    7.705053075569114e-05    -2.888199972406967e-05   4.618217626857728e-01    -8.692922737395080e-01   
4.081000000000000e+09    4.682153730488197e-01    -8.915947149553066e-01   -3.740103724634659e-05   -5.425195006564432e-05   1.781878515769461e-05    -1.847587939359402e-04   4.605062497508318e-01    -8.691450128450570e-01   
4.082000000000000e+09    4.677295785689893e-01    -8.918879296330923e-01   1.013158362260503e-04    -5.046372100972745e-05   8.711025517358580e-05    1.965288647446455e-05    4.589805924561804e-01    -8.689480990585232e-01   
4.083000000000000e+09    4.666444068684135e-01    -8.925615287808473e-01   -6.596901459117791e-05   8.883317706189144e-05    6.726839932963470e-05    -1.200087584853171e-04   4.571674110446118e-01    -8.692688570932077e-01   
4.084000000000000e+09    4.658777202047034e-01    -8.932869280832638e-01   6.313242793851391e-05    2.656434640288815e-04    2.563829950319887e-05    1.615897394146053e-04    4.553673034979622e-01    -8.693882671027049e-01   
