[Version] 2.0
! Rohde & Schwarz Vector Network Analyzer
! Rohde-Schwarz,ZNL20-2Port,1323001220200009,1.71.1.10-23.02.1.238
! 
! Port Assignments:
! Nominal Port -> Actual Test Port
! --------------------------------
!   1 -> 1
!   2 -> 2

! Created: GMT+2 2025-01-17 12:12:17

# Hz S RI R 50

[Number of Ports] 2
[Two-Port Data Order] 21_12
[Number of Frequencies] 16001

[Network Data] 
! freq[Hz]               S11[Re]                  S11[Im]                  S21[Re]                  S21[Im]                  S12[Re]                  S12[Im]                  S22[Re]                  S22[Im]                  
4.000000000000000e+09    5.540843814101298e-01    -8.376417905084582e-01   -8.559407524938952e-05   5.852828286455203e-05    2.357670667711127e-05    5.224082540251381e-05    5.387828460466425e-01    -8.154764946233968e-01   
4.001000000000000e+09    5.530115889515071e-01    -8.383035910199305e-01   -7.258338626695786e-05   -1.251968146966881e-04   1.254532783840115e-04    4.562814984853104e-05    5.362798161776738e-01    -8.167931318948687e-01   
4.002000000000000e+09    5.521420138351296e-01    -8.393102565186408e-01   1.838188804617058e-04    -7.637877409168174e-05   1.495170854346598e-05    -1.325326705968428e-04   5.343960152714871e-01    -8.176718949703851e-01   
4.003000000000000e+09    5.504442999617583e-01    -8.396638145780567e-01   6.478390048952407e-05    9.849991446877584e-05    -6.634062853379377e-05   -5.725554063560011e-05   5.321659554374568e-01    -8.188200165185762e-01   
4.004000000000000e+09    5.493554889909944e-01    -8.409053462461480e-01   2.209017508046633e-05    -2.749612355777041e-05   8.673944627404679e-05    1.147227389117099e-04    5.303042911461037e-01    -8.198304259276784e-01   
4.005000000000000e+09    5.478666019786405e-01    -8.414467278388638e-01   8.975588861812224e-05    2.460291995937248e-04    -7.277028537288742e-06   8.098582651810233e-05    5.281569622675701e-01    -8.208817342737427e-01   
4.006000000000000e+09    5.469490330176993e-01    -8.421259276887435e-01   -1.093455969817379e-05   -2.202746728730419e-05   5.127873103567148e-05    6.563594875892496e-05    5.261065811585446e-01    -8.223371431099430e-01   
4.007000000000000e+09    5.459702350173549e-01    -8.433092826580962e-01   -5.105960102184979e-05   1.206455050600767e-05    -6.312371166224091e-05   -6.874589245615640e-06   5.241090147756098e-01    -8.235872190072168e-01   
4.008000000000000e+09    5.442396582416373e-01    -8.443714992063005e-01   6.603134412765814e-05    -1.459252438856058e-04   -4.489240025933931e-05   -1.133702623079971e-04   5.225643520454103e-01    -8.246082993754991e-01   
4.009000000000000e+09    5.428515490613157e-01    -8.448093189883191e-01   -5.376064947737671e-05   1.908341158015547e-05    -4.701560303209776e-05   -1.007280581236327e-04   5.202954934693554e-01    -8.258712546553033e-01   
4.010000000000000e+09    5.419473629740812e-01    -8.457077707130786e-01   5.218609741653997e-05    1.970254580589171e-05    -1.185981644630543e-04   -1.063255793093956e-04   5.183374548545204e-01    -8.271136121534604e-01   
4.011000000000000e+09    5.406217052972909e-01    -8.461628886758163e-01   -1.050016834060619e-04   1.729446941003051e-05    2.624974657558582e-04    8.941687000559957e-06    5.164599557636506e-01    -8.285956743578107e-01   
4.012000000000000e+09    5.393253030345797e-01    -8.471468168607393e-01   1.103328127400239e-04    -3.599662313000800e-06   6.171863879556738e-05    -5.370203204471044e-05   5.148156816640002e-01    -8.302133048782326e-01   
4.013000000000000e+09    5.379782424004287e-01    -8.481489576491789e-01   -5.309669009934873e-05   4.773018105740039e-05    -3.683049269665149e-05   -2.784242076440128e-05   5.131100404249620e-01    -8.313489298792724e-01   
4.014000000000000e+09    5.366005735872260e-01    -8.484849958514229e-01   1.111525484219691e-04    8.365071507412994e-05    1.691777305761507e-04    -8.229539299658247e-06   5.108820527393501e-01    -8.325878245547407e-01   
4.015000000000000e+09    5.352585066885651e-01    -8.489199762582202e-01   -1.515133433734656e-05   -2.264329995307680e-05   -2.558787404661854e-05   -5.924047994597128e-05   5.092407150970489e-01    -8.339012155038004e-01   
4.016000000000000e+09    5.340641286529673e-01    -8.501633634772481e-01   -1.059752909931516e-04   -6.868595981331747e-05   -5.132634823486358e-05   -1.147525975272560e-04   5.074821222393756e-01    -8.353178236768164e-01   
4.017000000000000e+09    5.330622192788537e-01    -8.504076616477867e-01   -1.987623713215452e-04   3.851451874173017e-05    -1.717139508170036e-04   -1.196640441018471e-04   5.058949987562020e-01    -8.366610698595796e-01   
4.018000000000000e+09    5.315873423384841e-01    -8.511441243106496e-01   6.649305314819781e-05    3.969097488841302e-05    3.247490833953424e-05    4.200225932481218e-05    5.044249947814122e-01    -8.381313880445787e-01   
4.019000000000000e+09    5.302061190713037e-01    -8.512798004124332e-01   -7.868535330116257e-05   2.402149694181704e-04    -3.723490031581854e-05   -1.291530097179901e-04   5.030124611066280e-01    -8.396165976353929e-01   
4.020000000000000e+09    5.290209430509433e-01    -8.518687011052539e-01   -5.575116431418084e-05   1.838853365630045e-04    1.154219638435411e-04    1.094423236687470e-05    5.015546121663077e-01    -8.407662467761060e-01   
4.021000000000000e+09    5.279196381931992e-01    -8.524705439840948e-01   -1.578132824248536e-04   -6.780178550344884e-05   -7.609353285762184e-05   1.745024729492135e-04    4.999111149941228e-01    -8.422612726879825e-01   
4.022000000000000e+09    5.264420130228037e-01    -8.532425484340400e-01   -5.308603813389747e-06   -1.901681414256647e-05   -9.441965469434827e-05   -1.475991134046303e-04   4.988618768823660e-01    -8.432759106181059e-01   
4.023000000000000e+09    5.252305866666684e-01    -8.535409249215092e-01   1.070609370434213e-04    -5.803682114129095e-05   -6.202599521459824e-05   -9.451025649912123e-05   4.971739959667660e-01    -8.443745612713859e-01   
4.024000000000000e+09    5.238555437408100e-01    -8.537991081809474e-01   -3.971609763381622e-05   2.027886009235792e-04    1.673038527355346e-06    1.131391167823182e-04    4.961695134841396e-01    -8.454517045256382e-01   
4.025000000000000e+09    5.228024671236499e-01    -8.545769439795846e-01   5.344211402131947e-05    1.414533441345387e-04    1.586007799782548e-04    -7.755297676168517e-05   4.950757108105390e-01    -8.470526467424955e-01   
4.026000000000000e+09    5.210849553023217e-01    -8.550918896487167e-01   1.774290828419801e-05    7.342288672396590e-05    5.426615894252580e-05    2.324400022048568e-05    4.939376439716124e-01    -8.482129114328550e-01   
4.027000000000000e+09    5.199708786460049e-01    -8.551381543749038e-01   -1.900283463639328e-04   -3.201898059838358e-05   4.710077420289333e-05    -2.214764429799025e-05   4.932369236811421e-01    -8.490780196424803e-01   
4.028000000000000e+09    5.189783399804260e-01    -8.555097677092530e-01   4.604300298557399e-05    7.861404121404862e-05    5.354639866557071e-05    2.129359703484076e-05    4.918001186537387e-01    -8.504902211204912e-01   
4.029000000000000e+09    5.174647795388293e-01    -8.561613989364816e-01   -1.783361214877724e-04   -1.144648514284717e-04   1.998850746064105e-04    4.852558037934060e-05    4.907944447742597e-01    -8.515047287695218e-01   
4.030000000000000e+09    5.162100769216241e-01    -8.566857017291212e-01   9.393561166759013e-05    -2.034627972076225e-05   -1.201262239755948e-04   9.709086295645065e-05    4.899625400961398e-01    -8.529098392664899e-01   
4.031000000000000e+09    5.146430494240345e-01    -8.568860351320781e-01   -1.203026370626839e-04   -1.129506274621942e-04   1.869241089537588e-05    -1.995395788846907e-04   4.887894959181113e-01    -8.534148719680456e-01   
4.032000000000000e+09    5.134234772881154e-01    -8.574808093327930e-01   -7.654152368125705e-05   1.349570501573854e-04    -7.120797488385153e-05   4.429882749046501e-07    4.880478767774261e-01    -8.545594431513779e-01   
4.033000000000000e+09    5.122796572909331e-01    -8.580191309865465e-01   -7.083145689121652e-05   -2.563405193068210e-04   -6.203874757775257e-05   -2.016289696813426e-04   4.871916957305432e-01    -8.554257751000838e-01   
4.034000000000000e+09    5.106100077109277e-01    -8.585245260455171e-01   -5.363822426947797e-05   1.160311920620392e-04    1.697593974792361e-04    1.104501849756810e-04    4.862960549224375e-01    -8.568245576386865e-01   
4.035000000000000e+09    5.092019756420710e-01    -8.590270731300006e-01   1.191783996471203e-04    -2.701694188487209e-05   7.370075681747711e-05    1.220828296579456e-04    4.857336558514516e-01    -8.573680695108650e-01   
4.036000000000000e+09    5.082054200584013e-01    -8.594371506275047e-01   -4.981092066945774e-06   1.462046157431230e-04    7.411784943678404e-05    -1.025536908097376e-04   4.847325146095098e-01    -8.582446562513812e-01   
4.037000000000000e+09    5.063099639573150e-01    -8.596555024638524e-01   -1.206485675305303e-04   -2.424524666729853e-05   -1.290096829697642e-04   1.659530805790475e-04    4.841878251992784e-01    -8.592063290262960e-01   
4.038000000000000e+09    5.051441955240842e-01    -8.601016883870447e-01   1.499961630302647e-05    4.321800584604396e-05    -8.758711121330643e-05   -6.310521126609593e-05   4.834245912202407e-01    -8.602057198653471e-01   
4.039000000000000e+09    5.041145494528897e-01    -8.608206742602863e-01   1.488542338920341e-04    -2.598653415634346e-04   1.400180209497312e-04    -4.221071421159124e-05   4.826122420597588e-01    -8.610149994645206e-01   
4.040000000000000e+09    5.026844207867758e-01    -8.613701129574057e-01   1.491712469999238e-04    -1.342001436366637e-04   -6.638559372977569e-05   1.277178942164613e-05    4.820693844152367e-01    -8.620141478593969e-01   
4.041000000000000e+09    5.012755052694019e-01    -8.616478345281798e-01   -1.079066353707618e-04   -1.038833147852270e-04   6.585971861157198e-05    1.173739882949061e-04    4.814081840284684e-01    -8.628287410677448e-01   
4.042000000000000e+09    4.996857201955587e-01    -8.621616773344756e-01   -1.263611644350700e-04   9.191157461221842e-05    -1.138044244530587e-05   1.627655476452165e-04    4.807089747499924e-01    -8.636165647718882e-01   
4.043000000000000e+09    4.985288990443280e-01    -8.628166370089922e-01   -3.665066134114049e-05   1.233915855935217e-04    5.138095942917760e-05    -2.536229090371698e-04   4.803027693831122e-01    -8.645626573476516e-01   
4.044000000000000e+09    4.972031360254030e-01    -8.636558800018843e-01   1.437204529645026e-04    2.788264502389173e-05    1.139440965395803e-04    4.041537400835092e-05    4.793953146359719e-01    -8.653331426368294e-01   
4.045000000000000e+09    4.957347887853289e-01    -8.644767384177697e-01   -3.179634063392084e-05   -1.993413938766259e-04   6.527809629164009e-05    -7.614977071093468e-05   4.790986862423502e-01    -8.658939351162164e-01   
4.046000000000000e+09    4.947181051256931e-01    -8.652016666193945e-01   -3.232842490899374e-05   -5.064479949567765e-06   -1.303676703922065e-04   -6.130373767286908e-05   4.787869920174241e-01    -8.665343484203524e-01   
4.047000000000000e+09    4.935632961258025e-01    -8.656599257704854e-01   -7.258373045478274e-05   3.049924118050555e-05    -3.806223586132509e-05   -9.979910523992480e-05   4.781049436165935e-01    -8.672552241874426e-01   
4.048000000000000e+09    4.924154910336586e-01    -8.665617469844750e-01   -1.047363753901511e-04   -3.817392516194406e-05   7.350224608535900e-05    4.630825893618471e-05    4.781839589978812e-01    -8.682603429932430e-01   
4.049000000000000e+09    4.910525842624966e-01    -8.673643211207140e-01   1.158857531705511e-04    1.298957399737415e-04    -1.174097768867600e-04   1.615761047204972e-04    4.775211683893344e-01    -8.689864029700307e-01   
4.050000000000000e+09    4.904013323162769e-01    -8.678056722317057e-01   1.678976660831708e-04    1.100545570564296e-04    4.233888115737696e-06    6.503601237060596e-05    4.773327900312476e-01    -8.697517419166760e-01   
4.051000000000000e+09    4.891002645857278e-01    -8.686759742625512e-01   1.529317111679641e-04    1.369747808694600e-04    -3.836034150394439e-05   -1.585738579795906e-04   4.770037704710310e-01    -8.701562004120241e-01   
4.052000000000000e+09    4.882548939514805e-01    -8.697457357119354e-01   2.482255444689729e-04    1.619297750744409e-05    3.162002335443348e-05    -3.685816425559340e-05   4.767741033024860e-01    -8.705344822348855e-01   
4.053000000000000e+09    4.870339870668444e-01    -8.703480893587541e-01   1.096770549231575e-04    4.494928990544287e-05    -2.923370244487163e-05   -1.633058294268626e-04   4.766184467806109e-01    -8.713327208993525e-01   
4.054000000000000e+09    4.860110370240305e-01    -8.712259596097817e-01   -2.610465688240794e-04   2.466309115997853e-04    6.576368740376054e-05    1.744004302595070e-04    4.766455359148234e-01    -8.717234042398528e-01   
4.055000000000000e+09    4.851445098474787e-01    -8.719955403359531e-01   -1.094824031454190e-04   -1.461958854036500e-05   -7.518796250527421e-05   3.088178697810732e-05    4.765421118131484e-01    -8.724076045940700e-01   
4.056000000000000e+09    4.842999255362118e-01    -8.728128214702254e-01   -1.207979200864692e-04   -2.949587242648201e-05   -3.087054926186256e-05   1.565994248324822e-05    4.761200787048678e-01    -8.725227253905659e-01   
4.057000000000000e+09    4.835314227366449e-01    -8.734552094193452e-01   3.250433492267207e-05    5.975819591935824e-05    1.246227214918513e-04    3.424408315250510e-05    4.761635873026597e-01    -8.730434546668521e-01   
4.058000000000000e+09    4.823184259026566e-01    -8.741427289409198e-01   3.176126767613987e-07    -1.532906990510477e-04   -1.424726955437257e-04   -5.004684765124127e-05   4.760477303402277e-01    -8.729301373304543e-01   
4.059000000000000e+09    4.814704052756779e-01    -8.755989643717055e-01   5.865486854886453e-05    -1.175302770583900e-04   1.174703394776449e-04    3.359546785992451e-05    4.760170365544922e-01    -8.734665685979376e-01   
4.060000000000000e+09    4.811157528073558e-01    -8.761062774522151e-01   -5.148422643103969e-05   -6.059063812442078e-05   2.916288856937585e-05    -6.998248515381038e-05   4.758402052911727e-01    -8.733691894774278e-01   
4.061000000000000e+09    4.802584305294116e-01    -8.769352441625836e-01   -5.493263096784969e-05   6.964522326437025e-05    -6.392487843001171e-07   -1.276674152753301e-04   4.754960487439639e-01    -8.732638590593427e-01   
4.062000000000000e+09    4.796733696576046e-01    -8.774572225930380e-01   8.115030389476063e-05    2.463173749243347e-05    -3.419521002120891e-05   -1.948953604875034e-04   4.754282489141078e-01    -8.734289397439359e-01   
4.063000000000000e+09    4.790653024897226e-01    -8.784574096972950e-01   -9.785763684819750e-05   -4.541044473324639e-05   -3.736366712842468e-06   1.340572951493771e-04    4.748736615970946e-01    -8.734321087093664e-01   
4.064000000000000e+09    4.780767164550675e-01    -8.790832028194403e-01   9.491410563665564e-06    8.197467534998383e-05    4.217403104967567e-05    -1.416174387721906e-04   4.752337730336281e-01    -8.731725827387496e-01   
4.065000000000000e+09    4.776439155987107e-01    -8.800653710832003e-01   2.057980851072371e-04    1.117947386380803e-04    7.129160113205640e-05    -7.781697873242879e-05   4.746802438628057e-01    -8.729193439930221e-01   
4.066000000000000e+09    4.769417812551126e-01    -8.808110050213391e-01   4.321385830047319e-05    8.216422387118115e-05    7.236909452703568e-05    -7.612599425176235e-05   4.743331017080459e-01    -8.729445782871654e-01   
4.067000000000000e+09    4.761697821405143e-01    -8.812420692789007e-01   -2.220573754739826e-04   5.023847744437308e-05    7.349663448500532e-05    6.456546733641282e-05    4.738792974087299e-01    -8.726026897495375e-01   
4.068000000000000e+09    4.755939877285257e-01    -8.823299840650098e-01   -4.872573833122770e-05   -4.698835788943005e-05   4.288538288691944e-05    5.611521591022558e-05    4.737347596270524e-01    -8.721536898430673e-01   
4.069000000000000e+09    4.751432389427236e-01    -8.832860994924593e-01   6.748857346015859e-07    9.927648389642524e-05    -4.722828218608540e-05   1.626806610127881e-05    4.731016605975272e-01    -8.720145528929230e-01   
4.070000000000000e+09    4.744101169904839e-01    -8.837374276558299e-01   -5.255385393170475e-05   9.844506971188969e-05    9.400318148240276e-05    -1.154503127937076e-04   4.723116046179739e-01    -8.718776682365230e-01   
4.071000000000000e+09    4.738738909846956e-01    -8.845599930193222e-01   1.054337556361063e-04    -1.312657435617097e-04   -1.322614038718535e-04   8.031619684973106e-06    4.717162496367105e-01    -8.713342706373521e-01   
4.072000000000000e+09    4.732399553572650e-01    -8.852765706613370e-01   -6.393060030109729e-05   1.136607032888193e-06    1.665227184950111e-04    -6.743807475228475e-05   4.709685491272714e-01    -8.708941678749205e-01   
4.073000000000000e+09    4.726340454916064e-01    -8.857865800682196e-01   -8.999717665048448e-05   4.651305150387438e-06    -3.099607652929389e-05   4.740806695388862e-05    4.701461552624759e-01    -8.707665038790173e-01   
4.074000000000000e+09    4.719606607651750e-01    -8.867365408905786e-01   1.025739256445983e-04    4.218769709045607e-05    3.405956129536278e-05    1.474786070873060e-05    4.692438007879134e-01    -8.706562759384561e-01   
4.075000000000000e+09    4.716427800865114e-01    -8.875088050310735e-01   1.129662838925517e-04    -3.543466241963944e-05   6.562866732060860e-05    1.022299126972287e-04    4.680769088145189e-01    -8.702540383402123e-01   
4.076000000000000e+09    4.710618959026217e-01    -8.881626890947369e-01   -5.808840033813946e-05   -3.176668649691841e-05   2.622097220463907e-05    -9.347061242848020e-05   4.673862369519330e-01    -8.697759095590200e-01   
4.077000000000000e+09    4.706400593667998e-01    -8.889631614398866e-01   2.131571839130740e-04    -4.858820684530441e-05   1.014273957735481e-04    -1.346677527995996e-04   4.658874749385110e-01    -8.695534124827781e-01   
4.078000000000000e+09    4.698167307275697e-01    -8.896446747029609e-01   8.073798882441133e-05    -1.921886685118739e-04   -5.666850394904118e-05   -1.354002095946147e-04   4.646231121028250e-01    -8.692081941292185e-01   
4.079000000000000e+09    4.690851378924066e-01    -8.903466553708288e-01   -7.678371175763936e-06   -1.103765204183611e-04   -2.091616078048704e-05   6.054667406904149e-05    4.630668341658130e-01    -8.695482725796155e-01   
4.080000000000000e+09    4.683295645162858e-01    -8.907989145440995e-01   -1.041299245687737e-05   5.898222262061611e-05    -4.342514067246068e-05   3.543357655582303e-05    4.618554644682714e-01    -8.692581998854995e-01   
4.081000000000000e+09    4.680607472862615e-01    -8.916506726255833e-01   -4.768016575702447e-05   5.653571309407486e-05    2.442257083423200e-04    -2.621208057459567e-05   4.604252544953262e-01    -8.693175767402018e-01   
4.082000000000000e+09    4.673963854087149e-01    -8.919769799451345e-01   7.050772124347541e-05    -1.746201701256545e-06   1.483392857830610e-04    -6.897749389111693e-05   4.587730235908643e-01    -8.691637607399511e-01   
4.083000000000000e+09    4.668465627674764e-01    -8.928953045195658e-01   -3.116703529293948e-05   1.611618084474757e-04    2.937303951435448e-05    1.824847259006787e-05    4.570575588858513e-01    -8.691809693156413e-01   
4.084000000000000e+09    4.662864263875101e-01    -8.935606891157676e-01   4.725563777490765e-05    8.304573099053229e-05    1.229789191550051e-04    1.503447602582588e-04    4.554332628254577e-01    -8.692694908116507e-01   
