[Version] 2.0
! Rohde & Schwarz Vector Network Analyzer
! Rohde-Schwarz,ZNL20-2Port,1323001220200009,1.71.1.10-23.02.1.238
! 
! Port Assignments:
! Nominal Port -> Actual Test Port
! --------------------------------
!   1 -> 1
!   2 -> 2

! Created: GMT+2 2025-01-17 12:12:37

# Hz S RI R 50

[Number of Ports] 2
[Two-Port Data Order] 21_12
[Number of Frequencies] 16001

[Network Data] 
! freq[Hz]               S11[Re]                  S11[Im]                  S21[Re]                  S21[Im]                  S12[Re]                  S12[Im]                  S22[Re]                  S22[Im]                  
4.000000000000000e+09    5.542317953800941e-01    -8.373364294307550e-01   9.208564445787329e-05    9.917431346034786e-05    9.252101004962363e-05    5.093646584475919e-05    5.387156838888701e-01    -8.155479720054568e-01   
4.001000000000000e+09    5.529914293908814e-01    -8.381803099472138e-01   4.853833344550135e-05    1.018329086869998e-05    3.674395296302105e-05    6.215209365737707e-05    5.368165003339860e-01    -8.167059604701231e-01   
4.002000000000000e+09    5.515086761993440e-01    -8.388623947068909e-01   -1.889446653703356e-05   7.854933361966928e-06    1.180131512794327e-04    5.223991360388528e-05    5.345090377763525e-01    -8.176794000806207e-01   
4.003000000000000e+09    5.506250574779817e-01    -8.396754409803624e-01   8.142449001602506e-05    -4.538937733470498e-05   7.941697530627746e-06    -4.437114302887713e-05   5.326676126090523e-01    -8.185740079357737e-01   
4.004000000000000e+09    5.494831290496577e-01    -8.407000983974768e-01   -6.294298947668800e-05   -5.295988690702987e-05   -2.898926146072965e-05   -3.315475607560116e-05   5.307929158357814e-01    -8.198185022163532e-01   
4.005000000000000e+09    5.481105753399399e-01    -8.415781768898902e-01   -1.014206788203362e-05   8.245642951677105e-05    4.695772576610781e-05    -1.420409121488896e-04   5.284702594638581e-01    -8.210037321675721e-01   
4.006000000000000e+09    5.464448841075467e-01    -8.419632746578377e-01   -9.259615729678415e-05   4.660226520697199e-05    3.217016344991963e-05    4.810800711927453e-05    5.264898273675775e-01    -8.219460307196186e-01   
4.007000000000000e+09    5.458438583988843e-01    -8.430919225726213e-01   -2.018579002879293e-04   9.044779086170319e-05    7.419261882055087e-05    -8.514768176858000e-05   5.242763756857818e-01    -8.234265053600562e-01   
4.008000000000000e+09    5.443958011634623e-01    -8.442641930291871e-01   4.163509574595486e-05    -1.081319636472014e-04   2.002666257890697e-05    6.119732853963819e-05    5.223414175883948e-01    -8.247626129862097e-01   
4.009000000000000e+09    5.432259610911726e-01    -8.444976948023362e-01   -1.116531381525247e-04   -5.946298774791075e-05   2.071100646262787e-04    -1.512463813440296e-04   5.204707425348087e-01    -8.258588321000025e-01   
4.010000000000000e+09    5.419303431182868e-01    -8.456804057579601e-01   -2.092808444510569e-05   1.009024314278767e-04    -9.441524597927565e-05   -1.459970042864554e-04   5.184342118059697e-01    -8.273331915221100e-01   
4.011000000000000e+09    5.406061934248564e-01    -8.464878772320231e-01   4.386694954789321e-05    -2.980532562326621e-05   -2.407620853904136e-05   6.759510223536786e-05    5.164557896733533e-01    -8.289156153473688e-01   
4.012000000000000e+09    5.391577370567986e-01    -8.470881758142575e-01   -9.084108068737180e-07   -1.475708526933450e-04   -2.817850730710308e-05   1.226325713194873e-04    5.147572565999723e-01    -8.298487361128949e-01   
4.013000000000000e+09    5.375341967208197e-01    -8.477559187234791e-01   4.373093301311871e-05    1.121493586638327e-04    -8.848134622267959e-06   6.499466409297918e-05    5.129316626957094e-01    -8.312644881514929e-01   
4.014000000000000e+09    5.366770997593562e-01    -8.484104745294853e-01   7.086011521376559e-05    -5.207390273100471e-05   3.686080719126409e-05    1.833377075744407e-04    5.112754084829878e-01    -8.327111233685185e-01   
4.015000000000000e+09    5.352641592098782e-01    -8.491273463678173e-01   -1.147089463263250e-04   -7.826430709248314e-05   -1.564680934970547e-04   2.802143497606244e-06    5.097467852891777e-01    -8.338211342953328e-01   
4.016000000000000e+09    5.338887539403372e-01    -8.497777178324811e-01   -9.135242301671901e-05   4.965741728541777e-05    -4.477921109436122e-05   -5.639916613459806e-05   5.077503630854654e-01    -8.357827811263636e-01   
4.017000000000000e+09    5.328432982578445e-01    -8.504913864170036e-01   -6.790248589110254e-05   3.741285159987334e-05    1.516226870139655e-04    -1.095914773702219e-04   5.063215843767350e-01    -8.366558994854413e-01   
4.018000000000000e+09    5.315655221437692e-01    -8.510906844359908e-01   -3.061172062600612e-05   5.611200772306730e-05    1.348406580155411e-04    3.002863851402571e-06    5.045885317395162e-01    -8.384445508674059e-01   
4.019000000000000e+09    5.300962758517433e-01    -8.511833460490564e-01   -9.237623460835661e-05   -7.338058020706512e-05   1.404150959104952e-04    8.037133647856137e-05    5.030647117797579e-01    -8.392938681937769e-01   
4.020000000000000e+09    5.288122774727364e-01    -8.521928135831428e-01   1.259967820987548e-04    -6.370826577923032e-05   -6.234398367834312e-05   -2.461037344423324e-05   5.019136388221459e-01    -8.409711545673290e-01   
4.021000000000000e+09    5.278001238435772e-01    -8.528003447944993e-01   1.303555930169855e-05    -2.507610844595224e-04   2.412616060382969e-04    1.084298098901694e-04    5.003165726316238e-01    -8.421094595131645e-01   
4.022000000000000e+09    5.260967237738059e-01    -8.530651191011658e-01   6.037505572439146e-05    -7.223808703491383e-05   -1.844268815823969e-04   -1.376321020847915e-04   4.992084473372248e-01    -8.435300973757227e-01   
4.023000000000000e+09    5.251348027745304e-01    -8.535060677679278e-01   -1.213174449143407e-05   -1.729463581100410e-04   -1.000921747858941e-04   1.504359744429859e-04    4.973956283878509e-01    -8.443737517909498e-01   
4.024000000000000e+09    5.241544793567011e-01    -8.542655762640444e-01   -5.840318448403361e-06   2.333015927011011e-04    -2.490054813809314e-05   8.406290922094627e-06    4.966271480750202e-01    -8.457761942993332e-01   
4.025000000000000e+09    5.228186727708856e-01    -8.541537521021946e-01   1.838266633586364e-05    -3.947822806804220e-05   -4.389288273608671e-05   -6.527758087128470e-05   4.954045225613317e-01    -8.469967259381800e-01   
4.026000000000000e+09    5.214398453485620e-01    -8.550113657308341e-01   8.772392235905063e-05    2.792566982011480e-04    -1.479146724455391e-04   4.541728698037067e-05    4.938667347603529e-01    -8.481538152861728e-01   
4.027000000000000e+09    5.200091728813184e-01    -8.551586653691355e-01   2.956468591766712e-05    1.320827516403618e-04    7.918834331072918e-06    9.033063744396548e-05    4.933689126597106e-01    -8.492740040671327e-01   
4.028000000000000e+09    5.186784007121020e-01    -8.559952662897282e-01   1.655405119214337e-05    -3.668905764457537e-05   -8.110607780503602e-05   -2.868935903845134e-05   4.918820759391505e-01    -8.506087187857496e-01   
4.029000000000000e+09    5.171816239970912e-01    -8.565024221052868e-01   5.740205041782669e-05    -3.029824474732287e-05   8.746183521278617e-05    2.183358962617769e-05    4.909637185608838e-01    -8.515418247732457e-01   
4.030000000000000e+09    5.160692269863488e-01    -8.567598787213970e-01   5.124514951505571e-06    -6.304547751021606e-05   8.803237955620135e-06    1.200942780000089e-05    4.899936763770821e-01    -8.528209055517549e-01   
4.031000000000000e+09    5.147419400980883e-01    -8.571047685790963e-01   1.333273726506449e-05    -5.735276151097568e-05   1.381257347238359e-04    8.713380689117706e-05    4.891754439731881e-01    -8.535232031041976e-01   
4.032000000000000e+09    5.131599247689695e-01    -8.577068007201554e-01   -1.864474930460507e-04   1.670643171790797e-05    -5.351486578011017e-06   9.457654333685241e-05    4.880346559162293e-01    -8.545711457742059e-01   
4.033000000000000e+09    5.121365196522335e-01    -8.576953359758360e-01   -3.759596358343182e-05   -7.721770054468245e-05   -1.541252981531156e-04   7.796781475071558e-06    4.872472709659701e-01    -8.555871139963137e-01   
4.034000000000000e+09    5.106529671825905e-01    -8.584711297510929e-01   -5.863445454086648e-05   6.262703666024820e-05    8.247001020309176e-05    5.500747547822991e-05    4.864349983819014e-01    -8.567430594029765e-01   
4.035000000000000e+09    5.090671382028878e-01    -8.590057483013793e-01   4.399991736384158e-05    3.052551033574867e-05    9.020971872104306e-05    1.002328548270757e-04    4.859130155829852e-01    -8.574111714124869e-01   
4.036000000000000e+09    5.079608244891513e-01    -8.592766331909891e-01   1.105208493431094e-05    -7.027953266591506e-05   1.824694217284705e-05    6.305816891929933e-05    4.850087365018905e-01    -8.586509194392619e-01   
4.037000000000000e+09    5.062609806947882e-01    -8.598846886554065e-01   -7.986444830015741e-05   -4.611097998521376e-05   8.260702902091716e-05    -1.665036549342963e-04   4.844156679407650e-01    -8.591573850414090e-01   
4.038000000000000e+09    5.050856138639257e-01    -8.601786039519406e-01   -1.637943209285062e-04   -1.042674963539906e-04   1.602156657946659e-04    2.496108729541579e-05    4.833225622141125e-01    -8.603572222052549e-01   
4.039000000000000e+09    5.037491663142825e-01    -8.607143707734376e-01   -9.416206666125599e-05   2.214196641733553e-05    8.819613087045586e-05    5.950973648141172e-05    4.828993993041175e-01    -8.612315398055241e-01   
4.040000000000000e+09    5.025971204684802e-01    -8.611193093271082e-01   3.164741370773880e-04    5.070732916296806e-05    -3.849581230325102e-05   -6.861273693312004e-05   4.822887159796569e-01    -8.621884985941120e-01   
4.041000000000000e+09    5.010670390466820e-01    -8.620415554267512e-01   5.551132931072267e-06    -7.503926850138470e-05   1.592847560943397e-04    4.098904235762002e-05    4.818141129011066e-01    -8.628711399948813e-01   
4.042000000000000e+09    4.997163018760116e-01    -8.624314409450754e-01   -1.235912721768235e-04   1.266692754262080e-04    6.211737803077217e-06    -8.339740485438374e-05   4.813113967352294e-01    -8.638796210873331e-01   
4.043000000000000e+09    4.984834826305113e-01    -8.631833410050079e-01   2.595831257094403e-04    1.311793326930947e-05    -1.256988710073929e-04   -2.037353156709787e-04   4.804217038919398e-01    -8.645432633300524e-01   
4.044000000000000e+09    4.968069421351275e-01    -8.637119264214643e-01   1.116894295122018e-05    1.846015583388167e-05    6.528343622246951e-05    -8.686993260268469e-05   4.801525549150142e-01    -8.655957880082200e-01   
4.045000000000000e+09    4.959511425632131e-01    -8.643645910976328e-01   -6.196248277583385e-05   2.357482074290136e-05    7.241742366009099e-05    5.988529341648573e-05    4.794467409836741e-01    -8.660335822160231e-01   
4.046000000000000e+09    4.945645833224036e-01    -8.651157650315223e-01   8.216781946459537e-06    8.600503983375755e-05    7.293436302470576e-05    -1.412692602221522e-05   4.793186785664231e-01    -8.669959896363115e-01   
4.047000000000000e+09    4.933802618550558e-01    -8.658242210546024e-01   6.041432638982230e-05    9.901101550679357e-05    9.236356598659298e-05    -4.810930659783508e-05   4.785247367593244e-01    -8.674118999118345e-01   
4.048000000000000e+09    4.923990366480785e-01    -8.665727456980374e-01   1.655415478914650e-04    -4.201851537019852e-05   -2.811348190381239e-05   1.980702891351069e-05    4.784466604183627e-01    -8.682824328101656e-01   
4.049000000000000e+09    4.911954517383245e-01    -8.671488134768059e-01   1.044453232128136e-04    -7.921938040816938e-05   -2.754652946250514e-04   6.491544830858989e-05    4.782321822697428e-01    -8.690417056496733e-01   
4.050000000000000e+09    4.902052731356886e-01    -8.682608657588561e-01   1.875600020673470e-04    9.825711578217530e-05    1.141633960219696e-04    1.024239451939244e-04    4.776161852543888e-01    -8.695764481136364e-01   
4.051000000000000e+09    4.890259000010481e-01    -8.687948201103434e-01   7.580764743536065e-05    -2.446279652318834e-05   6.907462254594566e-05    1.294489348185750e-04    4.772804181556861e-01    -8.702208019434907e-01   
4.052000000000000e+09    4.881162991019296e-01    -8.695866162874901e-01   1.833361144026991e-04    -1.446196058262387e-04   -8.574894217979332e-05   8.760793065222869e-05    4.769801173713816e-01    -8.707744957436754e-01   
4.053000000000000e+09    4.870197184508159e-01    -8.701705941973811e-01   1.026287749095114e-04    -8.634958620217607e-05   -1.060275036399390e-04   -1.208964527397279e-04   4.768781536416557e-01    -8.715176537489474e-01   
4.054000000000000e+09    4.861327186132581e-01    -8.710498660437400e-01   8.850048795312198e-05    -6.429899205643772e-05   3.091647410183699e-07    -1.139013399446600e-04   4.767145617534921e-01    -8.717971694795497e-01   
4.055000000000000e+09    4.853784933359801e-01    -8.719783247171072e-01   1.037619267650877e-05    1.053718496617441e-04    2.392128199414815e-05    2.564671818182504e-05    4.766422824522833e-01    -8.723935000167171e-01   
4.056000000000000e+09    4.841726678921671e-01    -8.729729386427197e-01   1.178058876058352e-05    5.217804857295136e-05    -1.180288423312142e-04   4.555561050694781e-05    4.765026088884047e-01    -8.726298883491720e-01   
4.057000000000000e+09    4.833641325238752e-01    -8.735455427201444e-01   3.350314423683230e-05    1.366862509515108e-05    5.223035168719438e-05    -1.493383870007473e-05   4.763611971890518e-01    -8.729518733120656e-01   
4.058000000000000e+09    4.826975476456135e-01    -8.742000358126265e-01   -2.360767512100949e-05   5.524710860538962e-05    1.224755018859908e-05    8.272896947229969e-05    4.762284641454889e-01    -8.731203121771873e-01   
4.059000000000000e+09    4.817709869295910e-01    -8.752465129478729e-01   -3.697280011381798e-05   -3.001285062126660e-06   8.525898875482094e-05    -8.840231229977668e-05   4.758695895480226e-01    -8.734837174188264e-01   
4.060000000000000e+09    4.809362450466063e-01    -8.758399315099903e-01   1.417793089409139e-05    -1.582409383471288e-05   1.966955309744737e-04    -5.090334316150944e-05   4.761443728742504e-01    -8.734040970813387e-01   
4.061000000000000e+09    4.802559355902600e-01    -8.767940664497261e-01   -3.462594391349699e-05   1.282695988060319e-04    4.505293954143773e-05    5.114545274968549e-05    4.758535013769500e-01    -8.736339614690736e-01   
4.062000000000000e+09    4.793232569332022e-01    -8.776747722770117e-01   -1.073803101695144e-04   -7.815773513793528e-05   -6.362538677357293e-05   2.008879328763046e-05    4.754674871007143e-01    -8.735212792294847e-01   
4.063000000000000e+09    4.788365912837811e-01    -8.785119951016946e-01   3.914862459237475e-05    1.459377524760252e-04    4.644757434267066e-05    2.095809984820707e-04    4.753728352605545e-01    -8.736189775587964e-01   
4.064000000000000e+09    4.780490268153515e-01    -8.790562038062832e-01   7.386322164899562e-05    1.009911221665526e-04    -9.535519061607422e-05   -8.512415211653553e-05   4.754711213966102e-01    -8.733314044484676e-01   
4.065000000000000e+09    4.777178957043636e-01    -8.799995023344124e-01   -6.682742648766459e-05   -1.215186943123772e-05   -1.153867238052256e-04   -6.788930794620031e-05   4.751954504577384e-01    -8.733661791166488e-01   
4.066000000000000e+09    4.768023661607453e-01    -8.806666773359084e-01   2.004141569256597e-04    -1.215942659459458e-04   1.475535200303659e-05    -8.680891455902336e-05   4.748252482930693e-01    -8.730172103187823e-01   
4.067000000000000e+09    4.764011542621751e-01    -8.816785627890107e-01   -1.145395390979532e-04   9.004159411585224e-06    7.219802460323331e-05    2.340559067731883e-05    4.742606498778832e-01    -8.726259175964660e-01   
4.068000000000000e+09    4.756574357731342e-01    -8.821661607765404e-01   2.008967716867511e-04    -7.917810434328430e-05   -1.252086674334252e-04   1.876565160696833e-04    4.739752988388252e-01    -8.721406482926636e-01   
4.069000000000000e+09    4.748666188062175e-01    -8.831818915486664e-01   -2.447013718047421e-04   1.268966966416130e-04    -9.912701888129104e-05   1.198478660613282e-04    4.732656755678084e-01    -8.722189019669900e-01   
4.070000000000000e+09    4.744173292225178e-01    -8.834330280265297e-01   1.319167517259850e-04    1.338667619162955e-04    -5.010856022840377e-05   -2.505005148220432e-05   4.725520464014527e-01    -8.719884129635201e-01   
4.071000000000000e+09    4.739985722721271e-01    -8.845590057301566e-01   -3.587437031530778e-06   -1.197805815256758e-04   -1.389078092394525e-04   2.675002774935018e-05    4.719897191375644e-01    -8.716777082871746e-01   
4.072000000000000e+09    4.732805711073667e-01    -8.850674304969366e-01   2.617030398877727e-05    -5.237389111280932e-05   1.518105858307570e-04    -1.558313597544685e-04   4.714431868942439e-01    -8.713332111368592e-01   
4.073000000000000e+09    4.725506863669877e-01    -8.857801406755497e-01   -6.504465150796328e-05   4.394590249554883e-05    -6.064519006329328e-06   1.144267195074731e-05    4.704469610629134e-01    -8.706881381377332e-01   
4.074000000000000e+09    4.721246514281149e-01    -8.866991784735551e-01   -2.309783258619988e-05   -2.491936630375118e-05   -4.599727269170866e-05   -6.418238967487223e-06   4.695495952093064e-01    -8.707216081665511e-01   
4.075000000000000e+09    4.715912043475141e-01    -8.873844275454448e-01   1.670808797119018e-04    1.389171774294638e-04    7.707461710432374e-05    1.759205383774470e-04    4.686215033954060e-01    -8.700767217436456e-01   
4.076000000000000e+09    4.709275619321081e-01    -8.879273649955415e-01   -7.911807361214554e-05   2.558974749010083e-05    -1.888440036645899e-04   4.612661351650123e-05    4.674646032856518e-01    -8.700708336607628e-01   
4.077000000000000e+09    4.699931818676078e-01    -8.886393606734382e-01   -2.114684943801039e-05   -1.926913185118221e-05   -2.414711619716429e-05   2.565317828873237e-05    4.660097936487627e-01    -8.696840668015385e-01   
4.078000000000000e+09    4.699769616511636e-01    -8.895243622589786e-01   -3.749840000768590e-05   3.779218792534810e-05    3.373388023568839e-05    -1.216825628064652e-04   4.650361037951281e-01    -8.694719679093520e-01   
4.079000000000000e+09    4.690831363764467e-01    -8.901564449301123e-01   7.184590177119259e-05    4.228744764269752e-05    3.753701301120752e-05    -2.150382084341865e-05   4.635911427618025e-01    -8.694115833325794e-01   
4.080000000000000e+09    4.686583128109458e-01    -8.909349154816816e-01   -8.193382290300484e-05   -1.098645140055421e-05   -1.101781892582198e-04   -2.016805481962438e-05   4.622406224392320e-01    -8.695256768870213e-01   
4.081000000000000e+09    4.683909109661587e-01    -8.917907873825146e-01   -5.270778223113330e-06   1.546199158737329e-04    -3.858792919928198e-05   -1.300888972876076e-04   4.607215971922570e-01    -8.693559697741006e-01   
4.082000000000000e+09    4.675973693314482e-01    -8.918081760627838e-01   1.084853115835036e-04    -1.128226938564298e-04   -6.140359019648158e-05   4.293886564811345e-05    4.591562592435627e-01    -8.692265114136979e-01   
4.083000000000000e+09    4.666624100019283e-01    -8.926928820811233e-01   8.843851329000877e-05    8.642778542323520e-05    1.585279146024094e-06    6.961725340010157e-06    4.574547207317001e-01    -8.692031057937304e-01   
4.084000000000000e+09    4.660421161909951e-01    -8.935676569224330e-01   8.262886416902193e-05    1.447926343276774e-04    5.676418003277900e-05    7.014478322970482e-05    4.559264552488081e-01    -8.694238728051555e-01   
