[Version] 2.0
! Rohde & Schwarz Vector Network Analyzer
! Rohde-Schwarz,ZNL20-2Port,1323001220200009,1.71.1.10-23.02.1.238
! 
! Port Assignments:
! Nominal Port -> Actual Test Port
! --------------------------------
!   1 -> 1
!   2 -> 2

! Created: GMT+2 2025-01-17 12:13:22

# Hz S RI R 50

[Number of Ports] 2
[Two-Port Data Order] 21_12
[Number of Frequencies] 16001

[Network Data] 
! freq[Hz]               S11[Re]                  S11[Im]                  S21[Re]                  S21[Im]                  S12[Re]                  S12[Im]                  S22[Re]                  S22[Im]                  
4.000000000000000e+09    5.541009545932661e-01    -8.370427944445912e-01   1.211912791872576e-04    3.116072811392669e-05    2.027587181209975e-05    -3.304808754879868e-04   5.391548719322856e-01    -8.156951966380022e-01   
4.001000000000000e+09    5.525420232415686e-01    -8.381507938621695e-01   -6.781020771729096e-05   -9.361742275992172e-05   -3.277684842993982e-05   8.722377210849413e-05    5.368826201749906e-01    -8.165906179134222e-01   
4.002000000000000e+09    5.516979326816261e-01    -8.390440733008823e-01   6.609482743515603e-06    -1.724857117198119e-06   -6.781025918951063e-06   -5.341345644048305e-06   5.347519482508223e-01    -8.175250735331505e-01   
4.003000000000000e+09    5.503976164471367e-01    -8.399972999176532e-01   2.898173915843938e-05    -4.178912733844033e-05   -2.311340326900687e-05   -7.592782412609425e-05   5.327884221993725e-01    -8.185624389252886e-01   
4.004000000000000e+09    5.496607925646916e-01    -8.403512137356193e-01   1.246339106498248e-04    -1.401168082079986e-04   -1.948459105400375e-05   -5.750258999349020e-05   5.307008895960017e-01    -8.199735578653068e-01   
4.005000000000000e+09    5.481894885074130e-01    -8.415398481065138e-01   -2.061591118511760e-05   1.290760611796925e-05    -6.091073402878726e-06   1.265579918088036e-04    5.286508395950307e-01    -8.209338041650178e-01   
4.006000000000000e+09    5.469384219268792e-01    -8.422377625945894e-01   -1.637924679967694e-04   -2.149437825502681e-05   2.060471355428126e-06    -6.433797915325968e-05   5.265979899900555e-01    -8.219670749855474e-01   
4.007000000000000e+09    5.454981903132438e-01    -8.433458707165594e-01   -4.851293710805166e-05   7.965059695165158e-06    -7.299119247092195e-05   3.482098192744804e-05    5.244459756087817e-01    -8.235816533874196e-01   
4.008000000000000e+09    5.442620467361858e-01    -8.442384299033493e-01   -1.037506007348139e-05   9.025665577440449e-06    -1.091265338984066e-04   4.120882091552497e-05    5.225801416906709e-01    -8.246840903131100e-01   
4.009000000000000e+09    5.433203327971140e-01    -8.449452678584488e-01   -5.353141510822687e-05   -1.887294249232752e-04   3.657141130088660e-05    8.386554432667186e-05    5.205626708273388e-01    -8.257272480469519e-01   
4.010000000000000e+09    5.417502732549984e-01    -8.458476175073081e-01   2.922210754558069e-06    3.521624597202382e-04    -3.432265364086110e-05   4.481703968806365e-05    5.183359455598028e-01    -8.272856023676376e-01   
4.011000000000000e+09    5.401806459170750e-01    -8.463937851649428e-01   -7.688451212218745e-05   4.874322294816329e-05    1.162675091076415e-04    5.509658839289810e-05    5.166328371758956e-01    -8.287005921339052e-01   
4.012000000000000e+09    5.389828070264642e-01    -8.468167483269035e-01   1.404488221915514e-04    1.434166547078620e-04    -4.671308380826451e-05   4.756979055017594e-06    5.148264704282748e-01    -8.296500712970449e-01   
4.013000000000000e+09    5.377332935277254e-01    -8.475990926879602e-01   -5.428929980282750e-05   -1.814941143770301e-05   1.108452050059986e-04    -5.222580448255961e-07   5.129012629020373e-01    -8.313250828457088e-01   
4.014000000000000e+09    5.366747182599766e-01    -8.487034154946151e-01   4.471551402650161e-05    1.348226186391674e-05    -2.118675009502953e-05   1.517468473665213e-04    5.111145188706619e-01    -8.331342580763884e-01   
4.015000000000000e+09    5.351709791785797e-01    -8.491202166423060e-01   1.305957510111723e-04    4.244083399941515e-05    -8.612660260972679e-05   1.477081823659512e-05    5.096571193829899e-01    -8.338857617227206e-01   
4.016000000000000e+09    5.342764755176352e-01    -8.498114286839284e-01   -1.426835394171653e-04   6.946792906759178e-05    3.637974679399583e-06    1.848260043337730e-04    5.077038031938835e-01    -8.352410854346372e-01   
4.017000000000000e+09    5.328565538619733e-01    -8.505958996861267e-01   1.227606107554251e-04    -1.095696379040648e-04   -3.142345249057300e-05   -2.063985858880268e-04   5.063877477488870e-01    -8.369138418912846e-01   
4.018000000000000e+09    5.315771987337701e-01    -8.510764179483933e-01   3.437774086089619e-05    -1.121156587603715e-04   1.880177743440672e-04    8.044850608462520e-05    5.047671957503260e-01    -8.381376668061027e-01   
4.019000000000000e+09    5.303695097994243e-01    -8.514904847814095e-01   -1.293731661960119e-04   -1.707961096173122e-05   5.874001488958273e-05    -6.958905707468591e-05   5.031851007653683e-01    -8.395787237975952e-01   
4.020000000000000e+09    5.289220124246046e-01    -8.521155220145519e-01   -1.249646887994688e-04   -1.132477200147801e-04   -8.308451615642363e-05   1.095878898338069e-04    5.018010231647994e-01    -8.409251187682597e-01   
4.021000000000000e+09    5.277238795176145e-01    -8.526517312189732e-01   5.832351323712361e-05    4.869925441634177e-05    -2.331779127521691e-05   -7.179661383252682e-05   5.003401761067121e-01    -8.420764126957172e-01   
4.022000000000000e+09    5.259964525433943e-01    -8.535598618641604e-01   -2.217814562373252e-05   1.523222379028106e-05    -1.856719104389384e-04   -1.927216131355075e-05   4.988233673117022e-01    -8.436346164655908e-01   
4.023000000000000e+09    5.252022240006040e-01    -8.537938645966701e-01   1.566203652522921e-04    3.871816122722764e-05    -8.693545828349090e-05   -1.817016134809622e-05   4.977400994849214e-01    -8.445527843207306e-01   
4.024000000000000e+09    5.236192993783139e-01    -8.540853079752887e-01   -3.707789784040207e-05   -1.271952754240650e-04   -6.337967531070767e-06   -3.086631741263854e-05   4.967646593926668e-01    -8.458268644143876e-01   
4.025000000000000e+09    5.224095291822173e-01    -8.545544718445793e-01   9.666874658322687e-05    -1.581702434527617e-04   -1.193196988875854e-05   -7.281588064468498e-05   4.952680443887886e-01    -8.471066267872158e-01   
4.026000000000000e+09    5.213273708383550e-01    -8.550647503358261e-01   -1.693671031063989e-04   -7.968407630335523e-05   -1.161761190007982e-04   1.070693276803141e-04    4.940968790233621e-01    -8.483884714423817e-01   
4.027000000000000e+09    5.199462273757810e-01    -8.554906518045893e-01   -3.772607389946189e-06   1.087613573601252e-04    -3.970920454850077e-05   1.239794417630539e-04    4.931330893739627e-01    -8.493334663479278e-01   
4.028000000000000e+09    5.186008835520131e-01    -8.557972540645099e-01   -5.634137783057056e-06   -9.552428155191141e-06   9.510017335445623e-05    3.627206592053161e-05    4.920105754819151e-01    -8.505942171258346e-01   
4.029000000000000e+09    5.173270596960571e-01    -8.563080570070098e-01   4.735842396331468e-05    4.631004628076354e-05    -4.819888662404637e-05   -1.677676880297946e-05   4.910653988642893e-01    -8.513835814316311e-01   
4.030000000000000e+09    5.162591952193775e-01    -8.568548385884325e-01   1.280270383848094e-04    -1.662777245987045e-04   -1.259940893285450e-04   -2.154208795640965e-05   4.903160905333032e-01    -8.526451587261218e-01   
4.031000000000000e+09    5.146776215246198e-01    -8.574601598025073e-01   4.648233656943331e-05    1.977193895878413e-05    8.342167105499437e-05    3.039081437645232e-06    4.892415312015292e-01    -8.536516338463890e-01   
4.032000000000000e+09    5.136074861411983e-01    -8.574603639838911e-01   -5.953855217188920e-05   5.197912531184580e-05    -9.817050390406441e-05   -1.895544599861010e-05   4.883948139961894e-01    -8.547803697105288e-01   
4.033000000000000e+09    5.119640305493780e-01    -8.578743336739032e-01   6.317137363093561e-05    -2.044126916598898e-04   -6.122740534754512e-05   9.709327816034125e-05    4.872209169510798e-01    -8.555392420009894e-01   
4.034000000000000e+09    5.105706663055677e-01    -8.585817661251858e-01   -2.730400171902088e-06   -1.479464308263814e-05   -2.288429615722839e-04   9.760475728927125e-05    4.867827098511883e-01    -8.565871282499065e-01   
4.035000000000000e+09    5.091600080993058e-01    -8.586724505447724e-01   -2.050871044904693e-05   -9.172628687243030e-06   6.618386813343282e-05    8.267224403455286e-05    4.858326037832266e-01    -8.575375764995816e-01   
4.036000000000000e+09    5.079995632603748e-01    -8.593579725815748e-01   -1.506493912666305e-05   -2.651548287817435e-05   4.122844466928405e-05    1.676971350406520e-04    4.850087276643645e-01    -8.584997575040115e-01   
4.037000000000000e+09    5.065210684982498e-01    -8.597359019704038e-01   8.654190363556732e-05    -8.209578626790944e-05   7.044199515584763e-05    1.140177697326911e-04    4.841852822913882e-01    -8.594668021208824e-01   
4.038000000000000e+09    5.049453845350699e-01    -8.602786660537870e-01   -8.171221181887229e-05   -3.312755148359159e-05   7.113038402823676e-05    2.317042890261799e-04    4.834637273257349e-01    -8.604419104839727e-01   
4.039000000000000e+09    5.037760922082987e-01    -8.608159909316547e-01   -6.523674487734269e-05   -2.263847025411106e-06   3.075022065096138e-05    -5.197830822313365e-05   4.828008080329526e-01    -8.612981901135761e-01   
4.040000000000000e+09    5.024250834745789e-01    -8.612376631104195e-01   6.350191150820216e-05    -4.521358695224451e-05   -1.427332772920007e-04   -1.932671109339474e-04   4.819803001348900e-01    -8.619707204000429e-01   
4.041000000000000e+09    5.010308245926330e-01    -8.620050847838118e-01   -6.988266577044379e-05   -4.491312250628305e-05   6.345360141569908e-05    -5.264937674014493e-05   4.815963361097286e-01    -8.630444233657381e-01   
4.042000000000000e+09    4.998344248399826e-01    -8.624865241296098e-01   -2.062974889494840e-05   1.730845161002474e-04    -2.502693334564173e-05   1.312837344614455e-04    4.813130798261459e-01    -8.638397352194072e-01   
4.043000000000000e+09    4.983691316298075e-01    -8.630153500558484e-01   1.413336755297602e-04    4.788313653395132e-05    -1.886020190201197e-04   7.729273160466740e-05    4.805824713215253e-01    -8.644670304892806e-01   
4.044000000000000e+09    4.972689977242974e-01    -8.638086111472086e-01   -1.557858386611750e-04   1.651714706409663e-05    5.277050045230807e-05    4.021892374439785e-05    4.801020170790302e-01    -8.654400164131211e-01   
4.045000000000000e+09    4.955749364242041e-01    -8.642271999030344e-01   1.327255077464658e-04    -1.921297104011786e-04   -2.217079705289619e-05   6.729203111126747e-05    4.794252740301777e-01    -8.660308934872127e-01   
4.046000000000000e+09    4.945411945812043e-01    -8.647774769592090e-01   -6.018252596123896e-06   -1.527317866306966e-04   -1.993207482089260e-04   -2.763484472967487e-04   4.788398362788194e-01    -8.665463457732032e-01   
4.047000000000000e+09    4.935027796135308e-01    -8.657659315908994e-01   8.783255061667250e-05    -2.526038017642160e-05   -1.014235949024445e-04   1.770134944025273e-04    4.784945541112590e-01    -8.675233758825789e-01   
4.048000000000000e+09    4.923155020522477e-01    -8.663971710325650e-01   -1.358936546188228e-06   3.443733481428229e-05    5.391302969324393e-05    -2.424196715794136e-04   4.779994895544212e-01    -8.681596408286633e-01   
4.049000000000000e+09    4.911306126107204e-01    -8.671652779822896e-01   1.316509486493506e-04    -1.182562089723698e-04   -1.102096410045015e-04   -3.068697035142218e-05   4.778777950737582e-01    -8.690951285604904e-01   
4.050000000000000e+09    4.903606504627147e-01    -8.680529916096248e-01   5.032265380200825e-05    -2.246046081664801e-04   7.127895124415848e-05    1.728640412757808e-04    4.776397954175864e-01    -8.696733542788228e-01   
4.051000000000000e+09    4.888315769287522e-01    -8.689646569894609e-01   -9.271173501496691e-05   8.103590618044806e-05    -1.127155354134846e-05   2.398455027297956e-05    4.774084651825132e-01    -8.700248358551768e-01   
4.052000000000000e+09    4.880933713843897e-01    -8.697010123342895e-01   -7.702663386303972e-05   1.414433807451472e-05    2.432755845399860e-06    6.731794581127565e-06    4.769696064770164e-01    -8.706879239245873e-01   
4.053000000000000e+09    4.871106092465000e-01    -8.705596587451703e-01   -2.872547748471583e-06   4.870816306059719e-05    -1.400568121774237e-04   -1.426602050987614e-04   4.769452757352773e-01    -8.713138960966264e-01   
4.054000000000000e+09    4.861875095252352e-01    -8.711689820584251e-01   -1.891598648674073e-04   1.209278683623474e-04    7.700483256106425e-05    1.306687281119762e-05    4.769715740890356e-01    -8.716640442883262e-01   
4.055000000000000e+09    4.849188730058390e-01    -8.719961861444441e-01   -7.062619864138545e-06   1.062049848437957e-04    3.445606164339669e-05    1.707273154858902e-05    4.765451423957144e-01    -8.721801680178143e-01   
4.056000000000000e+09    4.842310427778895e-01    -8.728353737394225e-01   -1.529697830977256e-04   -1.398808658553815e-04   -6.342989904478795e-05   9.584828194533623e-05    4.764551366243054e-01    -8.724623923543454e-01   
4.057000000000000e+09    4.833678836875410e-01    -8.736896519913189e-01   -2.285668995006739e-05   1.091640754330556e-05    2.831958019930545e-05    -7.527360623524937e-05   4.762783839186027e-01    -8.728851020364989e-01   
4.058000000000000e+09    4.820902348842364e-01    -8.744517269613401e-01   1.872202624413060e-05    7.741654469225280e-06    1.293123470423759e-04    5.523773891505609e-05    4.763801981391002e-01    -8.730741197014610e-01   
4.059000000000000e+09    4.816534307159034e-01    -8.753892723866527e-01   -3.321733394908540e-05   1.546356790891928e-04    -2.774822348161528e-05   3.241633377070479e-06    4.762864823398921e-01    -8.736312502635925e-01   
4.060000000000000e+09    4.810652208961084e-01    -8.759772052623740e-01   1.443233782853300e-05    8.824720360201276e-06    -1.164127760417011e-04   1.352654415365656e-04    4.762452498202225e-01    -8.736387311822166e-01   
4.061000000000000e+09    4.800979445635954e-01    -8.769854081685011e-01   -9.150984281390513e-05   -2.483771648442290e-05   7.955398535911721e-05    3.187681469429803e-05    4.758804843719199e-01    -8.735641928505101e-01   
4.062000000000000e+09    4.793087516155115e-01    -8.775313363710147e-01   2.066694437718214e-04    5.541525035696451e-05    7.131165946396321e-06    1.419052590803847e-04    4.756432520366952e-01    -8.736163666441967e-01   
4.063000000000000e+09    4.787701799058134e-01    -8.784791106524440e-01   1.477495801133579e-05    1.412218173186396e-04    1.879630800248774e-04    6.994145539816520e-05    4.755012277308738e-01    -8.734824956816426e-01   
4.064000000000000e+09    4.781010456788606e-01    -8.791537408936746e-01   1.757485516102327e-06    -2.366939746418216e-05   6.923617561792819e-05    -1.150493706229204e-05   4.753427710256823e-01    -8.732911953320642e-01   
4.065000000000000e+09    4.775614650730355e-01    -8.799936407969674e-01   2.113155128470659e-05    -1.107026465600520e-05   -1.752599899773684e-04   -7.567994097194472e-05   4.749237802882795e-01    -8.732837870036969e-01   
4.066000000000000e+09    4.768550250788719e-01    -8.807917126197650e-01   -1.511506801271120e-05   4.549904854471042e-05    -3.263031348240517e-05   4.567311888189429e-05    4.748506069020134e-01    -8.732245527021726e-01   
4.067000000000000e+09    4.760317151163741e-01    -8.814483319867557e-01   1.941519819675360e-05    -1.695096080657678e-04   -1.040851387673772e-04   -4.547436703680520e-05   4.744221113398178e-01    -8.727317561236851e-01   
4.068000000000000e+09    4.756595529799736e-01    -8.821878315090662e-01   1.600292597227282e-04    3.982869686551859e-05    -1.997195807060308e-05   -1.142960592974916e-04   4.739143663586451e-01    -8.723605636914999e-01   
4.069000000000000e+09    4.749825318432419e-01    -8.832328557833764e-01   8.468332715726658e-06    5.975423216847558e-05    -2.871888731306438e-05   1.675737554163493e-04    4.732806739998434e-01    -8.722272674585608e-01   
4.070000000000000e+09    4.744054170659667e-01    -8.836181170258646e-01   -5.366161978971260e-05   -1.124098032490175e-05   4.440444118638150e-05    4.332686462857225e-05    4.726760173135175e-01    -8.718016579676142e-01   
4.071000000000000e+09    4.739245983436873e-01    -8.843698814440217e-01   3.321515365827112e-06    4.062194556432923e-05    -1.020586961061892e-04   -1.361522978254471e-04   4.719900227558214e-01    -8.715888768741822e-01   
4.072000000000000e+09    4.732464600494076e-01    -8.852383495239530e-01   -7.246045866441497e-05   -6.487605772735865e-05   1.071175214822714e-05    1.045617059092964e-04    4.714778022035291e-01    -8.711134599244048e-01   
4.073000000000000e+09    4.726870316862880e-01    -8.858980635869146e-01   1.049205642061615e-04    1.152065483198894e-04    -5.499666902398232e-05   1.397673079850131e-04    4.703808036287110e-01    -8.706503712858987e-01   
4.074000000000000e+09    4.721165993010445e-01    -8.864801864251759e-01   -1.583247023364783e-06   -1.592465450528516e-04   -1.780424263872741e-04   8.705916037831185e-05    4.695729659569043e-01    -8.704942986960781e-01   
4.075000000000000e+09    4.715638892443715e-01    -8.875204344825776e-01   -1.749273941459010e-04   -2.104143038851782e-05   6.380671016768083e-05    1.381600356065585e-04    4.684940498669558e-01    -8.701570054020875e-01   
4.076000000000000e+09    4.711110124476799e-01    -8.875755580542725e-01   7.966586447116592e-05    -2.595821606840981e-04   -8.267691848067850e-06   -2.616180689462914e-05   4.675858767128848e-01    -8.699316128562534e-01   
4.077000000000000e+09    4.699043023317923e-01    -8.887425148729527e-01   -1.407911498655233e-04   -4.813769268728717e-05   7.750432727756159e-05    -4.116143374229994e-05   4.663750038791810e-01    -8.696053953227364e-01   
4.078000000000000e+09    4.696146135587460e-01    -8.893171714228782e-01   -4.704927595875220e-05   -1.479420229380211e-04   -6.071737800041348e-05   1.099094948010297e-04    4.650984227865717e-01    -8.694708963954710e-01   
4.079000000000000e+09    4.692318957546042e-01    -8.900592037984550e-01   -7.189086906669627e-05   -6.500160294217638e-05   -1.591099425155819e-05   4.798668747317911e-05    4.634918956304008e-01    -8.693899410423251e-01   
4.080000000000000e+09    4.685018992563232e-01    -8.908026685041355e-01   2.159569823216244e-05    -2.140012546651603e-04   2.760165737087316e-05    2.116364758089597e-05    4.623192111234144e-01    -8.693468376136408e-01   
4.081000000000000e+09    4.681759073570818e-01    -8.913047213242119e-01   6.963824267644497e-05    -8.529244341216940e-05   1.470730926436244e-04    -1.431521697973204e-04   4.607518800680609e-01    -8.691854772894478e-01   
4.082000000000000e+09    4.675801174229760e-01    -8.916858856027667e-01   -5.092061219906370e-05   3.256058357810886e-05    1.593101682073594e-05    5.527782812249939e-05    4.592659999903693e-01    -8.692681095269000e-01   
4.083000000000000e+09    4.668857644431183e-01    -8.926677037970555e-01   -1.676467289641089e-05   1.274887348109756e-04    3.736311380967657e-05    -6.896893418618872e-06   4.577114483351910e-01    -8.693658151061940e-01   
4.084000000000000e+09    4.663193222263894e-01    -8.932213261581753e-01   4.913525382998630e-06    -4.828816578043516e-05   9.166203905545993e-05    -2.929708845275166e-05   4.556910660944541e-01    -8.693575753374180e-01   
