[Version] 2.0
! Rohde & Schwarz Vector Network Analyzer
! Rohde-Schwarz,ZNL20-2Port,1323001220200009,1.71.1.10-23.02.1.238
! 
! Port Assignments:
! Nominal Port -> Actual Test Port
! --------------------------------
!   1 -> 1
!   2 -> 2

! Created: GMT+2 2025-01-17 12:12:55

# Hz S RI R 50

[Number of Ports] 2
[Two-Port Data Order] 21_12
[Number of Frequencies] 16001

[Network Data] 
! freq[Hz]               S11[Re]                  S11[Im]                  S21[Re]                  S21[Im]                  S12[Re]                  S12[Im]                  S22[Re]                  S22[Im]                  
4.000000000000000e+09    5.543131076842638e-01    -8.373575993539574e-01   7.913073345913140e-05    -6.522536234080721e-05   1.169982036749470e-04    1.328835183599758e-04    5.389219510137339e-01    -8.156414337639167e-01   
4.001000000000000e+09    5.528232007279543e-01    -8.381316692280366e-01   -9.894314245671220e-05   1.991993409289903e-05    1.558275571907200e-04    5.120462096697658e-05    5.367780395797671e-01    -8.164062241567066e-01   
4.002000000000000e+09    5.519796051990046e-01    -8.390719295035037e-01   -1.077971998887208e-04   -1.929158408230603e-05   -5.973217289553762e-05   5.650042273941593e-06    5.346000730658788e-01    -8.176288156926497e-01   
4.003000000000000e+09    5.504183471712152e-01    -8.399338733303643e-01   8.786442430104325e-05    -7.909116409954273e-05   4.521142443577007e-05    -2.570187555606770e-05   5.326414030227949e-01    -8.186774978129533e-01   
4.004000000000000e+09    5.493609908015161e-01    -8.405159185552652e-01   -3.947628723877821e-05   1.113653321447452e-04    -6.447102843646029e-05   -8.480888944513760e-05   5.308964020009923e-01    -8.201002427912611e-01   
4.005000000000000e+09    5.481770573202364e-01    -8.415860554560658e-01   6.775792743979390e-05    -2.175974312476402e-06   -4.433076065403649e-05   -1.295234401137992e-04   5.286444773984519e-01    -8.207423479324779e-01   
4.006000000000000e+09    5.468604652233655e-01    -8.424935630705050e-01   -9.804827436431612e-05   7.513286036706748e-06    1.421776615951441e-05    5.308716006787593e-05    5.265438897395986e-01    -8.223789973955269e-01   
4.007000000000000e+09    5.455746072197299e-01    -8.434604209828220e-01   -8.620367492700544e-05   -2.353174787401533e-05   2.393920675061673e-04    -2.267382373176193e-04   5.244682352758662e-01    -8.232043429540939e-01   
4.008000000000000e+09    5.440302920665677e-01    -8.442435442589141e-01   -6.886381915596484e-05   5.568295154706857e-05    7.656357973179229e-05    -5.219678257427878e-05   5.226343026651792e-01    -8.247162203143272e-01   
4.009000000000000e+09    5.430520344283551e-01    -8.446562205936849e-01   -2.388102682563221e-04   -2.232076647686861e-05   -1.853435051027318e-04   -7.034986056845164e-05   5.204328777619287e-01    -8.257542629080510e-01   
4.010000000000000e+09    5.417153200371910e-01    -8.459634266927341e-01   -1.742250861452126e-04   -2.187455175194489e-04   2.601063380027447e-06    -4.709555579729069e-05   5.187452589434177e-01    -8.272892730818231e-01   
4.011000000000000e+09    5.405045798411320e-01    -8.463359675129457e-01   8.453642864496310e-05    -1.835947285524345e-04   2.164676137517775e-04    -1.689259264604302e-04   5.165986280548115e-01    -8.285759089756077e-01   
4.012000000000000e+09    5.392713894162312e-01    -8.468456083836138e-01   -2.313771072579435e-04   2.259662137570882e-05    -7.456192552687209e-06   8.320683035632624e-05    5.149112426608857e-01    -8.299751547319864e-01   
4.013000000000000e+09    5.377146068702682e-01    -8.475936341592351e-01   5.808301933836380e-05    -6.826047340489193e-05   3.482432270588808e-05    1.959144903566000e-04    5.132976711614353e-01    -8.316147000796640e-01   
4.014000000000000e+09    5.366354616635429e-01    -8.487564154300787e-01   8.537540082362794e-05    1.038108815204779e-04    -1.939622742763158e-04   3.870653643392628e-05    5.112179212108864e-01    -8.327483531575314e-01   
4.015000000000000e+09    5.353986355006641e-01    -8.491552959162093e-01   2.114362153295435e-04    4.703579500892419e-05    -7.174845388770779e-05   1.064492178298261e-04    5.095639911921146e-01    -8.341512398242440e-01   
4.016000000000000e+09    5.339784808263420e-01    -8.498485893937708e-01   1.378388039003327e-05    -6.352895529771138e-06   -3.422274050161075e-05   3.625027270754306e-05    5.080272192633876e-01    -8.356125057512513e-01   
4.017000000000000e+09    5.329307863005407e-01    -8.504504808014889e-01   -1.365621003098044e-04   1.959796959842601e-04    1.038555483541157e-04    3.602964683636102e-06    5.064845390218036e-01    -8.366972114621472e-01   
4.018000000000000e+09    5.318939097372515e-01    -8.508546574031521e-01   5.712704408071608e-05    8.924490592618182e-05    3.401103591181874e-05    2.376636906106009e-05    5.047406005311621e-01    -8.382028045191338e-01   
4.019000000000000e+09    5.303003408832556e-01    -8.513417186769915e-01   1.018641655453592e-04    -1.194186130074645e-04   8.811545812861295e-06    -1.732716277384693e-04   5.033491299444985e-01    -8.393079058000066e-01   
4.020000000000000e+09    5.290305579128051e-01    -8.522122615091110e-01   1.806130300155264e-04    1.408908955741221e-05    -1.327533583814533e-05   1.156917467730028e-04    5.018911995715643e-01    -8.411492711781181e-01   
4.021000000000000e+09    5.277743469581354e-01    -8.524572129145846e-01   -6.284456153274486e-05   -3.550239122222644e-04   4.062459832510774e-05    -3.890724038773076e-05   5.002042474328730e-01    -8.419533139037322e-01   
4.022000000000000e+09    5.263204744497441e-01    -8.532591134008448e-01   -1.212695464722662e-05   6.544575843003203e-05    7.050853131895797e-05    6.705859133735229e-05    4.989573999839137e-01    -8.432954572273061e-01   
4.023000000000000e+09    5.252933481315964e-01    -8.540446886039744e-01   3.017130801226756e-05    -1.280697799464756e-04   -2.232652269244741e-06   8.963814200337946e-05    4.977224860992849e-01    -8.447308510859485e-01   
4.024000000000000e+09    5.240646939770292e-01    -8.542322099143005e-01   -1.470239963123899e-05   1.309311799058824e-04    -5.996001224743228e-05   1.218295773123885e-04    4.966722193837486e-01    -8.459314280533508e-01   
4.025000000000000e+09    5.224630624656018e-01    -8.544398100805176e-01   3.733289262347454e-05    1.574451176380236e-04    3.446555651800039e-05    2.722041612638982e-05    4.957426767673733e-01    -8.469112418524412e-01   
4.026000000000000e+09    5.211210109094357e-01    -8.548486168550150e-01   9.608584348395044e-05    4.588311199089703e-05    -1.812972555932358e-04   -5.756846271202296e-05   4.941034116654897e-01    -8.480316498895409e-01   
4.027000000000000e+09    5.199671432340695e-01    -8.553754925732421e-01   -1.343290408707162e-04   1.486080138665698e-04    -1.159977002341840e-04   9.746872736038589e-05    4.929984528478365e-01    -8.492993700897069e-01   
4.028000000000000e+09    5.188329478675209e-01    -8.556628683284021e-01   -2.301973668747551e-04   5.117912699146461e-06    1.623725118507959e-04    -1.111855953009005e-04   4.918758576067825e-01    -8.504822955813766e-01   
4.029000000000000e+09    5.174700038568081e-01    -8.565425745625425e-01   -9.692303314801098e-05   1.349285348543954e-04    1.584740193432541e-04    1.201995145516653e-04    4.911165130390459e-01    -8.513412365405876e-01   
4.030000000000000e+09    5.160111649298458e-01    -8.567767192030002e-01   -1.309833580750403e-04   8.840711992396257e-05    3.504401129579888e-05    -1.275236087855713e-04   4.900350738555564e-01    -8.527748762354866e-01   
4.031000000000000e+09    5.147116780448302e-01    -8.573156273449114e-01   1.214119339783423e-04    -1.527709786579937e-04   8.080854339118282e-06    8.510740364445244e-05    4.895534378161805e-01    -8.535279010096170e-01   
4.032000000000000e+09    5.133393377787070e-01    -8.575404603260468e-01   9.962245287191803e-05    1.312959345039305e-04    -3.652898322646848e-05   -1.015870777946968e-04   4.883226498670452e-01    -8.548336932886047e-01   
4.033000000000000e+09    5.122640641851209e-01    -8.577517025710556e-01   -1.726360839639492e-05   -1.184021338744953e-05   -7.053655087578820e-07   -1.560124063509153e-05   4.871225743664180e-01    -8.553349201920096e-01   
4.034000000000000e+09    5.105636642229551e-01    -8.585757265688769e-01   -1.106699398903739e-04   -1.961181333228788e-04   -1.608412770587221e-04   1.381355562676325e-05    4.863803838823543e-01    -8.568154312027552e-01   
4.035000000000000e+09    5.092991444123895e-01    -8.587753171112754e-01   -3.445344073337467e-05   -2.139658396731065e-05   1.450005470238940e-04    -6.798413537188305e-05   4.858706682488912e-01    -8.576369998921531e-01   
4.036000000000000e+09    5.079433313662475e-01    -8.593898934826101e-01   4.197801277078897e-05    -1.854341237173062e-04   8.980980624041045e-05    -2.174042520171226e-04   4.848801273964069e-01    -8.585319653287634e-01   
4.037000000000000e+09    5.063695402822300e-01    -8.597976161091756e-01   -1.185293752860961e-04   -6.160076952769644e-06   -8.551489590975444e-06   -3.491964835344829e-05   4.843984972777864e-01    -8.591985813744961e-01   
4.038000000000000e+09    5.053247232126705e-01    -8.603720637349046e-01   -1.078851441976928e-04   -2.151920400588881e-04   -5.970657406124419e-05   1.215135318567612e-04    4.836574028064832e-01    -8.603420073387319e-01   
4.039000000000000e+09    5.040678975986350e-01    -8.609005582382790e-01   -1.293438102297864e-04   2.279969730614173e-05    -2.337645023511913e-04   7.425685528921050e-06    4.830922959354625e-01    -8.613387859740372e-01   
4.040000000000000e+09    5.025163750374017e-01    -8.614383360689543e-01   -2.113078184724741e-04   -4.992303759978339e-05   -3.894017444549771e-05   1.008742046265658e-04    4.820854300443356e-01    -8.619310337842898e-01   
4.041000000000000e+09    5.010648389609256e-01    -8.617570919411381e-01   1.184542032906835e-04    -1.002552243313971e-04   -4.749834931911066e-05   -1.711515642668625e-04   4.817820200593040e-01    -8.628550601183334e-01   
4.042000000000000e+09    4.998383315504675e-01    -8.623479928357408e-01   -4.080858719325307e-05   2.065419974830817e-04    -1.664869353672571e-04   8.723292789180515e-06    4.813831506700623e-01    -8.636234245145716e-01   
4.043000000000000e+09    4.984759785295029e-01    -8.630068711493096e-01   1.463553178479385e-04    -1.300570551699203e-05   9.375922954942230e-05    1.026300648517487e-04    4.803657114496764e-01    -8.645339730743631e-01   
4.044000000000000e+09    4.970723265787084e-01    -8.637823787863449e-01   -9.314684088550879e-05   -6.048956122317007e-05   -6.394990888715008e-05   -3.304196658246472e-05   4.800844512227372e-01    -8.652368730245812e-01   
4.045000000000000e+09    4.960037207409126e-01    -8.644591084432238e-01   2.040087153135970e-04    1.487676852119972e-04    1.478560359924562e-04    3.177299357269855e-04    4.793056196259757e-01    -8.660760411173017e-01   
4.046000000000000e+09    4.944983435606854e-01    -8.649187682440143e-01   -8.220659303103868e-05   4.700597689737572e-05    -1.811978853579939e-04   7.299143372873997e-05    4.792114816390943e-01    -8.666769082265791e-01   
4.047000000000000e+09    4.935734066796737e-01    -8.657709457450415e-01   -5.423076093056418e-05   -1.781538939125163e-04   5.212146031017757e-05    -3.550748576548622e-05   4.789198894696745e-01    -8.673448613027495e-01   
4.048000000000000e+09    4.921132367273654e-01    -8.663911987593983e-01   7.881599508920415e-05    2.808518852321371e-05    -1.610935031141211e-04   -8.056019281616867e-05   4.782675221947073e-01    -8.682811466145145e-01   
4.049000000000000e+09    4.911596968570777e-01    -8.670751314263283e-01   -1.307830372590979e-04   -1.353531060570585e-04   -1.174671133364738e-04   5.696503860521390e-05    4.780453577224380e-01    -8.688192702786182e-01   
4.050000000000000e+09    4.903703904423472e-01    -8.681132320361976e-01   -3.138182847272629e-05   -1.794076778368556e-04   -1.048730412560324e-04   9.360443159878187e-05    4.777657007205439e-01    -8.695548095160276e-01   
4.051000000000000e+09    4.889381388885597e-01    -8.686523680562150e-01   -1.551175112253729e-04   -5.787906482151990e-05   2.155629085888075e-05    8.842874233301726e-05    4.773393575810820e-01    -8.701602059879898e-01   
4.052000000000000e+09    4.878027412004111e-01    -8.695065432394917e-01   2.911028554680851e-05    -3.476195057906060e-05   1.276545012874744e-04    2.795020950526224e-04    4.768745352809201e-01    -8.708446265874632e-01   
4.053000000000000e+09    4.869532537508762e-01    -8.703792472179332e-01   2.485617205138328e-05    4.724835368885858e-05    2.433375496450124e-05    -3.836229298190979e-05   4.769480828624303e-01    -8.713781056209104e-01   
4.054000000000000e+09    4.857875974947282e-01    -8.709949176772126e-01   2.803187710710061e-05    -2.117718335226278e-05   2.050907872191597e-04    8.039384531721319e-05    4.767959342885267e-01    -8.715805973330365e-01   
4.055000000000000e+09    4.853473144032714e-01    -8.717912004035099e-01   -1.328840204327418e-04   3.054085928323309e-05    1.081056493854660e-04    9.340059053979416e-05    4.769337692838989e-01    -8.724484384118739e-01   
4.056000000000000e+09    4.844584072578333e-01    -8.728443622211411e-01   2.167433198945167e-05    4.723488107215656e-05    -4.619756984837459e-05   -9.989413806771208e-05   4.766606067134572e-01    -8.723533157374698e-01   
4.057000000000000e+09    4.834392986913119e-01    -8.734149196280537e-01   1.694745375756389e-04    3.883574412441833e-06    -1.349678522410422e-04   7.718964455463455e-06    4.763435519895255e-01    -8.730385575480796e-01   
4.058000000000000e+09    4.823390577000158e-01    -8.740040708298814e-01   2.074960372776168e-05    6.623664180357039e-05    4.925608951762490e-05    -3.522355746360608e-05   4.763738707874469e-01    -8.730020979817026e-01   
4.059000000000000e+09    4.814901984783161e-01    -8.752892063466823e-01   -6.723947294866689e-05   9.247825002405513e-05    1.537325626393254e-04    4.475741137389787e-06    4.759665724417625e-01    -8.734014946883826e-01   
4.060000000000000e+09    4.810465969504824e-01    -8.759482340373895e-01   3.890668438082891e-05    -2.958641937354539e-04   -6.394025518719318e-05   4.619480672997980e-05    4.760868543289837e-01    -8.735668154584076e-01   
4.061000000000000e+09    4.800502982964382e-01    -8.769338092853937e-01   -1.170874388426619e-04   -8.813096385518681e-05   -1.566462217217775e-05   -8.970121441548212e-06   4.759532232613867e-01    -8.736272111011898e-01   
4.062000000000000e+09    4.795460700328328e-01    -8.775244080269233e-01   -7.494782903220719e-05   1.425728222159224e-04    -1.875156021312907e-04   1.217387904946645e-04    4.758507770198818e-01    -8.736828215510045e-01   
4.063000000000000e+09    4.788056114221677e-01    -8.783357461032720e-01   -8.163515825985890e-06   5.231640933450471e-05    -2.283549063809521e-04   -1.531220652926601e-04   4.755860824035362e-01    -8.734698747742865e-01   
4.064000000000000e+09    4.781003394954325e-01    -8.790967315093354e-01   4.097008786270096e-05    3.118392624486431e-05    1.145800402297970e-04    -1.477573314355251e-05   4.752983142580189e-01    -8.733242284110716e-01   
4.065000000000000e+09    4.775386860687719e-01    -8.797336774815040e-01   2.761007092646438e-05    -5.394910877920778e-05   5.230461439879708e-05    4.571619724039373e-06    4.750573479214448e-01    -8.732717769126755e-01   
4.066000000000000e+09    4.769566092050555e-01    -8.809715883263277e-01   6.160702593736561e-06    2.278052403008447e-04    2.305743308811485e-04    -8.170629117269070e-05   4.747597210815437e-01    -8.731149557945371e-01   
4.067000000000000e+09    4.762399119922909e-01    -8.815138405349910e-01   -2.792082796365043e-04   -1.929041094564062e-05   -1.680311075115729e-04   -9.282275586165064e-05   4.743863675303235e-01    -8.725505306472364e-01   
4.068000000000000e+09    4.755429422215027e-01    -8.822381310240449e-01   -8.283309676819487e-05   1.093005385114132e-05    -9.029270710739382e-05   -4.797581328744965e-07   4.740396279495966e-01    -8.722286742094368e-01   
4.069000000000000e+09    4.748770991923941e-01    -8.832623267384018e-01   -1.407732995234895e-05   5.543813687697238e-05    1.119981324964916e-04    -7.777656826196329e-06   4.733203185503616e-01    -8.722256855724423e-01   
4.070000000000000e+09    4.742987273277177e-01    -8.838578814607997e-01   -6.552359768480658e-06   1.639463312993540e-05    8.855530740402089e-05    6.295222837713856e-05    4.728871207916762e-01    -8.719064898127573e-01   
4.071000000000000e+09    4.738222186586821e-01    -8.844512559284046e-01   -8.826210174031064e-05   -9.752435000248199e-05   -9.026593383300997e-05   4.068178205859949e-05    4.721298169546606e-01    -8.714508754480804e-01   
4.072000000000000e+09    4.730979535314815e-01    -8.849835027768199e-01   -2.834624538941563e-05   7.598330453479839e-05    8.196766838476822e-05    7.583573791260401e-06    4.713098232800252e-01    -8.711592757535619e-01   
4.073000000000000e+09    4.723493531220678e-01    -8.858528781430660e-01   1.365027054131430e-04    -7.618661997970382e-05   -1.422202591343728e-04   -7.826128980782123e-05   4.704773575216743e-01    -8.709797141330257e-01   
4.074000000000000e+09    4.724162049889669e-01    -8.865149725842706e-01   -8.645556829459195e-05   6.569816170816583e-05    2.661903315122841e-05    4.701691639056490e-05    4.695487856990890e-01    -8.704972760119917e-01   
4.075000000000000e+09    4.715960772143685e-01    -8.876323130209257e-01   7.877364975412209e-05    -1.799366959395229e-05   9.763594652305526e-05    4.750895884145708e-05    4.686340859914760e-01    -8.701911202439688e-01   
4.076000000000000e+09    4.707771633366280e-01    -8.877780130319047e-01   1.330263679225889e-05    3.472893425353748e-05    -1.416318489887190e-04   3.754843104468591e-05    4.675547316070197e-01    -8.699851777174952e-01   
4.077000000000000e+09    4.701767699633910e-01    -8.886919022234075e-01   6.559334072139234e-05    -2.562279285256796e-05   -1.700363671608505e-05   4.091142367255310e-05    4.663322003374533e-01    -8.697488102320788e-01   
4.078000000000000e+09    4.695437646428544e-01    -8.893100500278689e-01   7.183080256787546e-05    -1.333369698047045e-04   -7.617121813166029e-05   2.663776778338320e-05    4.649643776660284e-01    -8.694461238242075e-01   
4.079000000000000e+09    4.691063441090291e-01    -8.905243665727671e-01   -1.456245842564998e-04   2.369583039450246e-05    2.108724041481810e-04    1.181000999967710e-04    4.637195771835380e-01    -8.694705079028814e-01   
4.080000000000000e+09    4.684044348924032e-01    -8.908968219710031e-01   -8.467568139544579e-05   4.026053132957732e-05    1.707799048767612e-04    8.914094499302271e-05    4.620737534548815e-01    -8.694052403819489e-01   
4.081000000000000e+09    4.678288335120894e-01    -8.914668891456360e-01   2.001792002210232e-04    3.700545094245211e-05    5.933960597724414e-05    -1.062752014302972e-05   4.606200759993156e-01    -8.692602941394698e-01   
4.082000000000000e+09    4.675882940958395e-01    -8.919456212248373e-01   1.688448544205885e-04    -6.607066393458316e-05   9.068893006049015e-05    -1.359554437673132e-05   4.592688503548212e-01    -8.692780114406221e-01   
4.083000000000000e+09    4.670517128112120e-01    -8.927834363370363e-01   1.012494745065135e-04    1.092174044891906e-04    1.726910141610525e-05    -1.730451725366130e-05   4.574467755882823e-01    -8.692336219893922e-01   
4.084000000000000e+09    4.657714803644666e-01    -8.935995952273572e-01   1.282143262967230e-05    2.360690093217995e-04    -1.854496782597392e-05   7.732712353036927e-05    4.558061194158952e-01    -8.696103760281220e-01   
