[Version] 2.0
! Rohde & Schwarz Vector Network Analyzer
! Rohde-Schwarz,ZNL20-2Port,1323001220200009,1.71.1.10-23.02.1.238
! 
! Port Assignments:
! Nominal Port -> Actual Test Port
! --------------------------------
!   1 -> 1
!   2 -> 2

! Created: GMT+2 2025-01-17 12:07:00

# Hz S RI R 50

[Number of Ports] 2
[Two-Port Data Order] 21_12
[Number of Frequencies] 16001

[Network Data] 
! freq[Hz]               S11[Re]                  S11[Im]                  S21[Re]                  S21[Im]                  S12[Re]                  S12[Im]                  S22[Re]                  S22[Im]                  
4.000000000000000e+09    5.546736677185734e-01    -8.367382341102287e-01   -1.195870346389339e-04   2.358109568539923e-04    -2.082170813376413e-06   3.193252620286202e-05    5.389855605825855e-01    -8.151502157073109e-01   
4.001000000000000e+09    5.531865794960105e-01    -8.381483977445345e-01   -1.220338591835969e-04   -1.004599292265435e-04   1.235850091797560e-04    -6.239189370097476e-05   5.369689015573161e-01    -8.164233168781944e-01   
4.002000000000000e+09    5.520815554140560e-01    -8.387295720559050e-01   -2.410388504955029e-05   1.693959573437693e-04    -4.610504229457453e-05   -3.376303363276591e-05   5.346687702001911e-01    -8.174568948219676e-01   
4.003000000000000e+09    5.509520622895381e-01    -8.393233279368518e-01   -8.475349768781359e-05   -4.024244897856484e-05   1.396060764106161e-04    4.456034775061191e-05    5.326631248215410e-01    -8.187570471950195e-01   
4.004000000000000e+09    5.498838506894995e-01    -8.403081750013767e-01   -1.818748367833312e-04   -9.038961671792073e-05   -1.156016650174734e-04   1.096391300516388e-04    5.307423825883734e-01    -8.193289805138552e-01   
4.005000000000000e+09    5.483893708955644e-01    -8.414497467473794e-01   5.787299373031362e-05    -3.319299694673787e-05   -8.565605212778064e-05   -1.092733749025327e-05   5.286233890397690e-01    -8.206189399709989e-01   
4.006000000000000e+09    5.472647135888156e-01    -8.420373677860707e-01   7.466479818337228e-05    2.345386099081493e-04    1.107379017945848e-04    5.641950194827400e-05    5.265148665870402e-01    -8.218900869856574e-01   
4.007000000000000e+09    5.461312334761329e-01    -8.429073406010700e-01   -1.923475014733944e-05   -1.090970157755942e-04   8.728700468710635e-05    -8.271711369821774e-05   5.244472271971834e-01    -8.231284753084905e-01   
4.008000000000000e+09    5.447454057960361e-01    -8.434213753768112e-01   -9.943555411730579e-05   1.057166625798079e-04    -1.682298514831114e-05   1.055760600705852e-04    5.225758354637058e-01    -8.242352618646364e-01   
4.009000000000000e+09    5.437778872655191e-01    -8.444100732697076e-01   -6.628534048840136e-06   -1.114287253051329e-04   -4.240686792446115e-05   -1.499806104052737e-04   5.205072513868921e-01    -8.251122138575333e-01   
4.010000000000000e+09    5.424090212345309e-01    -8.453823204667592e-01   2.216824605889197e-05    4.455084382287493e-05    2.637625090097156e-04    3.123861025515959e-06    5.184989277621889e-01    -8.271612019863969e-01   
4.011000000000000e+09    5.408581974924150e-01    -8.460345612968805e-01   2.409192711193229e-04    -8.333752002441866e-05   -2.581276651933906e-05   2.031417543916119e-05    5.169105274527800e-01    -8.281589985465188e-01   
4.012000000000000e+09    5.399182383569832e-01    -8.469238152515183e-01   4.906560277127103e-05    8.523453199258166e-05    -4.448380172343112e-05   -1.790162470968850e-04   5.150885333468826e-01    -8.294569587008521e-01   
4.013000000000000e+09    5.382389259460142e-01    -8.473699646993450e-01   2.575637538737101e-05    -1.213554899248530e-04   1.361612126387094e-05    -7.284128684729967e-05   5.130722240550678e-01    -8.307672781716092e-01   
4.014000000000000e+09    5.371990595453043e-01    -8.482338934546085e-01   -9.845653591983426e-05   5.661100128304698e-05    1.274408840931730e-05    1.352440051274817e-04    5.114333814662975e-01    -8.322267979694066e-01   
4.015000000000000e+09    5.355391327055258e-01    -8.486520520277334e-01   -3.060654024480916e-05   2.239558538711376e-04    4.799099160441050e-05    2.524165905025056e-05    5.097633836485300e-01    -8.334832739750200e-01   
4.016000000000000e+09    5.342941097686630e-01    -8.493036186491529e-01   -8.450212680971618e-05   4.108850214129543e-05    1.052545553318258e-04    -5.351772244908238e-05   5.081629267168710e-01    -8.351131116064727e-01   
4.017000000000000e+09    5.334258232436599e-01    -8.500181005330749e-01   -1.971228768992265e-04   -1.187181155067875e-04   6.949207218192867e-05    2.231604696466240e-05    5.065376265544559e-01    -8.363822126502813e-01   
4.018000000000000e+09    5.320236721646615e-01    -8.507297757734276e-01   -2.267375827731973e-06   -7.153952346741314e-05   1.100923310058579e-04    -1.750460513726475e-05   5.047756696084779e-01    -8.376752072894393e-01   
4.019000000000000e+09    5.304616972819951e-01    -8.508169782568165e-01   2.678522397293081e-04    -9.627264647809255e-05   -1.516788949795877e-04   -2.252094289288456e-04   5.033153532819353e-01    -8.388545853761020e-01   
4.020000000000000e+09    5.294398367848091e-01    -8.516335130660472e-01   -1.530539895668768e-04   -7.414776850136260e-05   -2.142701008118259e-05   6.374461085026108e-05    5.020599936118165e-01    -8.406184378378212e-01   
4.021000000000000e+09    5.280160845811031e-01    -8.523819936363557e-01   4.607632181584647e-05    -2.661881231654145e-04   2.548258331964995e-05    -1.177102076815321e-04   5.002165536861306e-01    -8.414653005232264e-01   
4.022000000000000e+09    5.269291073803039e-01    -8.530726832775781e-01   -1.289031026546140e-04   9.847222760581441e-05    -1.031502522614753e-05   -1.041805155001433e-05   4.990095255221791e-01    -8.429792192950877e-01   
4.023000000000000e+09    5.261802915481946e-01    -8.533837054436687e-01   1.179096323427831e-04    6.243116802794624e-05    6.284797765938712e-07    -3.048753258951694e-05   4.978226076190471e-01    -8.440772392159595e-01   
4.024000000000000e+09    5.246788962646107e-01    -8.538601404196968e-01   -1.325155608526536e-04   3.861248187026308e-05    -4.824380603624158e-05   1.750155542041679e-04    4.961567210240529e-01    -8.451345053616311e-01   
4.025000000000000e+09    5.231303079808451e-01    -8.542425280199835e-01   3.079688511872345e-06    -7.704622113323020e-05   -6.380849520431864e-05   -3.024662218150366e-05   4.954103567842082e-01    -8.465610331667778e-01   
4.026000000000000e+09    5.218330016003254e-01    -8.546937773149408e-01   -1.568702681545818e-04   9.089548584431274e-05    2.515385336651928e-04    1.456360418649566e-05    4.942639510571730e-01    -8.477620693111640e-01   
4.027000000000000e+09    5.205524035015637e-01    -8.550345388040277e-01   -7.852517246535452e-05   4.109071587966947e-05    1.230783325930673e-04    -1.690840498064270e-04   4.931900453760153e-01    -8.485966259408613e-01   
4.028000000000000e+09    5.192669483273237e-01    -8.555003653081729e-01   -4.367379737229382e-05   6.205152273725983e-05    7.033944826624191e-05    -2.190710182094143e-05   4.920057091888133e-01    -8.499318839540174e-01   
4.029000000000000e+09    5.181522433939212e-01    -8.559927970789150e-01   4.591455252032116e-05    1.956398068034569e-04    -2.103878687186003e-04   1.240324305469731e-04    4.909056828448182e-01    -8.509274714691273e-01   
4.030000000000000e+09    5.165930296116875e-01    -8.563571772030644e-01   5.288743589919251e-05    -1.824289501209518e-05   -1.711257816468727e-04   7.983868373996747e-05    4.902960236358361e-01    -8.522342756077366e-01   
4.031000000000000e+09    5.151324456646332e-01    -8.570102314718694e-01   -6.094631688420262e-05   -1.312402085252205e-04   2.657323195415855e-04    -9.533975806657162e-05   4.894520683463163e-01    -8.533096525114063e-01   
4.032000000000000e+09    5.139917229587946e-01    -8.572171005897190e-01   1.106101148329781e-04    8.983417987179691e-05    1.213198199829461e-04    1.077997178871201e-04    4.882666625926498e-01    -8.541801174954586e-01   
4.033000000000000e+09    5.127442039237897e-01    -8.575750161280759e-01   -1.742147036274332e-04   8.146986779178937e-05    -2.356162261231923e-05   1.249436055191574e-04    4.873858133173681e-01    -8.552555492634458e-01   
4.034000000000000e+09    5.111901697133628e-01    -8.580447230798662e-01   -2.461119553405413e-06   1.215776842520093e-05    -1.145027005607513e-04   4.997936343101234e-05    4.866009153592791e-01    -8.562975905414626e-01   
4.035000000000000e+09    5.096727645025010e-01    -8.584836554513536e-01   8.596524239224665e-05    -1.895186984795209e-05   -1.014799511454262e-04   9.725682619060964e-05    4.860509595242080e-01    -8.571829044278366e-01   
4.036000000000000e+09    5.084544577461173e-01    -8.587792930728775e-01   -5.869682727880205e-05   -7.021636191659631e-05   5.990464516824758e-05    -1.885241761895322e-04   4.850748754771197e-01    -8.578945949112657e-01   
4.037000000000000e+09    5.069629716462419e-01    -8.597469217052373e-01   -1.631183744549928e-05   1.884792576339713e-05    -4.753941832582929e-05   -2.942385522143036e-06   4.841864446729799e-01    -8.589191557343386e-01   
4.038000000000000e+09    5.056364041023592e-01    -8.598218336023099e-01   -4.733184362629025e-05   -7.947537597377900e-05   -7.334718118214745e-05   2.844119093400645e-05    4.838295911068384e-01    -8.598724840038815e-01   
4.039000000000000e+09    5.044782883273093e-01    -8.603703520417122e-01   6.708495786350734e-05    -1.172682002062616e-04   -8.826160469797961e-05   -9.999547729117157e-05   4.827539156483647e-01    -8.608892377905091e-01   
4.040000000000000e+09    5.029204021937924e-01    -8.608337750985939e-01   -8.776831638050303e-05   9.589955631713850e-05    -1.388227675925229e-04   1.285722407774704e-05    4.824138015809449e-01    -8.615880342796871e-01   
4.041000000000000e+09    5.014887793804113e-01    -8.614655507769976e-01   1.711400308295094e-05    6.716025670356395e-05    -3.156503951346571e-05   4.492333835629477e-05    4.816806547719116e-01    -8.624083751763532e-01   
4.042000000000000e+09    5.003003122788817e-01    -8.620940158455369e-01   -1.047004938550379e-04   -1.333871904502642e-04   -6.188393087205224e-05   3.024111913245918e-05    4.811473071328148e-01    -8.632922122860474e-01   
4.043000000000000e+09    4.989199208864621e-01    -8.626657556149833e-01   1.115305844582528e-04    1.562000111426424e-04    -1.642975328883574e-04   5.432766034677759e-05    4.803077951315912e-01    -8.641117903597005e-01   
4.044000000000000e+09    4.974852943627954e-01    -8.633986810414175e-01   3.629744895967987e-05    -8.217627502158055e-05   9.982031010183252e-05    -1.394564398005742e-04   4.799222406116094e-01    -8.648748962653062e-01   
4.045000000000000e+09    4.964092519393021e-01    -8.638182612049742e-01   -1.177543033091247e-04   -2.871348080080338e-05   -6.263332682884874e-05   -7.425716279769118e-05   4.794899056072310e-01    -8.656585944969615e-01   
4.046000000000000e+09    4.950521386928920e-01    -8.648059848894336e-01   -1.409711213247516e-04   1.062732711019893e-04    4.496202742968920e-05    -7.833989940138428e-05   4.789582364286413e-01    -8.666412134749372e-01   
4.047000000000000e+09    4.939594744748280e-01    -8.654367896588077e-01   4.697499787541844e-05    2.187225553649827e-05    -3.760524692559425e-05   3.230759087001901e-05    4.784626040344703e-01    -8.672975993172193e-01   
4.048000000000000e+09    4.927577131070103e-01    -8.661074034743600e-01   9.516831856178726e-06    1.238089490467398e-04    1.282884625386393e-04    -1.249740360745297e-04   4.783238033868595e-01    -8.680758453789171e-01   
4.049000000000000e+09    4.914391351147784e-01    -8.666290220634795e-01   6.405804031152239e-05    1.815823444216314e-04    9.135409839144852e-05    1.567354507901694e-04    4.777173746577119e-01    -8.685887331817076e-01   
4.050000000000000e+09    4.906516014554112e-01    -8.677447257893194e-01   -1.676086722008642e-05   1.445158278224526e-05    1.553007916893503e-05    -8.209325473368228e-05   4.778722977329695e-01    -8.692541679367889e-01   
4.051000000000000e+09    4.895013837945275e-01    -8.683632297513135e-01   -1.561193091409735e-05   -1.245408799795556e-04   -6.308546997550126e-05   7.550100570607874e-05    4.774364450661976e-01    -8.699121420173248e-01   
4.052000000000000e+09    4.885357445573583e-01    -8.694073153145679e-01   9.109038598171626e-05    -5.938525906226483e-05   -8.261170212372214e-05   -8.402036063735116e-05   4.768881288842736e-01    -8.704024096889946e-01   
4.053000000000000e+09    4.872605761234525e-01    -8.698734991297042e-01   4.687958125036589e-05    -3.285763468550564e-05   5.729707034386974e-05    6.528519439474643e-06    4.769939976758188e-01    -8.708205794300513e-01   
4.054000000000000e+09    4.869427302293861e-01    -8.710501954278496e-01   -3.051946548449316e-05   7.675057537243570e-05    -1.638176542291140e-04   2.517382900803086e-05    4.765891975723315e-01    -8.713071450443911e-01   
4.055000000000000e+09    4.858955770274920e-01    -8.715948744222521e-01   4.367403539378980e-05    2.765957353161307e-05    -2.290959938141390e-05   6.271238054282993e-05    4.766747956435770e-01    -8.719098504275926e-01   
4.056000000000000e+09    4.845823071416457e-01    -8.724463548474732e-01   -5.961957089657311e-05   6.800513305768600e-05    6.035182229289792e-07    -7.576399390622863e-05   4.766130206387613e-01    -8.722990821704292e-01   
4.057000000000000e+09    4.838671008396142e-01    -8.732147324182969e-01   2.540515774676066e-05    -9.531182968502721e-05   -2.790336218064437e-05   7.421472473450019e-05    4.763913821410728e-01    -8.725575251646570e-01   
4.058000000000000e+09    4.828183542274092e-01    -8.738643736344893e-01   -6.519358449372989e-05   1.989545813316802e-05    -1.473110371610447e-04   -4.696971120978900e-05   4.763760386605539e-01    -8.726454036962462e-01   
4.059000000000000e+09    4.823304570593971e-01    -8.748080282578395e-01   1.845950665107734e-05    -1.027804969516035e-05   6.894111158094831e-05    -2.298192139275513e-05   4.761451315304220e-01    -8.730490676254199e-01   
4.060000000000000e+09    4.813999249021528e-01    -8.753402893687774e-01   1.243339074015246e-04    9.021770141575429e-05    1.436925260771366e-04    4.742459338604495e-05    4.764108952920943e-01    -8.731902210092242e-01   
4.061000000000000e+09    4.804317709760605e-01    -8.766069173102228e-01   1.823327109280994e-05    1.582980584851071e-05    -1.069261409783465e-04   -8.738219098154591e-05   4.759436520429843e-01    -8.732956359652730e-01   
4.062000000000000e+09    4.803030834747706e-01    -8.773513759771161e-01   -6.302605005931953e-05   1.292204219529021e-05    -1.290697151948965e-06   3.886169097542825e-05    4.756712716570031e-01    -8.731247971514863e-01   
4.063000000000000e+09    4.793399250153477e-01    -8.779951760930670e-01   7.495755466230761e-05    -1.335509320409470e-04   4.992263796290496e-05    1.136383185346038e-04    4.754469879937412e-01    -8.730036855885454e-01   
4.064000000000000e+09    4.786356182538001e-01    -8.789106616919133e-01   -5.488629813683050e-05   -1.017512668269315e-05   9.727438065408779e-06    -1.043661050458211e-04   4.755379297150839e-01    -8.727635491654416e-01   
4.065000000000000e+09    4.779770559477903e-01    -8.795403996822693e-01   -1.684393016846829e-04   3.922390265572372e-05    4.276236433247817e-05    -1.258467545370996e-04   4.752419756211108e-01    -8.728701494458421e-01   
4.066000000000000e+09    4.771433691871708e-01    -8.804853303090220e-01   -1.376770257276592e-05   7.292959047645321e-05    1.221858660207132e-04    1.380479766939445e-04    4.747471840961528e-01    -8.727723955724327e-01   
4.067000000000000e+09    4.765527966954942e-01    -8.811933490073188e-01   -4.580770996413120e-06   -1.375668353391481e-05   8.490961179174107e-05    -3.052861537615240e-05   4.743902831623571e-01    -8.723659984424804e-01   
4.068000000000000e+09    4.759770552497368e-01    -8.818235302244380e-01   1.060264307815104e-04    -3.864367534074265e-05   5.167196672833660e-05    -3.785011255102048e-05   4.739033123471018e-01    -8.720132896372437e-01   
4.069000000000000e+09    4.755147100727938e-01    -8.830211216788673e-01   -1.670203943929825e-04   3.002668184458212e-05    -8.840621218481245e-05   -2.617676961943500e-05   4.734309154614036e-01    -8.718754062088051e-01   
4.070000000000000e+09    4.745515207452305e-01    -8.831963912974933e-01   -1.170224588943354e-04   -2.608962131921122e-04   1.529396234264668e-04    1.536454764855846e-04    4.729583625160876e-01    -8.714955365886544e-01   
4.071000000000000e+09    4.742529822336405e-01    -8.841135714722798e-01   -3.960318019940449e-05   -3.009970199399286e-05   -4.537088755221320e-05   -6.216496730560665e-06   4.721903351981042e-01    -8.711492017051468e-01   
4.072000000000000e+09    4.739086948371213e-01    -8.849122954808334e-01   -7.228178677867079e-05   -2.379590444130543e-05   -7.512102284678156e-05   8.480181866050559e-05    4.711727880485025e-01    -8.707508283278882e-01   
4.073000000000000e+09    4.730488462327412e-01    -8.855769734077644e-01   8.927048515843025e-05    3.780346499008104e-05    2.748750097718178e-05    -3.389784303586892e-05   4.706896567267989e-01    -8.701992538533930e-01   
4.074000000000000e+09    4.723663765397895e-01    -8.863388199375258e-01   3.609931639691906e-05    -1.664395885620369e-05   -4.438396063874020e-05   6.094496542043444e-05    4.695588985047157e-01    -8.701499072039045e-01   
4.075000000000000e+09    4.718118843524457e-01    -8.874094185229138e-01   1.549927461639171e-04    7.225985449089315e-06    7.189020609662911e-05    -3.240768140683114e-05   4.685657229314377e-01    -8.697716981846897e-01   
4.076000000000000e+09    4.714230228922527e-01    -8.873386777229072e-01   -1.093830023453217e-05   -3.897641135353590e-05   -5.690607348787671e-05   9.547937617258889e-05    4.676404453359719e-01    -8.695161415543436e-01   
4.077000000000000e+09    4.708771051027479e-01    -8.882437017522505e-01   -1.899739002282827e-04   7.883443695810591e-06    -2.026182408651329e-05   -4.852689195699460e-05   4.663452437898819e-01    -8.692565266893783e-01   
4.078000000000000e+09    4.702573133232364e-01    -8.889056584184213e-01   1.664215515334907e-04    -3.142191875761001e-05   -6.728609035802941e-05   -1.459647526037845e-04   4.651753440309319e-01    -8.690040468624938e-01   
4.079000000000000e+09    4.696022839334472e-01    -8.898435910731290e-01   -1.084958718293275e-04   1.665070904004376e-04    1.816528311800667e-04    2.844322410275575e-05    4.636366498218039e-01    -8.691915513796115e-01   
4.080000000000000e+09    4.690259704758479e-01    -8.901388338443760e-01   -1.074470630637404e-04   4.203715901813125e-05    1.776374268979698e-04    -8.273055173461109e-05   4.625817655128894e-01    -8.689333348746193e-01   
4.081000000000000e+09    4.685277644429882e-01    -8.914620063429707e-01   -1.242241902633658e-04   5.645748005067357e-05    2.119032774915164e-05    -1.466712992176872e-04   4.609831765894866e-01    -8.688984606001611e-01   
4.082000000000000e+09    4.675240698125003e-01    -8.918419096839428e-01   -1.090503415052922e-05   -3.893343362670334e-05   1.626221622374227e-05    5.282898268960685e-05    4.594679743951769e-01    -8.686485245197089e-01   
4.083000000000000e+09    4.672733670587125e-01    -8.921877405761239e-01   9.056576019853610e-05    2.387420082097941e-05    -1.139497301070931e-04   -1.007611344543928e-04   4.576343383455743e-01    -8.691286807693879e-01   
4.084000000000000e+09    4.663814173496504e-01    -8.931305808436052e-01   5.882668527477722e-05    9.517710269022851e-05    3.234820838150359e-05    4.331069360808938e-05    4.559131358635476e-01    -8.691469965259310e-01   
