[Version] 2.0
! Rohde & Schwarz Vector Network Analyzer
! Rohde-Schwarz,ZNL20-2Port,1323001220200009,1.71.1.10-23.02.1.238
! 
! Port Assignments:
! Nominal Port -> Actual Test Port
! --------------------------------
!   1 -> 1
!   2 -> 2

! Created: GMT+2 2025-01-17 12:07:22

# Hz S RI R 50

[Number of Ports] 2
[Two-Port Data Order] 21_12
[Number of Frequencies] 16001

[Network Data] 
! freq[Hz]               S11[Re]                  S11[Im]                  S21[Re]                  S21[Im]                  S12[Re]                  S12[Im]                  S22[Re]                  S22[Im]                  
4.000000000000000e+09    5.547630074809877e-01    -8.371685342080452e-01   -4.264214895835429e-05   1.794204677488539e-05    2.393659077023337e-04    -1.223993155254817e-04   5.390970591801165e-01    -8.150937114569916e-01   
4.001000000000000e+09    5.530670056109203e-01    -8.378220383607334e-01   -2.451261458546730e-05   -1.165568639698883e-04   8.732453271541278e-05    4.673073291474438e-05    5.369383973338887e-01    -8.160289884678026e-01   
4.002000000000000e+09    5.523302641672106e-01    -8.389626300423318e-01   -5.964700555377727e-05   3.303333801471276e-05    -9.223950413558011e-05   -6.351240542382912e-05   5.348902632738841e-01    -8.173390367897388e-01   
4.003000000000000e+09    5.511160812293271e-01    -8.397806793184029e-01   -7.294407691235580e-05   -4.150705117018427e-05   -4.328512792517362e-05   3.586596213249921e-05    5.325962075377180e-01    -8.181291483082149e-01   
4.004000000000000e+09    5.500296802778158e-01    -8.401557534576805e-01   4.389675327718609e-05    -9.981239255285326e-05   1.778347095636816e-04    5.098165923636791e-05    5.307437177750431e-01    -8.196780476498498e-01   
4.005000000000000e+09    5.485170889752241e-01    -8.411358068835458e-01   1.731304581548340e-04    8.211794138481961e-05    5.240885970215706e-05    -7.453187387227720e-05   5.286889911473133e-01    -8.206172080513059e-01   
4.006000000000000e+09    5.474629504335187e-01    -8.421086737433751e-01   1.461412836397262e-04    -2.463132600904083e-04   -4.292953503028092e-05   -7.885659837042366e-05   5.262331644023832e-01    -8.217126214449181e-01   
4.007000000000000e+09    5.460340988402205e-01    -8.426379217661742e-01   -2.467924656524614e-04   2.513178757752854e-04    5.385586485082905e-05    -1.444480548564580e-04   5.246990990924156e-01    -8.228578248370898e-01   
4.008000000000000e+09    5.448320143127207e-01    -8.441080468739972e-01   -1.697848846812574e-04   -1.227428136575121e-04   7.811086467880205e-05    1.308460415968331e-04    5.224410455051263e-01    -8.242267394296715e-01   
4.009000000000000e+09    5.436673198630502e-01    -8.445032378733494e-01   1.770142422043265e-04    7.713127952547001e-06    -1.377911635304770e-04   -2.457428476906999e-04   5.203692487285542e-01    -8.253202004585753e-01   
4.010000000000000e+09    5.421368389902131e-01    -8.455796755099216e-01   -5.843485235902926e-06   2.564870778821655e-05    -3.548526270615196e-05   5.293981854385349e-06    5.188040596407595e-01    -8.269152229378017e-01   
4.011000000000000e+09    5.411395913561848e-01    -8.459134708027121e-01   -7.645578051902628e-06   -3.061601642469709e-05   -9.518701281723589e-06   -1.026607627314124e-04   5.167759537776713e-01    -8.281508195821090e-01   
4.012000000000000e+09    5.394524601271484e-01    -8.469302607589250e-01   -7.319188741023861e-05   -2.489004939591538e-05   -7.829776017741906e-05   -3.878650377543157e-05   5.148212354709091e-01    -8.296897772756314e-01   
4.013000000000000e+09    5.385520904646000e-01    -8.472707588040888e-01   1.182327803528279e-04    -1.901106973760199e-04   -6.999830120070658e-05   2.994205154090690e-05    5.130228688661241e-01    -8.309171539638117e-01   
4.014000000000000e+09    5.371804324282314e-01    -8.478449711843492e-01   1.553627603127407e-04    7.268247192863462e-05    -1.418287625100346e-04   -2.066216746210230e-04   5.111218890404496e-01    -8.322051751900137e-01   
4.015000000000000e+09    5.358922640480051e-01    -8.486761260940590e-01   4.815562711705392e-05    5.944451073352253e-05    -2.191827697055375e-04   -2.478969093036008e-05   5.095724303744875e-01    -8.336296560630472e-01   
4.016000000000000e+09    5.341948834610795e-01    -8.495086257679048e-01   8.864573357701036e-05    6.543625313675483e-05    -1.370635040264168e-04   1.120412259646852e-04    5.078417407671237e-01    -8.350831679904142e-01   
4.017000000000000e+09    5.334387349289542e-01    -8.504235937748885e-01   -6.488881802812605e-05   -5.278390341319398e-05   -1.012955182855072e-04   -1.447287204936216e-04   5.063540462479589e-01    -8.366290464495222e-01   
4.018000000000000e+09    5.322389713496800e-01    -8.506465031036282e-01   8.718715637855585e-05    1.137314092830323e-04    -7.296010269410256e-05   -2.053157844184960e-04   5.048206731492684e-01    -8.374838071067640e-01   
4.019000000000000e+09    5.306672343650572e-01    -8.511326674512151e-01   -1.784683829147499e-04   1.767085379133028e-04    -5.869196033785352e-05   9.095470961001289e-05    5.032903940806756e-01    -8.388859361228013e-01   
4.020000000000000e+09    5.296475915252209e-01    -8.520726065608725e-01   1.667192210193104e-05    -4.162028417659559e-05   2.459912007096020e-04    1.435014551819002e-04    5.020415349444514e-01    -8.404828838572179e-01   
4.021000000000000e+09    5.282231153918202e-01    -8.519625868892002e-01   1.396117367186148e-04    -1.928567894872837e-04   -1.611257370781281e-05   1.894240719033295e-04    5.003467860642138e-01    -8.416682810976298e-01   
4.022000000000000e+09    5.265427909592781e-01    -8.526299121441105e-01   -5.639871734298019e-05   1.578261337976939e-04    3.294928128139026e-06    1.020530538446475e-04    4.993280594127836e-01    -8.430404124071639e-01   
4.023000000000000e+09    5.257413383425921e-01    -8.534257435793253e-01   1.004716475920357e-04    1.064982583458574e-04    -1.697221037561593e-05   1.342553891670189e-04    4.979697727416731e-01    -8.437846913526559e-01   
4.024000000000000e+09    5.245349235807818e-01    -8.535494315986952e-01   -1.662285178645340e-04   2.450020603615121e-05    -2.011917200648120e-05   5.726371577684013e-05    4.967922996598411e-01    -8.452402893465544e-01   
4.025000000000000e+09    5.229366901378781e-01    -8.541860667809432e-01   6.971825931729570e-05    -1.485172740191494e-04   9.489001261985030e-05    -5.269357685734636e-05   4.954497779147121e-01    -8.467132160017197e-01   
4.026000000000000e+09    5.219710446078434e-01    -8.546756954982350e-01   -1.176743147448064e-05   2.327171653323569e-04    6.970966968275811e-05    1.067964570399915e-04    4.942178895504990e-01    -8.479313359869389e-01   
4.027000000000000e+09    5.205231593955694e-01    -8.550165601018220e-01   1.592379599618816e-04    -5.329890601444065e-05   -5.191304805458495e-05   4.302842281819555e-05    4.934584927511380e-01    -8.488024138342206e-01   
4.028000000000000e+09    5.192459651995791e-01    -8.556344732605978e-01   -2.116089722835000e-04   -7.147117773590807e-05   -1.160412428621901e-04   3.092134320731464e-05    4.916452350141067e-01    -8.498763021589768e-01   
4.029000000000000e+09    5.180559974576091e-01    -8.560516592837242e-01   -2.602151485093335e-04   -6.383657454906592e-05   -1.450929876326709e-04   -7.619046781619479e-05   4.910599946774157e-01    -8.509522721343729e-01   
4.030000000000000e+09    5.163777625887102e-01    -8.564966989571180e-01   -2.767237811041115e-05   -9.862553595003651e-05   -1.307427224834446e-04   9.458448044454656e-05    4.901056311974772e-01    -8.524597945040289e-01   
4.031000000000000e+09    5.150892839381661e-01    -8.569937973817725e-01   1.424189114512586e-04    -8.319666637907393e-05   -1.176373279796044e-04   -2.030562198372297e-05   4.893315550672976e-01    -8.531736072874622e-01   
4.032000000000000e+09    5.137958524279618e-01    -8.571272264643303e-01   5.119845509590839e-05    -1.266067019822633e-05   9.265012865249122e-05    -1.490526379955714e-04   4.883346805866433e-01    -8.543351512745117e-01   
4.033000000000000e+09    5.126477438349843e-01    -8.574516593839140e-01   -4.181832090527741e-05   -1.504842826914774e-04   -1.147693133898526e-04   -1.387232316265932e-04   4.873032513376838e-01    -8.551217574972565e-01   
4.034000000000000e+09    5.113438512167560e-01    -8.582119694848406e-01   1.618285605024092e-05    6.843327656246238e-05    -1.507928038857771e-04   -1.006456809072900e-04   4.866421150486093e-01    -8.564641370592837e-01   
4.035000000000000e+09    5.097854946805888e-01    -8.586404860985827e-01   -1.948131559261445e-05   -1.270930755579376e-04   9.424529550238915e-05    -1.870925622467551e-05   4.857243473922349e-01    -8.572397119648278e-01   
4.036000000000000e+09    5.083328843822658e-01    -8.589363561948864e-01   -3.484579795164204e-05   1.596570708054887e-04    1.241938364485540e-05    -9.800960459248825e-05   4.851226627123196e-01    -8.580602489100471e-01   
4.037000000000000e+09    5.070572302962911e-01    -8.596314896778428e-01   -6.273683557717038e-05   8.952275862422648e-05    7.318388436213622e-05    -6.104789042056497e-05   4.843277900802944e-01    -8.586951430957315e-01   
4.038000000000000e+09    5.057525458172554e-01    -8.596407266415895e-01   -2.249132473087508e-04   -2.619982686186862e-05   1.707305959646144e-04    7.686704189320415e-05    4.835625780736573e-01    -8.596159818399149e-01   
4.039000000000000e+09    5.044487357846827e-01    -8.604701423925180e-01   1.309063553977523e-04    -1.461326293544349e-04   -3.829224047209548e-05   -1.155977405837316e-04   4.827902428200330e-01    -8.609330921563219e-01   
4.040000000000000e+09    5.029087138572986e-01    -8.609895152961262e-01   -4.612174995672985e-05   1.627124052767885e-04    9.589077773752743e-05    -2.810246748658274e-04   4.820850372437597e-01    -8.613340109203202e-01   
4.041000000000000e+09    5.016775051483882e-01    -8.616783389020612e-01   -1.780167037123540e-04   -4.784568859991911e-05   2.375307821654239e-04    -2.942710156390397e-05   4.815872155105898e-01    -8.625053793354739e-01   
4.042000000000000e+09    5.004180283667139e-01    -8.619852798119633e-01   -1.746890984327061e-04   1.212539584684045e-04    1.503782931196953e-04    -5.665794472233572e-05   4.812141533684023e-01    -8.632666840530170e-01   
4.043000000000000e+09    4.990799148134045e-01    -8.626569912420078e-01   1.110096854162480e-04    9.872841680383100e-05    -6.979012030074234e-05   -1.743676303806615e-05   4.805550812119580e-01    -8.640628559146255e-01   
4.044000000000000e+09    4.976917488830904e-01    -8.632558438655440e-01   7.668995017019704e-05    3.458941481157553e-05    6.899879687972759e-06    -1.532105489577049e-04   4.801986988128720e-01    -8.648694769807604e-01   
4.045000000000000e+09    4.964958927007631e-01    -8.640202207479716e-01   2.996018352715094e-05    -3.025400078634196e-05   6.341632861423450e-05    3.709836197990265e-05    4.793691816846098e-01    -8.656786901245981e-01   
4.046000000000000e+09    4.952216806729532e-01    -8.649480647768244e-01   1.296761653946783e-04    4.407353324786185e-05    -1.435126404574621e-04   -5.420536671008169e-05   4.790086371858468e-01    -8.666634151989319e-01   
4.047000000000000e+09    4.939895575097313e-01    -8.654676815206795e-01   8.910209815567691e-05    -3.704896650888402e-05   -2.741909692265681e-05   5.893411933076220e-05    4.784178899345751e-01    -8.669984919637073e-01   
4.048000000000000e+09    4.929552956808148e-01    -8.661734318126867e-01   7.420739667450903e-05    6.119746219644349e-05    -1.127808377273280e-04   7.831378505997575e-05    4.782738292663742e-01    -8.678651467293219e-01   
4.049000000000000e+09    4.914221523133206e-01    -8.670005088157934e-01   9.577991892256219e-05    -9.739056237136940e-05   1.966369153563071e-04    1.870362332082635e-04    4.778542667578641e-01    -8.687357587103095e-01   
4.050000000000000e+09    4.906715632914295e-01    -8.677018054484479e-01   -7.344620553541570e-05   6.430436281163634e-05    -1.151673179990326e-04   4.210364376177689e-06    4.778776782811739e-01    -8.694336287222320e-01   
4.051000000000000e+09    4.896362421619660e-01    -8.683983605314697e-01   1.614015988610407e-05    1.819646219463396e-05    -8.928666264853871e-05   1.136512215102741e-04    4.774071577219522e-01    -8.697187097075654e-01   
4.052000000000000e+09    4.887005365181982e-01    -8.691413483333885e-01   -4.735409060536779e-05   -8.369918846803175e-05   -4.011074447345756e-05   -7.321580908327843e-05   4.770692643843839e-01    -8.705085425700214e-01   
4.053000000000000e+09    4.874806231410279e-01    -8.700639116164171e-01   -1.327604125478009e-04   -6.172356275276096e-06   2.901386430637706e-05    -1.317486452563813e-04   4.769384413238192e-01    -8.707770609162407e-01   
4.054000000000000e+09    4.866060280533056e-01    -8.710112684565701e-01   -1.115419147338553e-04   -2.467757802690538e-05   -4.304480764134975e-05   -1.468069195628862e-04   4.770936918124024e-01    -8.715347360885902e-01   
4.055000000000000e+09    4.855011032811392e-01    -8.713897102930918e-01   -1.016264807638451e-04   -5.600444385866959e-05   1.379145365161651e-05    5.137876370286065e-05    4.766468333294784e-01    -8.719882576387626e-01   
4.056000000000000e+09    4.847136346956291e-01    -8.725997900156988e-01   -1.201055662777375e-04   2.774080596967188e-05    1.040052955712239e-04    1.501559728187167e-04    4.762732136618886e-01    -8.721972703445846e-01   
4.057000000000000e+09    4.839684023820761e-01    -8.732613138536113e-01   7.357407659713364e-05    1.344853880219321e-05    1.213536283718855e-06    1.013552145927612e-04    4.762798451135939e-01    -8.726360961580814e-01   
4.058000000000000e+09    4.827636631420123e-01    -8.739161442564239e-01   5.888907155238799e-05    -1.467098759108146e-05   -4.105147652883208e-05   -4.318978707915608e-05   4.762260605798408e-01    -8.727134352321930e-01   
4.059000000000000e+09    4.821890715244377e-01    -8.750558213032552e-01   -8.098130396727449e-05   8.095159031264579e-05    -3.109365999112083e-05   -8.882841927300767e-06   4.764329756260367e-01    -8.728412104020691e-01   
4.060000000000000e+09    4.816285525957935e-01    -8.757591641621514e-01   -1.008129663230261e-04   -1.038273892578546e-04   -6.224841905923851e-05   1.950713558342852e-04    4.761129854356859e-01    -8.730443092299714e-01   
4.061000000000000e+09    4.804776759508788e-01    -8.763212736585906e-01   -1.794605578340954e-04   8.302267385665614e-05    -1.206863366652467e-04   -2.696436539055393e-05   4.758884914980259e-01    -8.730186498773511e-01   
4.062000000000000e+09    4.799522066929804e-01    -8.771826799083715e-01   -9.944771673783729e-06   -1.150223652512271e-05   -1.028094612091214e-04   -2.868367867480994e-05   4.758085921767581e-01    -8.730790407819958e-01   
4.063000000000000e+09    4.791502475288032e-01    -8.781023766892686e-01   -8.549904160922701e-05   1.946413104124886e-04    -3.893207455226905e-05   8.627202183228930e-05    4.755643774631161e-01    -8.733094118807967e-01   
4.064000000000000e+09    4.783198631139352e-01    -8.788858290257524e-01   -1.591930711572207e-04   2.548081761609089e-04    -8.633937974540147e-05   -7.146880043279288e-05   4.756198566451543e-01    -8.729466694034003e-01   
4.065000000000000e+09    4.779642847925706e-01    -8.795704810581478e-01   1.873101410505297e-04    -8.575176190277209e-05   -6.032709867654841e-06   -5.674949973117552e-05   4.749641239860605e-01    -8.727723575375558e-01   
4.066000000000000e+09    4.774487217843304e-01    -8.803341770851878e-01   -5.823982909424837e-05   1.227205359959875e-04    -3.092562000080441e-05   -7.214885222014103e-05   4.748891021804958e-01    -8.728586362272948e-01   
4.067000000000000e+09    4.765276059444011e-01    -8.809025724920380e-01   1.205014981450028e-04    1.433057892361690e-04    2.388351954915669e-05    4.159663141536435e-06    4.744535696840129e-01    -8.724428766587788e-01   
4.068000000000000e+09    4.760015091639691e-01    -8.820898264222961e-01   8.363187659518736e-05    1.829931934374355e-05    -4.232096929470545e-05   -1.736256958090746e-04   4.739514450155209e-01    -8.721840358325477e-01   
4.069000000000000e+09    4.756212932839026e-01    -8.826687213749376e-01   -4.232091969438806e-05   -1.151430868478972e-04   9.331271463852838e-05    1.060205711728594e-05    4.734359392282493e-01    -8.716090437042259e-01   
4.070000000000000e+09    4.747495244260455e-01    -8.832142430836110e-01   9.798249227808112e-05    -4.056870062334580e-05   -2.006957706859411e-05   -1.443537213547192e-04   4.729084086161783e-01    -8.713200451909782e-01   
4.071000000000000e+09    4.744743319501221e-01    -8.841810346420489e-01   6.345285724003980e-06    -1.078233494343178e-04   -5.820949185421344e-05   7.502354748321857e-05    4.721722699437117e-01    -8.713459002843476e-01   
4.072000000000000e+09    4.736027808799100e-01    -8.847000381539125e-01   9.516401158950668e-05    2.298752163945061e-05    1.756491739295689e-04    -8.275175297396654e-05   4.715712520803320e-01    -8.705663749605500e-01   
4.073000000000000e+09    4.730646587926290e-01    -8.854421709020067e-01   -9.437845294093379e-05   3.175597768068627e-05    -1.228346214496706e-04   -8.382593960321152e-06   4.707705294005239e-01    -8.706528234883671e-01   
4.074000000000000e+09    4.725300039898171e-01    -8.862907601007148e-01   -1.062207013328742e-04   8.913450445098042e-05    -1.677897261721269e-04   -3.495501285364860e-05   4.695106229558314e-01    -8.703240940291348e-01   
4.075000000000000e+09    4.722334807440560e-01    -8.869410862331244e-01   1.227873148848526e-04    4.496779730139002e-05    1.809131224343036e-04    5.193181153781816e-05    4.686057819397789e-01    -8.698548313065052e-01   
4.076000000000000e+09    4.717415498923761e-01    -8.875883155385587e-01   -5.317875020742682e-07   4.619866841931108e-05    4.023160016446849e-05    6.647819282919162e-05    4.673200213461950e-01    -8.695874643954761e-01   
4.077000000000000e+09    4.706398074501537e-01    -8.882809085294576e-01   1.718554340847503e-05    -3.309455196283815e-05   1.010249592661163e-04    -5.606737642342700e-05   4.662584616131697e-01    -8.692656182300322e-01   
4.078000000000000e+09    4.701278526979195e-01    -8.890069623126572e-01   -1.977581017812886e-04   -6.751913411235447e-06   -2.509798372602642e-05   -8.052437662919710e-06   4.650047499957931e-01    -8.689862998367567e-01   
4.079000000000000e+09    4.696116325714840e-01    -8.899701561729813e-01   -5.140320629826835e-05   -1.119858495362042e-04   -4.452165194825949e-05   -1.007395399253263e-04   4.637483607419161e-01    -8.691015673686624e-01   
4.080000000000000e+09    4.687654887058313e-01    -8.903107486108176e-01   1.070898620397375e-05    -3.218979050471987e-06   1.777339896725890e-05    -3.042447531131162e-05   4.620974471468119e-01    -8.689247897080139e-01   
4.081000000000000e+09    4.685075485190396e-01    -8.912210787436835e-01   1.119618412094024e-05    2.725500340295554e-06    3.930078506491406e-05    -6.673846878957600e-06   4.608424773713040e-01    -8.685643753153580e-01   
4.082000000000000e+09    4.677706519222772e-01    -8.915104708816151e-01   -1.813009186344598e-04   7.930021531930084e-05    4.295074689291716e-05    -1.207295473712842e-04   4.592004908148164e-01    -8.682388012243145e-01   
4.083000000000000e+09    4.670119475660847e-01    -8.925027212763029e-01   1.601323806278492e-04    2.978786104866481e-05    2.758172345233907e-04    2.713848902204405e-05    4.577669270630519e-01    -8.689024605189785e-01   
4.084000000000000e+09    4.664721519975954e-01    -8.929752655677984e-01   3.321118740652275e-05    6.973681532734296e-05    2.220214428106900e-04    1.289475772608711e-04    4.560212981471167e-01    -8.690750078721464e-01   
