[Version] 2.0
! Rohde & Schwarz Vector Network Analyzer
! Rohde-Schwarz,ZNL20-2Port,1323001220200009,1.71.1.10-23.02.1.238
! 
! Port Assignments:
! Nominal Port -> Actual Test Port
! --------------------------------
!   1 -> 1
!   2 -> 2

! Created: GMT+2 2025-01-17 12:07:45

# Hz S RI R 50

[Number of Ports] 2
[Two-Port Data Order] 21_12
[Number of Frequencies] 16001

[Network Data] 
! freq[Hz]               S11[Re]                  S11[Im]                  S21[Re]                  S21[Im]                  S12[Re]                  S12[Im]                  S22[Re]                  S22[Im]                  
4.000000000000000e+09    5.549083961604313e-01    -8.369276645820635e-01   2.707157266971456e-06    2.443347364783901e-05    5.403243799534460e-06    1.072944814342911e-04    5.388279904219491e-01    -8.153974440254024e-01   
4.001000000000000e+09    5.534488186569038e-01    -8.379809790443971e-01   3.914436967363575e-05    -7.524520483979048e-06   -8.127470321353029e-05   3.737955096446791e-05    5.369151192446114e-01    -8.160375379302390e-01   
4.002000000000000e+09    5.521569945673410e-01    -8.386269666201186e-01   -9.902978783390862e-05   1.454956409587887e-04    2.069542895061794e-04    5.575983210044197e-06    5.346985715499502e-01    -8.171779409425547e-01   
4.003000000000000e+09    5.509420825162261e-01    -8.394676033373233e-01   -8.856013568423271e-05   1.832038034916386e-04    9.583943801260844e-05    1.546155465219518e-04    5.325552610600094e-01    -8.183708126041350e-01   
4.004000000000000e+09    5.497085832279942e-01    -8.402096508621040e-01   -1.318817645917899e-04   2.529807470400521e-05    -9.498306634011844e-05   1.485901353349423e-04    5.305814109692273e-01    -8.196463912674604e-01   
4.005000000000000e+09    5.483159874834275e-01    -8.412740414342930e-01   -9.928008803437460e-05   -1.095220333113569e-05   2.062410205551334e-04    1.278582764113933e-04    5.284903904259303e-01    -8.203632372639236e-01   
4.006000000000000e+09    5.471306465998096e-01    -8.419610016487316e-01   -1.338250096162025e-05   1.200809763631767e-04    -1.548082726169492e-04   7.475561498752514e-05    5.266625361052001e-01    -8.217352518941398e-01   
4.007000000000000e+09    5.460877231978639e-01    -8.431523904831401e-01   1.549627293099167e-04    1.579347783609571e-05    -6.922671116925027e-06   -6.330503369799317e-05   5.247421281068169e-01    -8.229077051518505e-01   
4.008000000000000e+09    5.447375608559363e-01    -8.440602314662026e-01   -1.433394418287992e-04   5.032211436256734e-05    -2.223222134116077e-05   -1.533847499329440e-05   5.225723731402441e-01    -8.240398717199914e-01   
4.009000000000000e+09    5.434886615142172e-01    -8.447109822051777e-01   -5.053515111556116e-05   7.690624541681217e-05    -6.796888386330954e-05   8.375846713443518e-06    5.203999090841310e-01    -8.251812310199724e-01   
4.010000000000000e+09    5.419029183483708e-01    -8.456044700613558e-01   1.237782568941223e-04    1.848881842789524e-04    1.256108623150918e-04    -1.432353039235480e-04   5.185177585803539e-01    -8.266595520172543e-01   
4.011000000000000e+09    5.407642419110595e-01    -8.465260452344445e-01   -8.297610309558793e-06   2.848233666253411e-05    2.827662599164027e-05    1.148246699737906e-04    5.166727794612113e-01    -8.279057477070815e-01   
4.012000000000000e+09    5.396632196227692e-01    -8.466800043771322e-01   -1.192421386282958e-04   -6.187231296648147e-05   -1.039534750057143e-04   1.165799594165599e-04    5.147722199706788e-01    -8.294676803857489e-01   
4.013000000000000e+09    5.380231771876939e-01    -8.472547151988927e-01   -7.427914558496049e-06   -5.079698283167211e-05   -7.045414817428863e-05   -1.163526999448868e-05   5.131995783748713e-01    -8.308818464876874e-01   
4.014000000000000e+09    5.373804490254011e-01    -8.481059719197731e-01   7.631220246650123e-05    -1.301990860351783e-04   1.774707991053018e-05    -1.703998421177403e-05   5.110385786320522e-01    -8.321839179709919e-01   
4.015000000000000e+09    5.357522772640871e-01    -8.489775719272102e-01   -1.608215286626160e-05   6.669437556909706e-05    -3.033235134569115e-05   -5.059952111180136e-05   5.096991928483323e-01    -8.336225736942451e-01   
4.016000000000000e+09    5.344286991693916e-01    -8.495190277634121e-01   -1.904521094590848e-04   1.265215694384113e-04    -2.454535103171720e-04   3.734951255102655e-05    5.080757224818925e-01    -8.349311398572503e-01   
4.017000000000000e+09    5.334371332905915e-01    -8.499698543194555e-01   1.369539014074610e-04    -9.160087938110928e-05   9.700769255699945e-05    -2.235278375059900e-04   5.060880227661686e-01    -8.364205475531415e-01   
4.018000000000000e+09    5.320221006727769e-01    -8.505538758357127e-01   1.804785606615618e-04    -7.278267205909788e-05   8.857587502874025e-05    1.070515201188921e-04    5.047153171375082e-01    -8.376868549533779e-01   
4.019000000000000e+09    5.306977511134647e-01    -8.510547283187351e-01   -1.293524677515606e-04   -1.831002276301476e-05   8.269498146328834e-05    -1.124582257900927e-04   5.032254019250414e-01    -8.390394504349509e-01   
4.020000000000000e+09    5.294215523883179e-01    -8.518266492355705e-01   7.389883850846934e-05    -2.077440095383369e-04   9.150317813666409e-05    5.520995946164766e-05    5.016420721172348e-01    -8.406002692625351e-01   
4.021000000000000e+09    5.278869164248782e-01    -8.517849556622504e-01   -9.242889760563719e-05   1.706192413143754e-05    3.460732711103099e-05    -7.143468751733825e-05   5.003185455760739e-01    -8.414247564729896e-01   
4.022000000000000e+09    5.265257207260499e-01    -8.527712998055296e-01   5.389699320859568e-05    6.955255309537091e-07    -1.703127474346002e-04   1.877020652468928e-04    4.991755439251232e-01    -8.427222971141868e-01   
4.023000000000000e+09    5.255781355197160e-01    -8.534473479441309e-01   -4.827299394581881e-05   -2.008175374243111e-04   -7.637645027087278e-05   1.985176192359934e-05    4.980647172894942e-01    -8.440508052213763e-01   
4.024000000000000e+09    5.242117289054926e-01    -8.538794093627898e-01   1.545728458279405e-05    1.461471434565751e-04    -6.181990789304857e-05   2.437535828378034e-04    4.966689189115218e-01    -8.451903338453817e-01   
4.025000000000000e+09    5.229993798799211e-01    -8.540477728248692e-01   1.463013182807367e-04    2.509539182649041e-04    -7.029901327782178e-05   5.384589917498122e-05    4.956178933982293e-01    -8.467064973139027e-01   
4.026000000000000e+09    5.216320367136537e-01    -8.547519134515805e-01   -5.819904067221534e-05   -8.180572842691265e-05   -4.830751363283303e-05   1.702499221475316e-04    4.944320774806833e-01    -8.479588248186338e-01   
4.027000000000000e+09    5.205298186941136e-01    -8.552251784255436e-01   1.915275519433388e-04    1.880922670722180e-07    7.998396734836357e-05    1.942049833502412e-04    4.935030364050147e-01    -8.488236768813200e-01   
4.028000000000000e+09    5.189862133711041e-01    -8.552120339105399e-01   -3.288408718834945e-05   1.130597456355818e-04    1.377553462619548e-04    -5.232647806292448e-06   4.919678431257464e-01    -8.501216375907763e-01   
4.029000000000000e+09    5.179750424616879e-01    -8.563051423031878e-01   7.136418335436267e-05    -8.505386967121432e-05   1.914854530585260e-05    2.784266752451615e-06    4.910700554077740e-01    -8.512138903747495e-01   
4.030000000000000e+09    5.165966554831115e-01    -8.564339919703108e-01   -6.841529419350193e-05   5.275601966810321e-05    8.669451786428516e-06    -1.258376833815976e-05   4.899372495481308e-01    -8.520734268077069e-01   
4.031000000000000e+09    5.152108103700881e-01    -8.566019124867823e-01   6.060782560469636e-05    3.000380756787081e-05    1.058095924306236e-04    9.072891374210118e-06    4.891488265819981e-01    -8.532106172122892e-01   
4.032000000000000e+09    5.139975072681529e-01    -8.572341293497221e-01   -1.685221013069698e-04   -1.473190657196561e-04   -1.782668482236979e-05   -1.294860863894010e-05   4.885445245845121e-01    -8.541899944658218e-01   
4.033000000000000e+09    5.127257094522936e-01    -8.573431209646443e-01   -9.543093599063365e-05   -2.483589576756328e-05   1.402824658019365e-04    -4.491345959720144e-05   4.875926151186985e-01    -8.552021714594324e-01   
4.034000000000000e+09    5.111880736497902e-01    -8.582634215782466e-01   1.224381665167406e-04    2.543497634911503e-05    1.369635261942588e-05    3.418308490467870e-05    4.865183668415442e-01    -8.561210584693096e-01   
4.035000000000000e+09    5.096637056041834e-01    -8.583945872931907e-01   5.231258284858485e-05    -1.511838373802694e-04   -3.481684264523096e-05   1.274502049546081e-04    4.857631813539759e-01    -8.571483527095612e-01   
4.036000000000000e+09    5.084068415020599e-01    -8.588383448495028e-01   -3.699181154015731e-05   1.810237932081087e-06    -1.008060328789461e-04   6.998269647086442e-05    4.849486671231504e-01    -8.577389958626441e-01   
4.037000000000000e+09    5.070856838348158e-01    -8.595802893079048e-01   -1.165255140018845e-04   1.408700203436204e-04    1.891452178147547e-05    -1.341503691066481e-04   4.844195834434960e-01    -8.588090119056472e-01   
4.038000000000000e+09    5.055029746518965e-01    -8.597888941752621e-01   8.487953697575155e-05    1.581141745121352e-04    1.157569649630644e-05    2.970799287091479e-05    4.836232548935632e-01    -8.600597775113850e-01   
4.039000000000000e+09    5.043455715433363e-01    -8.601952454999672e-01   -1.627586134034803e-04   -1.024843364081899e-04   -2.059395170101220e-05   1.637920765437208e-05    4.827565687703362e-01    -8.609330742923426e-01   
4.040000000000000e+09    5.030800440487583e-01    -8.610325311602443e-01   6.968420765824038e-05    1.152004279328684e-04    3.847792628010380e-05    -9.505154949706370e-05   4.822440113731743e-01    -8.614811498381287e-01   
4.041000000000000e+09    5.015200481735688e-01    -8.614378898962693e-01   2.552114498381047e-05    2.518631213281082e-05    -5.223334565361354e-05   1.288634276730434e-04    4.816816412107804e-01    -8.625990990167264e-01   
4.042000000000000e+09    5.000413191993717e-01    -8.621147794402013e-01   -5.446605771432638e-05   -2.111746874976302e-05   7.013166399843952e-05    -3.150982064700684e-06   4.812760683334777e-01    -8.634343961336113e-01   
4.043000000000000e+09    4.988974209309376e-01    -8.626379687473410e-01   3.015693476109543e-05    2.622652220029501e-04    2.913793528917770e-05    -1.186193227889329e-04   4.804875266252694e-01    -8.642257045830252e-01   
4.044000000000000e+09    4.974770022163928e-01    -8.632378853334549e-01   -3.699028901417394e-05   -1.722026389367987e-04   -1.395131805528406e-05   2.651236775110387e-05    4.800107617891993e-01    -8.650644680816543e-01   
4.045000000000000e+09    4.962848811564256e-01    -8.638326900858386e-01   -1.173750250398306e-04   7.772561668655925e-05    -4.673423743361224e-05   -8.080863353646991e-05   4.796073724017849e-01    -8.657801339053618e-01   
4.046000000000000e+09    4.949975441860127e-01    -8.650404613575057e-01   -1.362528319804141e-04   6.859354501451774e-05    3.812056404686422e-05    -2.419807069056726e-04   4.790930942557589e-01    -8.663782541597600e-01   
4.047000000000000e+09    4.941453530758987e-01    -8.654058686961037e-01   1.796479454987804e-05    -6.887251834523886e-05   4.237406438107760e-05    -4.405495662131248e-05   4.785920635797000e-01    -8.671792657842414e-01   
4.048000000000000e+09    4.926573602032796e-01    -8.659915500716180e-01   -1.323712415450777e-04   -7.364766066147905e-05   2.244756491875030e-05    -1.242030310827822e-05   4.782357326357248e-01    -8.678356557209767e-01   
4.049000000000000e+09    4.916998272900372e-01    -8.669985894522311e-01   7.067759076098412e-05    -1.193388256909106e-04   -1.118142605026646e-04   1.478569626197055e-04    4.780964944783769e-01    -8.686868268698520e-01   
4.050000000000000e+09    4.908104843592130e-01    -8.674975176191275e-01   1.380558336010636e-04    8.136349732252505e-05    6.003344364804628e-05    -1.043324948537692e-04   4.776849857415802e-01    -8.692663501411961e-01   
4.051000000000000e+09    4.894342377527991e-01    -8.683686058901977e-01   4.032902798253333e-05    7.832619893093812e-05    -2.512906217139793e-05   -4.402638507477297e-05   4.772771266035396e-01    -8.696897057761735e-01   
4.052000000000000e+09    4.885949122249207e-01    -8.692852002552730e-01   1.196201672812641e-04    -7.075223990798306e-05   6.419738044444718e-05    8.910916974503573e-07    4.771654865089026e-01    -8.704269658121804e-01   
4.053000000000000e+09    4.874355983292221e-01    -8.700547180594794e-01   2.958483812377177e-05    -4.007312180121699e-05   2.620334808374989e-05    -2.107795285370031e-04   4.770085068198205e-01    -8.708311205732485e-01   
4.054000000000000e+09    4.864427234801809e-01    -8.707712225065816e-01   -2.751297923402749e-05   6.788978106834242e-05    8.162827524602088e-05    1.469438073244616e-04    4.767206046414941e-01    -8.713032011777289e-01   
4.055000000000000e+09    4.857967009382450e-01    -8.713015555072154e-01   -1.648092408335154e-04   7.862493341041013e-05    -1.035873124561352e-04   2.364076875761146e-05    4.767131288507764e-01    -8.718232614629171e-01   
4.056000000000000e+09    4.847408247704457e-01    -8.725324347199167e-01   -2.657799509987447e-05   -6.156518599193869e-05   1.689180270849448e-04    1.181094741976653e-04    4.765845404866803e-01    -8.720245862268202e-01   
4.057000000000000e+09    4.840995116364009e-01    -8.731348172630577e-01   9.155182049719536e-05    1.683295002352693e-04    -1.026499380671365e-04   -4.329879025125882e-05   4.764608009458955e-01    -8.725298422074674e-01   
4.058000000000000e+09    4.827041486299839e-01    -8.740230451683451e-01   -8.245503085327257e-05   4.685236756629173e-05    -6.108696188277421e-05   1.284184603528316e-04    4.763934991168970e-01    -8.727147419654364e-01   
4.059000000000000e+09    4.821315797473408e-01    -8.748413464065735e-01   8.579289588724821e-05    -4.150570996131247e-05   9.477798432887919e-05    1.189234120101910e-04    4.762777238766530e-01    -8.729607275932668e-01   
4.060000000000000e+09    4.813148227716837e-01    -8.757467198831708e-01   6.514157929684372e-05    9.170441737574959e-05    8.810679865954501e-05    -1.198474952041252e-05   4.760377136570576e-01    -8.731106253628697e-01   
4.061000000000000e+09    4.807170202313842e-01    -8.763488474705258e-01   1.171148714186424e-04    -4.800640870490506e-05   -1.625451085644725e-05   -1.279785489623286e-04   4.760171499604650e-01    -8.730196658811056e-01   
4.062000000000000e+09    4.798101512039402e-01    -8.772147209335878e-01   3.386775993718494e-05    6.363095761488577e-05    -9.553208316528578e-06   -1.098226682354611e-04   4.757338946210381e-01    -8.730593608461943e-01   
4.063000000000000e+09    4.792080479040445e-01    -8.781427851785130e-01   -1.309589030111345e-04   -1.190287156945153e-05   -3.224330235423215e-06   2.581989497260997e-04    4.756235234410648e-01    -8.729814251695448e-01   
4.064000000000000e+09    4.785495014281613e-01    -8.787601889933796e-01   -1.544423660508687e-04   1.592084113454531e-05    1.514723846699744e-04    4.825542176967925e-05    4.756238589801465e-01    -8.730115384436298e-01   
4.065000000000000e+09    4.779313077729635e-01    -8.798580500843828e-01   -4.425388949733000e-05   -3.314699944087028e-06   9.396312433942438e-05    1.961350413973045e-04    4.751136581391590e-01    -8.727384453757598e-01   
4.066000000000000e+09    4.774216748111805e-01    -8.804067674158087e-01   3.924202754686610e-05    3.518290337375393e-05    1.459434760427999e-05    4.535560590535952e-05    4.747760547262934e-01    -8.725986210070172e-01   
4.067000000000000e+09    4.766722952615342e-01    -8.813568016954689e-01   -1.165045751268314e-04   -1.119695295216730e-05   -6.143695786562772e-05   -1.369789023844024e-04   4.743165169707187e-01    -8.722802576324630e-01   
4.068000000000000e+09    4.762249005521743e-01    -8.817949664132561e-01   -4.097848441665086e-05   -5.756461867554876e-06   -1.257034629175822e-04   -4.634815662979618e-05   4.741537866752176e-01    -8.719233271430133e-01   
4.069000000000000e+09    4.755686396011776e-01    -8.827599097809335e-01   1.561904107744176e-04    -1.417781446501453e-04   -1.641417646823813e-04   1.809824465853915e-04    4.735257429005717e-01    -8.717163436980715e-01   
4.070000000000000e+09    4.746767910789822e-01    -8.832863882945240e-01   5.195184870227402e-05    -1.417781649163758e-04   3.964434362443625e-06    -7.376823053819684e-05   4.729191488246933e-01    -8.713519172720480e-01   
4.071000000000000e+09    4.743754019926752e-01    -8.843110703168736e-01   -6.387649213068791e-05   -6.797131485141658e-05   -1.404565420319740e-04   -5.998261413297929e-05   4.722515456478685e-01    -8.711467160918884e-01   
4.072000000000000e+09    4.736938112136450e-01    -8.848523532482131e-01   1.056030756002593e-04    1.412471691258622e-04    5.029885623749024e-05    3.417496630573750e-06    4.715721058861522e-01    -8.708289114538382e-01   
4.073000000000000e+09    4.730644811300415e-01    -8.856796833698718e-01   -7.938121182959242e-06   7.300292856653697e-05    -3.071994897041304e-05   1.638810016295276e-04    4.706256317857050e-01    -8.705499455158614e-01   
4.074000000000000e+09    4.723987213933281e-01    -8.862157069572002e-01   -1.639539640601553e-05   6.654597634110488e-05    -4.733095751612365e-05   5.803120293494009e-05    4.694650353885078e-01    -8.701235699908401e-01   
4.075000000000000e+09    4.718079843178326e-01    -8.870223302195727e-01   -9.571814498329175e-05   -2.639633408257485e-05   -1.616768072071523e-04   1.116183601707513e-05    4.685556040919468e-01    -8.700427704159506e-01   
4.076000000000000e+09    4.714758882432185e-01    -8.877864854371791e-01   -2.204518299441511e-04   1.740992139591134e-04    -6.446656811210304e-05   3.252794407793687e-05    4.674762041986941e-01    -8.696748087588150e-01   
4.077000000000000e+09    4.708913486444929e-01    -8.880901184188282e-01   4.093682946675736e-05    -5.369598136835123e-05   -5.519645735078342e-05   -2.010320147701793e-04   4.663238833328464e-01    -8.691541179565827e-01   
4.078000000000000e+09    4.704547112310098e-01    -8.893718955171812e-01   1.021310862740529e-04    7.932075062585109e-05    -1.755419988631900e-05   2.140857380908690e-05    4.651203421591799e-01    -8.690175626945346e-01   
4.079000000000000e+09    4.693402640146436e-01    -8.901166350900267e-01   6.108522692251614e-06    -1.022437768278539e-04   -2.420631660773989e-05   1.516533798540230e-04    4.637095908375686e-01    -8.692002455380412e-01   
4.080000000000000e+09    4.692436357159247e-01    -8.905376319631847e-01   -2.117658930081946e-05   -1.512396245498158e-05   -4.261528582544607e-06   -1.488531526521953e-04   4.624317436196813e-01    -8.689282026905981e-01   
4.081000000000000e+09    4.685718523925395e-01    -8.909171811492681e-01   -7.444664414821769e-06   6.613423317315513e-05    6.865002635664964e-05    4.613929588160546e-05    4.605502611381481e-01    -8.685072211743327e-01   
4.082000000000000e+09    4.678536702025445e-01    -8.916545321809992e-01   3.783660989654461e-05    -7.439475512858600e-05   6.542373282876799e-05    -2.239900180447724e-07   4.595424116465222e-01    -8.686612233785501e-01   
4.083000000000000e+09    4.671004066119344e-01    -8.923880490477888e-01   9.813596993219976e-05    -1.796619233371886e-04   2.085734399035370e-05    7.829463863231608e-05    4.578270930117158e-01    -8.689208742590099e-01   
4.084000000000000e+09    4.664420778312255e-01    -8.930889002602828e-01   9.540953100153907e-05    -1.474908909229805e-05   4.389542037051453e-05    7.784276582618912e-05    4.560514494558512e-01    -8.691805597067886e-01   
