[Version] 2.0
! Rohde & Schwarz Vector Network Analyzer
! Rohde-Schwarz,ZNL20-2Port,1323001220200009,1.71.1.10-23.02.1.238
! 
! Port Assignments:
! Nominal Port -> Actual Test Port
! --------------------------------
!   1 -> 1
!   2 -> 2

! Created: GMT+2 2025-01-17 12:08:05

# Hz S RI R 50

[Number of Ports] 2
[Two-Port Data Order] 21_12
[Number of Frequencies] 16001

[Network Data] 
! freq[Hz]               S11[Re]                  S11[Im]                  S21[Re]                  S21[Im]                  S12[Re]                  S12[Im]                  S22[Re]                  S22[Im]                  
4.000000000000000e+09    5.544635491160448e-01    -8.369880645848136e-01   -1.177865645150476e-04   2.367744600342631e-04    -1.208523233402297e-05   -3.082788943987056e-06   5.387546807554849e-01    -8.151055811635138e-01   
4.001000000000000e+09    5.531532286958895e-01    -8.380431612329335e-01   1.043674158915393e-04    -1.610779355399447e-05   1.155160992481808e-04    -4.058926513474795e-06   5.367538903418069e-01    -8.165048851329622e-01   
4.002000000000000e+09    5.524781255746838e-01    -8.386605246757822e-01   4.869458606578374e-05    -4.193089838229886e-05   -2.396841523313381e-05   -6.961899763345625e-06   5.345601113645815e-01    -8.174504065894400e-01   
4.003000000000000e+09    5.507153320062397e-01    -8.395874467437523e-01   -1.869465665520940e-05   -5.219752627670811e-05   -4.430799795140816e-05   -7.259656039185751e-05   5.325945626147516e-01    -8.183980584647750e-01   
4.004000000000000e+09    5.496600893066219e-01    -8.404854120726192e-01   -2.482680003363084e-05   6.338830008109848e-05    -1.641629376918370e-04   1.047101621272332e-04    5.305279657843850e-01    -8.196701133203648e-01   
4.005000000000000e+09    5.485208029739360e-01    -8.415068260844388e-01   1.400456284070152e-04    3.537162526582050e-06    3.544211820673409e-06    1.136246606698779e-04    5.287466636840850e-01    -8.204122201837422e-01   
4.006000000000000e+09    5.473176994924990e-01    -8.417578580651790e-01   -2.289701896432485e-04   1.076811143201118e-04    -6.674976159969910e-05   1.147403694911414e-05    5.264131078006355e-01    -8.217835113418033e-01   
4.007000000000000e+09    5.457849939437709e-01    -8.429200737717440e-01   -8.713234923389220e-05   7.823130844277102e-05    -3.475118779198485e-05   2.423547632402180e-05    5.245862201031389e-01    -8.229839068414687e-01   
4.008000000000000e+09    5.446483805324595e-01    -8.435985252021710e-01   -1.017083178285308e-04   1.481042537937554e-04    -6.583582720513829e-05   -9.529279585214416e-05   5.225011378207244e-01    -8.243883109742324e-01   
4.009000000000000e+09    5.436425858209303e-01    -8.447152313139686e-01   -8.146771302303306e-06   -2.549267603982215e-04   -7.047081347706962e-05   1.350969449727707e-04    5.206709616909979e-01    -8.253406534993480e-01   
4.010000000000000e+09    5.421191840890268e-01    -8.452884582078517e-01   1.009290044774349e-04    -1.459077753476599e-05   1.293215747846649e-04    -1.493363346424366e-04   5.186086526266026e-01    -8.268699836361874e-01   
4.011000000000000e+09    5.412381362167289e-01    -8.460039313205165e-01   -6.833408613215627e-05   -1.471520322059794e-04   3.523840438726477e-05    3.544759421969153e-05    5.164374905968988e-01    -8.282906531793591e-01   
4.012000000000000e+09    5.397294931695690e-01    -8.466479145818979e-01   1.394596126809666e-04    1.494460086919740e-04    2.149527772965723e-04    9.714630273433743e-05    5.146115852229671e-01    -8.297566926450202e-01   
4.013000000000000e+09    5.381901965470429e-01    -8.474562471485106e-01   -2.578812403428070e-05   -8.845734453695017e-05   6.050020794865798e-05    -7.059102517266617e-05   5.130970353363099e-01    -8.308349637492735e-01   
4.014000000000000e+09    5.368657671013823e-01    -8.486334644860526e-01   1.014117043715052e-04    -6.122417859928796e-05   1.198252882738548e-04    -1.597799370498874e-05   5.112080186330851e-01    -8.320619186088266e-01   
4.015000000000000e+09    5.356629941642369e-01    -8.487401561074458e-01   8.403588366712066e-05    -3.666740483418157e-05   -2.457111630069464e-05   1.827691231729641e-05    5.095229696959879e-01    -8.336530902987853e-01   
4.016000000000000e+09    5.345037968875165e-01    -8.499175688790828e-01   -1.256195005950595e-04   -1.471705088261803e-05   1.131712348303435e-04    1.257598395425458e-05    5.078961641521565e-01    -8.350532501370102e-01   
4.017000000000000e+09    5.332959374598057e-01    -8.499981467955073e-01   3.600236393155281e-05    -9.300035798844218e-05   -5.144627714943249e-05   -4.482130595952706e-05   5.061924150882230e-01    -8.364348789986695e-01   
4.018000000000000e+09    5.319328704297807e-01    -8.509846761101193e-01   -1.856566035369698e-04   1.170818413612871e-04    2.465067530298774e-05    -5.650097911724855e-05   5.050020234918621e-01    -8.377602930999303e-01   
4.019000000000000e+09    5.308660903357677e-01    -8.506337502702720e-01   6.292602885470575e-05    -1.063806762073532e-04   -3.304544963879728e-05   -9.032502739579143e-05   5.031901958797185e-01    -8.392568973491594e-01   
4.020000000000000e+09    5.294048636375308e-01    -8.520211707887079e-01   -2.424568926875630e-05   -6.169021731447008e-05   -9.685080781887940e-05   -1.140502603955284e-04   5.017930500367090e-01    -8.404191262204189e-01   
4.021000000000000e+09    5.282370271992644e-01    -8.523688328530512e-01   -1.078044466997102e-04   4.054808431205887e-05    1.970638195736102e-05    -1.176480023436241e-04   5.002893217715100e-01    -8.416478462501495e-01   
4.022000000000000e+09    5.269751713904338e-01    -8.530659902655411e-01   1.414115159020457e-04    4.450430532917746e-06    9.382415407429908e-05    -2.701772075751966e-04   4.990587554263180e-01    -8.432471801461979e-01   
4.023000000000000e+09    5.259046029147644e-01    -8.535348225013192e-01   1.504054864129662e-04    -2.471341400212096e-04   -2.131252537693184e-05   6.867144179587735e-05    4.978261518139502e-01    -8.443014652490087e-01   
4.024000000000000e+09    5.243250874158928e-01    -8.534429511370044e-01   1.142246755394187e-04    -2.111200025136011e-04   -3.950037659183215e-05   1.989685713102205e-04    4.964727530688411e-01    -8.453309522581465e-01   
4.025000000000000e+09    5.231342241088487e-01    -8.540869065961434e-01   4.311746385674509e-05    5.440046827152702e-05    -1.139208120962260e-04   1.832669354133023e-05    4.953961863441331e-01    -8.466837553526455e-01   
4.026000000000000e+09    5.214581258691363e-01    -8.546066657109871e-01   6.399273515171310e-05    -4.784251949871306e-05   -4.857229112782780e-05   -3.922512234524436e-06   4.941115792506034e-01    -8.480986891951384e-01   
4.027000000000000e+09    5.204058078374159e-01    -8.549889608110494e-01   -4.793078722867545e-05   -6.254818066078781e-05   6.036800175980034e-05    2.710380120057020e-05    4.933964445059216e-01    -8.488929617772543e-01   
4.028000000000000e+09    5.192436097817492e-01    -8.553779141417800e-01   -6.667091379733813e-05   -8.453132088977867e-07   -3.966895732367178e-05   2.008268560903147e-04    4.917914065175180e-01    -8.501989982031268e-01   
4.029000000000000e+09    5.179322505520830e-01    -8.560166684079223e-01   1.784292428428192e-04    6.213987239180185e-05    -5.126571691144611e-05   -2.437453541986540e-05   4.909823244789354e-01    -8.511034489594362e-01   
4.030000000000000e+09    5.164528596339225e-01    -8.563147777314700e-01   1.173294167139371e-04    4.028966630165799e-05    -3.609659948683906e-05   -8.431904445940403e-05   4.901476623793329e-01    -8.523836500888060e-01   
4.031000000000000e+09    5.153165324453606e-01    -8.568919125579068e-01   -1.790122590123145e-04   1.150761641542837e-05    -1.234637382594217e-05   1.019666318184076e-05    4.893841641257560e-01    -8.532905541322592e-01   
4.032000000000000e+09    5.139916700909867e-01    -8.573286053959357e-01   1.095411780229907e-04    -6.121768964685861e-06   -7.601714635983108e-05   -7.593969834085095e-05   4.883299288329244e-01    -8.543712440031740e-01   
4.033000000000000e+09    5.123962518010124e-01    -8.575513127260290e-01   -6.439145820532065e-05   1.270351900289988e-04    -8.760173132602653e-05   -7.691751593067883e-05   4.872411503339464e-01    -8.552590489505926e-01   
4.034000000000000e+09    5.112704650318555e-01    -8.582294728157553e-01   -1.045164082266534e-04   -7.980507014990226e-05   -1.596710964559691e-04   -7.528935615325704e-05   4.865389470729987e-01    -8.563737447071544e-01   
4.035000000000000e+09    5.098439428075884e-01    -8.583865077841258e-01   1.364421062007252e-04    -2.027864091387028e-04   -1.129907772781987e-04   2.000004164603978e-05    4.857583849657398e-01    -8.571198839061833e-01   
4.036000000000000e+09    5.084575736960429e-01    -8.589468452367910e-01   2.239417667804411e-06    -1.245853436255410e-04   9.388219169665308e-05    -2.067076003835221e-04   4.849964019222912e-01    -8.577190225159996e-01   
4.037000000000000e+09    5.068673222901030e-01    -8.594264453374777e-01   -1.215194661429885e-04   -2.038686498886579e-05   1.617939829726872e-05    -1.292620574687880e-04   4.843664663190849e-01    -8.589276072515993e-01   
4.038000000000000e+09    5.056152567118480e-01    -8.599208804551778e-01   -6.774017991766555e-05   1.180231092083970e-04    -1.940212030920302e-05   -1.742214523775638e-05   4.835494226903614e-01    -8.602021545941416e-01   
4.039000000000000e+09    5.044443639125374e-01    -8.603593975533574e-01   2.917275101261317e-05    1.729374279680254e-04    -1.483373335412902e-04   1.876349470718629e-05    4.825787865583616e-01    -8.608573701859161e-01   
4.040000000000000e+09    5.030694096698557e-01    -8.607948802806279e-01   -1.683902502354146e-04   -8.681639374890171e-05   1.756120315037070e-04    5.898146929258149e-05    4.821402484312914e-01    -8.614007192332298e-01   
4.041000000000000e+09    5.014702549454275e-01    -8.613328962104747e-01   -2.351260215116483e-04   5.967348325844837e-05    1.268549311580198e-05    -1.298423746581570e-04   4.815585221992892e-01    -8.627028180302114e-01   
4.042000000000000e+09    5.002657150516865e-01    -8.621737239563863e-01   -9.129605464129782e-05   -1.067325192805892e-04   6.461563789939355e-05    2.348036185863450e-05    4.811038838458323e-01    -8.633073876874029e-01   
4.043000000000000e+09    4.990265087751130e-01    -8.627567502452707e-01   1.118709597213480e-04    1.682013187269224e-04    -2.426831476592479e-04   5.488741705547564e-05    4.805316564849785e-01    -8.641386396105982e-01   
4.044000000000000e+09    4.976403961475167e-01    -8.632372547595968e-01   1.579814355509634e-04    2.454034107519924e-05    1.335769004662671e-04    1.044868889858218e-04    4.797947010703522e-01    -8.650608240317325e-01   
4.045000000000000e+09    4.962868618845017e-01    -8.639611395293648e-01   1.064088718341316e-04    -3.225025282042329e-05   -3.531197808687886e-05   2.945939395053717e-06    4.795669699123335e-01    -8.654880669135894e-01   
4.046000000000000e+09    4.949669884235162e-01    -8.647832783940612e-01   9.628484485056172e-07    -9.537667904974897e-05   2.289220796780808e-05    2.939982648837214e-05    4.790113021110896e-01    -8.664659574396126e-01   
4.047000000000000e+09    4.939007239044025e-01    -8.653746858594484e-01   -6.592134005035725e-05   -1.711494823397738e-05   -3.417763023843269e-05   1.274082262471208e-04    4.786214243455512e-01    -8.671809695024748e-01   
4.048000000000000e+09    4.928776139139249e-01    -8.659770324077308e-01   -5.661610222593697e-05   -6.466114762699571e-05   1.032010209632203e-04    2.238850631715994e-05    4.781206631076088e-01    -8.678630835974710e-01   
4.049000000000000e+09    4.915665392162592e-01    -8.667022450583415e-01   -8.270295441031409e-05   6.555778563378171e-05    3.659175809580557e-05    -6.932882084051631e-05   4.779591043445325e-01    -8.686378165003251e-01   
4.050000000000000e+09    4.906539985923194e-01    -8.676725034685914e-01   2.491679971395051e-05    -8.056105571850682e-06   -2.237552765672240e-04   1.017607647254660e-04    4.780057235635816e-01    -8.692030588169457e-01   
4.051000000000000e+09    4.894630774203035e-01    -8.684557889603557e-01   -1.469219465290026e-04   1.194430278135092e-04    -1.754966036727045e-04   -1.440447927058623e-04   4.774392571722493e-01    -8.697265694780802e-01   
4.052000000000000e+09    4.884699353761953e-01    -8.693478530953740e-01   2.403959224053866e-05    -5.964463784080874e-05   -1.169375181467960e-05   5.915759149059993e-05    4.769868005533432e-01    -8.704949796692616e-01   
4.053000000000000e+09    4.874363472593063e-01    -8.701471565803933e-01   -4.796663458930268e-05   2.230943239762288e-04    -1.900334532698289e-05   -8.302638043706419e-05   4.770349723728316e-01    -8.707023362338565e-01   
4.054000000000000e+09    4.866209856869383e-01    -8.709130308906425e-01   8.328228857553956e-05    1.258116421360324e-04    7.275620285614972e-05    1.041659262521629e-04    4.768141740540270e-01    -8.712566711508521e-01   
4.055000000000000e+09    4.856809080247070e-01    -8.713742266192550e-01   4.523688881332052e-05    -6.802517371015272e-05   4.636306970882515e-05    1.711632471445184e-05    4.767255035166439e-01    -8.719777260043228e-01   
4.056000000000000e+09    4.845480430966771e-01    -8.725264087644075e-01   -1.145137448681200e-04   -6.324672906292296e-06   1.737604654057329e-05    6.975266672651802e-05    4.766501848110170e-01    -8.720514733138718e-01   
4.057000000000000e+09    4.837080482293689e-01    -8.733144167368898e-01   2.392397410899695e-04    6.828504228835832e-05    -1.589995490629681e-04   7.530033880921506e-05    4.761903065950576e-01    -8.723107587535099e-01   
4.058000000000000e+09    4.829555230474328e-01    -8.740527540780576e-01   3.856575870585139e-05    -3.897940125078341e-05   -4.297493248367859e-05   2.811976515422123e-05    4.763118469267064e-01    -8.727659462874304e-01   
4.059000000000000e+09    4.821215349535380e-01    -8.751173719680977e-01   -2.955828186030994e-05   -8.654182724489801e-05   2.159014488885119e-04    1.895976524259717e-04    4.760610264264333e-01    -8.730538071145929e-01   
4.060000000000000e+09    4.813423862011231e-01    -8.756293591803821e-01   1.538458704891663e-04    2.373678423488995e-05    1.199249853988432e-04    2.304499772865631e-05    4.761059492092719e-01    -8.729510531799274e-01   
4.061000000000000e+09    4.802268080350690e-01    -8.766455967811145e-01   1.555469642428068e-05    -3.262162250579330e-06   1.653523229371376e-04    -9.955217252178851e-05   4.760575434268445e-01    -8.731153519498515e-01   
4.062000000000000e+09    4.798212567250218e-01    -8.773947939979533e-01   -9.906841856378893e-05   1.345829965572784e-05    5.819009985168053e-05    5.698265643098757e-05    4.760038458332683e-01    -8.729140390404230e-01   
4.063000000000000e+09    4.793540295040818e-01    -8.780380876230827e-01   -4.237042314784831e-05   7.754806246663894e-05    3.128350239078594e-05    5.275944485871666e-05    4.754388188811144e-01    -8.731885768580285e-01   
4.064000000000000e+09    4.787438490029852e-01    -8.788800262419908e-01   -7.935242630520667e-05   -2.798954106585927e-05   1.253336195327918e-04    -3.679483801416484e-05   4.755295751825052e-01    -8.727543111615627e-01   
4.065000000000000e+09    4.781334775411952e-01    -8.795021232211259e-01   8.030348160904430e-05    -1.291579622559419e-05   1.210702256388028e-04    3.288481681336847e-05    4.752956725155879e-01    -8.727336661346917e-01   
4.066000000000000e+09    4.773607563334347e-01    -8.804095650913225e-01   6.653251302442322e-05    -3.900755976763136e-05   -2.517609735786993e-05   -2.327270479731902e-04   4.751065774747926e-01    -8.728429836886972e-01   
4.067000000000000e+09    4.764903153259676e-01    -8.812190083009894e-01   -1.716402182968277e-06   1.816988534666482e-04    8.496734357263317e-05    -1.656287290784672e-05   4.742254486821683e-01    -8.723324560307969e-01   
4.068000000000000e+09    4.761290035555794e-01    -8.819287118185498e-01   -2.229372826314089e-05   4.990061465717008e-05    4.463157252675871e-05    1.768384424859405e-04    4.739822003296472e-01    -8.719418289149906e-01   
4.069000000000000e+09    4.754860351286617e-01    -8.829438856450454e-01   -7.266991731742583e-06   -7.730473748938078e-05   -1.454252129863910e-04   1.096215605730748e-04    4.734907125324521e-01    -8.714434192770237e-01   
4.070000000000000e+09    4.750162964094108e-01    -8.831475856609249e-01   5.278444919244921e-06    1.059063954413462e-04    9.870454513011726e-05    -6.115267281136198e-05   4.725905990519259e-01    -8.715450803038295e-01   
4.071000000000000e+09    4.745791250671585e-01    -8.840960826944018e-01   -7.509443835504132e-05   -2.768267776818772e-06   -2.813366111780496e-05   -9.385977315667327e-05   4.722425686755664e-01    -8.710424736419649e-01   
4.072000000000000e+09    4.735985998089688e-01    -8.847373760584213e-01   -2.014358064258636e-04   8.369736569710715e-05    -1.737366672586223e-05   1.094254216925390e-04    4.711759697790514e-01    -8.708088059583701e-01   
4.073000000000000e+09    4.729477039464997e-01    -8.855926610002839e-01   -9.668544437359413e-05   6.689053393608415e-05    -1.489879933628550e-04   7.028657883167807e-05    4.706362347485675e-01    -8.705009338614522e-01   
4.074000000000000e+09    4.724256202191178e-01    -8.859851410644299e-01   -1.499884131977641e-04   -5.092184984415200e-05   -1.142661155327770e-04   -9.316927247825760e-06   4.695814638825260e-01    -8.701941405346697e-01   
4.075000000000000e+09    4.719323566735955e-01    -8.870742460920386e-01   -1.468452124503330e-04   5.146847161148098e-05    1.363446023179052e-04    1.714883210723850e-04    4.684930271877912e-01    -8.696244000942412e-01   
4.076000000000000e+09    4.713687319628084e-01    -8.878404129148749e-01   -4.442767760373885e-05   6.350125466267173e-05    -1.832887183234548e-04   -4.976202332051717e-05   4.676360407512301e-01    -8.694293511548146e-01   
4.077000000000000e+09    4.707747486015660e-01    -8.883039736562933e-01   5.568270253949460e-06    -3.201843862497977e-05   4.880206646046512e-05    4.541326521762032e-06    4.660978564913018e-01    -8.689299257226468e-01   
4.078000000000000e+09    4.701241424393293e-01    -8.891356227556844e-01   -7.776762441575924e-05   -2.951132297891675e-04   -4.583320450049611e-05   -1.535150563591333e-05   4.651629948673502e-01    -8.688412967354906e-01   
4.079000000000000e+09    4.697742905964941e-01    -8.899401792261445e-01   -3.559141754451228e-05   1.431822794065733e-05    -3.648900391017455e-05   2.678148663053212e-05    4.637785917646873e-01    -8.689471055084553e-01   
4.080000000000000e+09    4.692791567865532e-01    -8.901665536748906e-01   5.289188590930979e-05    2.230275605124718e-05    8.532999907317251e-05    -9.144394896836171e-05   4.622262729451736e-01    -8.689453874139424e-01   
4.081000000000000e+09    4.690036226917906e-01    -8.909692547827340e-01   -2.251658545392228e-05   -2.591439511797934e-05   2.102887320089312e-05    5.490319009331528e-05    4.608865244673234e-01    -8.689151053693643e-01   
4.082000000000000e+09    4.679306488464666e-01    -8.914730187296435e-01   1.816605091857067e-04    -1.643984203504311e-04   4.426653301572042e-05    9.047708659570991e-05    4.594604306615456e-01    -8.686063775773633e-01   
4.083000000000000e+09    4.671979390916420e-01    -8.921299891465357e-01   -4.540768916582270e-05   6.556402148203852e-05    1.788068376634824e-05    -1.388020279934287e-04   4.577692230175988e-01    -8.690761085955376e-01   
4.084000000000000e+09    4.666204556889444e-01    -8.931961456578867e-01   -6.411397726188451e-05   -1.278691803034809e-04   1.336925777463643e-04    2.038788733690536e-04    4.559125308858744e-01    -8.690000441707687e-01   
