[Version] 2.0
! Rohde & Schwarz Vector Network Analyzer
! Rohde-Schwarz,ZNL20-2Port,1323001220200009,1.71.1.10-23.02.1.238
! 
! Port Assignments:
! Nominal Port -> Actual Test Port
! --------------------------------
!   1 -> 1
!   2 -> 2

! Created: GMT+2 2025-01-17 12:08:24

# Hz S RI R 50

[Number of Ports] 2
[Two-Port Data Order] 21_12
[Number of Frequencies] 16001

[Network Data] 
! freq[Hz]               S11[Re]                  S11[Im]                  S21[Re]                  S21[Im]                  S12[Re]                  S12[Im]                  S22[Re]                  S22[Im]                  
4.000000000000000e+09    5.545363170706125e-01    -8.368597794982265e-01   -1.711589768435289e-04   2.236368050705199e-04    -6.810556482841548e-05   4.643620565841750e-05    5.388782945706003e-01    -8.153223299861907e-01   
4.001000000000000e+09    5.531471944818308e-01    -8.380498681687213e-01   -1.093611507191437e-04   -1.062745982355159e-04   4.557298017437384e-05    -5.110182156173077e-05   5.366297022470982e-01    -8.164941522281015e-01   
4.002000000000000e+09    5.522734626877955e-01    -8.388162925041031e-01   -1.864021089807601e-05   1.446547507498655e-04    -6.642491211118209e-05   -1.663876421998728e-04   5.346907905125119e-01    -8.173953779029063e-01   
4.003000000000000e+09    5.508076966844900e-01    -8.398233620994524e-01   6.652722190846744e-05    1.669084732256109e-04    5.612265089346506e-05    4.660958186684987e-05    5.327566112725961e-01    -8.183755529196104e-01   
4.004000000000000e+09    5.495356708666687e-01    -8.403668242783132e-01   5.917837746434217e-05    -7.913796721815324e-05   6.436944268688795e-05    -5.904135912694934e-05   5.307941235313500e-01    -8.196210275367739e-01   
4.005000000000000e+09    5.480342484127526e-01    -8.410986784899608e-01   1.145127097724341e-05    5.129083263178735e-05    9.932808638168888e-05    1.837247264557985e-04    5.286422012918708e-01    -8.204131434543721e-01   
4.006000000000000e+09    5.469469339152372e-01    -8.417153609637866e-01   6.226996307981437e-05    -1.422747120075264e-04   4.551932184898569e-05    2.656799012721244e-04    5.265374585698898e-01    -8.218601380198571e-01   
4.007000000000000e+09    5.462722726813966e-01    -8.426688093275626e-01   1.201690941055081e-04    -1.436467624746659e-04   -5.651858770036947e-05   -1.755726578438671e-04   5.247556165753040e-01    -8.228987484688675e-01   
4.008000000000000e+09    5.446990283080863e-01    -8.438007756677883e-01   -1.908906247888440e-05   -2.545340690499861e-05   7.090687822370666e-06    6.512297323427356e-06    5.224776857668127e-01    -8.240519146750261e-01   
4.009000000000000e+09    5.439122408037512e-01    -8.444055338048824e-01   -2.282690258864662e-06   -9.960706975850656e-05   -1.794490937676541e-04   1.780070484208995e-05    5.204491968394546e-01    -8.252632032694206e-01   
4.010000000000000e+09    5.422894460090317e-01    -8.454103630295793e-01   1.703169279708807e-04    1.249381719209163e-04    1.358023592048275e-05    -1.573279152491151e-04   5.185107496488134e-01    -8.266839367880555e-01   
4.011000000000000e+09    5.407991514070724e-01    -8.457190693839129e-01   -3.526265132727669e-05   -1.440363067055403e-04   -3.223505012181325e-06   -6.967306449459598e-05   5.166081424817759e-01    -8.282300531557273e-01   
4.012000000000000e+09    5.395572062967143e-01    -8.466945994067705e-01   -4.749836438721430e-06   1.417237265453465e-04    -1.263592600073447e-04   8.191963276100951e-05    5.147564315520740e-01    -8.294422967656918e-01   
4.013000000000000e+09    5.383961312857924e-01    -8.474746614073762e-01   4.835778012662291e-05    7.900379285614366e-05    -9.332183346609875e-05   3.615990713601468e-05    5.133180963134854e-01    -8.311086428625720e-01   
4.014000000000000e+09    5.367701859755966e-01    -8.480635230528666e-01   4.304827521992970e-05    3.224974060938493e-05    9.675717223284116e-05    -3.444267597959429e-05   5.109904592951969e-01    -8.322868859210900e-01   
4.015000000000000e+09    5.357183620640676e-01    -8.490255060876902e-01   -2.267807171796195e-05   -4.219679002934853e-05   4.194000143593264e-06    -3.090242800787687e-05   5.095689395568840e-01    -8.334559594470156e-01   
4.016000000000000e+09    5.344114393690256e-01    -8.495996525536839e-01   -1.977841203070911e-06   -2.628167026646862e-04   6.359022686470398e-05    1.230490268989609e-04    5.078594192870578e-01    -8.350745344149160e-01   
4.017000000000000e+09    5.337528727357669e-01    -8.499729480235364e-01   -1.076036769788318e-04   -7.088124350465045e-05   -5.471151766071524e-05   9.849906428396382e-05    5.062876751247227e-01    -8.362769558729934e-01   
4.018000000000000e+09    5.317130346831247e-01    -8.509462892360110e-01   -2.174899232982337e-04   -1.775940548449627e-05   -7.832983305893503e-05   -9.207293583183438e-05   5.045169606222423e-01    -8.378281338085586e-01   
4.019000000000000e+09    5.307088756566878e-01    -8.512685124015550e-01   9.689466220709395e-05    5.154531733874821e-05    6.972199566893126e-05    9.718559920546594e-06    5.029938492825724e-01    -8.390961061763124e-01   
4.020000000000000e+09    5.295927786732969e-01    -8.517382687816148e-01   8.178482232409098e-05    1.209127776326369e-04    8.415772573708274e-05    -6.389055440460731e-05   5.014036967657335e-01    -8.404844506576413e-01   
4.021000000000000e+09    5.281974327554961e-01    -8.524178703801842e-01   -1.862993214103376e-05   2.269511091717760e-05    1.171397287539899e-04    6.767470904182920e-05    5.002223147561313e-01    -8.415016615755522e-01   
4.022000000000000e+09    5.268443064022380e-01    -8.528384773143489e-01   -2.120311829372215e-04   -1.817195080067010e-04   -1.201633731705724e-05   3.679106932661553e-05    4.990354302379157e-01    -8.428476412015617e-01   
4.023000000000000e+09    5.257441874923124e-01    -8.535080740813336e-01   6.853961820313177e-05    -8.004184821606642e-05   -1.380138391207629e-04   -4.100372499970650e-05   4.981461193958338e-01    -8.439482688010957e-01   
4.024000000000000e+09    5.241318993152770e-01    -8.537552305594243e-01   -5.582093178360702e-05   5.076900798304503e-05    9.210185924493281e-05    -5.347400323389272e-05   4.963704774410559e-01    -8.453792677171984e-01   
4.025000000000000e+09    5.229151595714272e-01    -8.541080358528250e-01   8.156020008751314e-05    2.802284630640330e-06    5.397211303501526e-05    -1.374539794081714e-04   4.951552909117696e-01    -8.467720881207830e-01   
4.026000000000000e+09    5.215561902604193e-01    -8.548123691786653e-01   -7.056065858718923e-05   -2.612459235636938e-05   -2.329520072496849e-05   -8.024689916307671e-05   4.940135969513518e-01    -8.479904648752131e-01   
4.027000000000000e+09    5.202736975003294e-01    -8.549905982788362e-01   -1.346849937284511e-04   6.569123074050805e-05    -9.753653229656682e-05   4.266165142579779e-05    4.933541576691530e-01    -8.486425129001507e-01   
4.028000000000000e+09    5.190735575039884e-01    -8.556888777905882e-01   -6.112609254567926e-05   3.668279907165779e-05    -3.930136931015119e-06   3.115060512582435e-05    4.917870619920922e-01    -8.500467221849746e-01   
4.029000000000000e+09    5.178181626660830e-01    -8.561349720676967e-01   -2.159246716961395e-04   4.680913704022868e-05    -2.908297012523146e-06   -1.347251738171591e-04   4.912943607191933e-01    -8.511220215285072e-01   
4.030000000000000e+09    5.165715104351684e-01    -8.562324355546391e-01   4.113039952395756e-05    3.063636613158858e-05    -1.121404606464785e-04   -8.498467392115971e-05   4.899735825827868e-01    -8.523712090467955e-01   
4.031000000000000e+09    5.152633021255135e-01    -8.568357660317922e-01   -2.020804382162527e-05   2.231791366247796e-04    -8.024520015817194e-06   1.776742286333241e-04    4.890882871253764e-01    -8.531448370136447e-01   
4.032000000000000e+09    5.136981384786774e-01    -8.572322759355913e-01   7.645062050913116e-06    -3.588260966769538e-05   -7.619716015305495e-05   5.754690024873844e-05    4.884499598853766e-01    -8.543183077086572e-01   
4.033000000000000e+09    5.123809466961549e-01    -8.576210455753395e-01   5.293142745100155e-05    -1.069814146406752e-04   -1.393659343256210e-04   -2.913069362463742e-05   4.874538227848049e-01    -8.549753772913995e-01   
4.034000000000000e+09    5.112881069937196e-01    -8.579977454707094e-01   7.065740563410147e-05    -1.041274670826723e-04   -5.783675314332718e-05   1.035697345148649e-04    4.866144040227946e-01    -8.564167547452921e-01   
4.035000000000000e+09    5.096419684446664e-01    -8.586813499996145e-01   1.386394317465796e-04    1.026249821012535e-04    3.686916234566699e-05    -1.227277809615854e-04   4.857184390063664e-01    -8.569858575481426e-01   
4.036000000000000e+09    5.082428246568221e-01    -8.590642701896302e-01   -2.215091143172330e-04   1.058916662412798e-04    4.116490499301557e-05    -2.046246306305482e-05   4.849457056889503e-01    -8.578155654099953e-01   
4.037000000000000e+09    5.068620223091473e-01    -8.593739297673029e-01   -1.039601503527887e-04   -3.768663931528235e-05   1.445088169974341e-04    -7.024824041799218e-05   4.844824189118777e-01    -8.587962497790766e-01   
4.038000000000000e+09    5.055246158840314e-01    -8.600937107124264e-01   -6.706229724752255e-05   6.394859269184480e-05    -1.053176102519687e-04   1.532164973167786e-04    4.836309041269313e-01    -8.598417611145767e-01   
4.039000000000000e+09    5.042480972497537e-01    -8.605393667816920e-01   1.731222465330647e-04    -1.743304778904033e-04   -9.745655664788260e-05   -3.558727476955109e-05   4.826406746897412e-01    -8.606945671549351e-01   
4.040000000000000e+09    5.029622344263256e-01    -8.611112753532780e-01   8.219001906913432e-05    -5.674818620797601e-05   1.111823808956833e-04    -6.549919171250471e-05   4.820707711506612e-01    -8.612062764909283e-01   
4.041000000000000e+09    5.014031718369324e-01    -8.616614958793970e-01   -1.491600656566231e-04   -9.339926481861687e-05   2.271328468942752e-05    2.516330257743839e-05    4.815684856061634e-01    -8.623686725565929e-01   
4.042000000000000e+09    5.002860772076502e-01    -8.619273868257833e-01   1.908268765874015e-04    4.697697363268800e-05    5.957667960918779e-05    -3.264236865594981e-05   4.808005532283346e-01    -8.633970376760599e-01   
4.043000000000000e+09    4.989973547210266e-01    -8.627459274252460e-01   9.357720073641130e-05    6.116231821565609e-05    -4.882192924602230e-05   6.751936115124874e-06    4.804204444666399e-01    -8.640766897502468e-01   
4.044000000000000e+09    4.976077713873399e-01    -8.632975724416907e-01   -5.834517543260379e-05   2.628116264744059e-04    9.219429632542456e-06    -1.637760654432133e-05   4.797382555367719e-01    -8.651387078063857e-01   
4.045000000000000e+09    4.964613449342972e-01    -8.639205820896747e-01   1.212152765577186e-05    -1.559312182990733e-05   1.914829846032242e-04    2.605710836259568e-05    4.795437738011126e-01    -8.656113472443459e-01   
4.046000000000000e+09    4.951570569668678e-01    -8.646866442924281e-01   -2.429116336060824e-05   1.502426956571650e-04    3.638924650228416e-05    -1.230993151288859e-04   4.789921881231151e-01    -8.664763387091637e-01   
4.047000000000000e+09    4.939705029212688e-01    -8.655582229760163e-01   4.673225990539282e-05    -1.613896034475847e-04   -1.567941224052522e-05   -1.239522442660493e-04   4.786895277466265e-01    -8.669912308729819e-01   
4.048000000000000e+09    4.926468173304920e-01    -8.659432681276016e-01   -7.485844147134260e-05   2.356927242361328e-05    1.033871322027218e-04    -1.178187855894628e-04   4.783196777824680e-01    -8.677157159334246e-01   
4.049000000000000e+09    4.914720326546746e-01    -8.666701423275635e-01   9.508144542866625e-05    5.229385729509571e-05    -1.069356792305011e-04   -5.504625136820559e-05   4.779671642652994e-01    -8.687409525871428e-01   
4.050000000000000e+09    4.903139787202084e-01    -8.677023528654535e-01   -1.779968505044487e-04   -2.320256133441340e-05   7.168593287595108e-05    1.651748529149284e-04    4.778977933131214e-01    -8.692724622795912e-01   
4.051000000000000e+09    4.895674259571389e-01    -8.684227871579315e-01   3.313862846584208e-05    8.407333403067356e-05    6.533183399182280e-05    1.108337596889252e-04    4.773656352442694e-01    -8.697645649706428e-01   
4.052000000000000e+09    4.885730070049616e-01    -8.694360705034712e-01   1.985254159729579e-04    2.498883059638678e-05    6.751572433934724e-05    2.119487601078039e-05    4.772057586429612e-01    -8.703344682800846e-01   
4.053000000000000e+09    4.872478668899867e-01    -8.699038464059800e-01   -5.492781491314696e-05   3.022622906380635e-05    8.337596770365321e-05    -7.746746728065919e-05   4.769792362287701e-01    -8.707592687352080e-01   
4.054000000000000e+09    4.864495436002929e-01    -8.708375904947736e-01   -4.685192030018343e-05   9.425761879742533e-05    6.237191849371934e-05    -1.780307954858491e-05   4.768447573559679e-01    -8.712886738113726e-01   
4.055000000000000e+09    4.855589416339660e-01    -8.714451197721400e-01   -6.907616032716932e-05   -3.891334775677054e-05   1.083508011346305e-04    6.188953416040344e-05    4.767194571979287e-01    -8.719293133948082e-01   
4.056000000000000e+09    4.844034531964678e-01    -8.726015184366041e-01   -4.822018072513108e-05   -1.081129698322204e-04   1.701418380587118e-04    -4.179353162415712e-05   4.764699126552070e-01    -8.720386896418882e-01   
4.057000000000000e+09    4.838597427352753e-01    -8.731525793779139e-01   1.046997737777041e-04    -8.419716754430986e-07   -5.487147182635224e-05   -1.559673130951746e-04   4.764186943015857e-01    -8.725042014285516e-01   
4.058000000000000e+09    4.827440807658421e-01    -8.740016701371185e-01   9.276073512687138e-05    6.916725336053490e-05    2.900166419977566e-06    -2.846240440083587e-05   4.763692816601172e-01    -8.727126496300436e-01   
4.059000000000000e+09    4.820121512772454e-01    -8.749292814176454e-01   4.214493274638651e-05    -8.219071213213662e-05   4.188040297837083e-05    -1.061496412715107e-04   4.761086611928525e-01    -8.729269931522524e-01   
4.060000000000000e+09    4.815752438264519e-01    -8.755762432360910e-01   -5.151724162399976e-05   -8.185869553428558e-05   -5.468978483532364e-05   -8.107507068795536e-05   4.762961413393704e-01    -8.729409134705158e-01   
4.061000000000000e+09    4.806607745984602e-01    -8.762310429331553e-01   -6.244466258249153e-05   5.439416797758754e-05    8.269665901195614e-05    -1.916435271683750e-04   4.758917975966692e-01    -8.732008015901662e-01   
4.062000000000000e+09    4.798404339919847e-01    -8.771193080387212e-01   -1.159691163759258e-05   -6.699050504362534e-05   -1.305994915993814e-04   6.018977336993126e-05    4.759145960889571e-01    -8.729975823772057e-01   
4.063000000000000e+09    4.791846718693031e-01    -8.783294439882934e-01   -4.648304304694363e-05   -2.146637724047421e-04   -1.264129575144360e-05   1.619886567289595e-05    4.754892100598658e-01    -8.729628300272005e-01   
4.064000000000000e+09    4.786485949261337e-01    -8.789397401792495e-01   4.578332225671478e-06    -6.476025240856544e-05   4.008172609659628e-05    -8.822236427391649e-05   4.753706111836881e-01    -8.731155873409409e-01   
4.065000000000000e+09    4.778026070824961e-01    -8.795643001553908e-01   -3.852684414274706e-06   2.070882792310402e-06    -9.600341848749550e-07   -9.771931737367606e-05   4.753595433379709e-01    -8.726353626559599e-01   
4.066000000000000e+09    4.772266608134034e-01    -8.804785309834187e-01   3.043133931315001e-05    1.001817706561099e-04    -3.270326365188694e-05   -1.098763913505967e-04   4.749249924400205e-01    -8.725329575830237e-01   
4.067000000000000e+09    4.766426719416730e-01    -8.809603818046629e-01   8.820573639313546e-05    1.721703364003336e-04    1.341131668264929e-04    4.861654081753147e-05    4.745846247900276e-01    -8.724400842797492e-01   
4.068000000000000e+09    4.762184405080875e-01    -8.818158978865510e-01   7.469863585195149e-05    -4.054757391629298e-05   9.146256058181709e-05    -2.279826745582221e-05   4.739984641659870e-01    -8.718487239650838e-01   
4.069000000000000e+09    4.753526375177880e-01    -8.827683447575059e-01   5.553511231877244e-05    7.951847014518845e-06    -1.747852237161560e-04   1.553506874929051e-04    4.733002456318497e-01    -8.717134773925932e-01   
4.070000000000000e+09    4.748560453462611e-01    -8.834948992687732e-01   6.299771382075398e-05    -8.026104676390774e-05   4.679950906831864e-05    -1.637169807262948e-04   4.728162491072683e-01    -8.712934497273169e-01   
4.071000000000000e+09    4.745432532325361e-01    -8.843680551050043e-01   -1.745843011836692e-04   -1.655956461168954e-04   -2.734013033351489e-05   -1.951557010668585e-04   4.719374284716540e-01    -8.713987736340653e-01   
4.072000000000000e+09    4.735932820211060e-01    -8.849232982612417e-01   -6.760153611641312e-05   1.131147355752138e-05    -1.184466930511331e-08   -4.232418527360022e-05   4.714162905590819e-01    -8.708620414780555e-01   
4.073000000000000e+09    4.729755949470384e-01    -8.854161761677369e-01   -1.363433727830634e-05   -4.169614637391825e-05   -2.812890198561391e-05   9.985276956437989e-05    4.704177715499948e-01    -8.703060322270169e-01   
4.074000000000000e+09    4.723668789241334e-01    -8.863268825126421e-01   -7.141503645262803e-05   -1.171927267641957e-04   -6.225712609037800e-06   -4.722856863991149e-05   4.692220931239146e-01    -8.701446556046760e-01   
4.075000000000000e+09    4.719422774132751e-01    -8.872046395073582e-01   -3.590286704189350e-05   -2.852960905530281e-05   1.217131944047968e-05    9.008903201065355e-05    4.684720321373210e-01    -8.697512977639914e-01   
4.076000000000000e+09    4.710109473977895e-01    -8.876117414308363e-01   2.720259707455621e-05    -1.673076123194796e-04   -5.957058050145528e-05   -4.773375093041586e-06   4.672900742516815e-01    -8.696229122300935e-01   
4.077000000000000e+09    4.707209796278830e-01    -8.886100126714879e-01   -6.546248781049158e-05   -2.294298364850419e-04   -4.896370718150486e-05   -1.516998658541073e-04   4.661835587690221e-01    -8.691613336015349e-01   
4.078000000000000e+09    4.699007014206211e-01    -8.892492452671866e-01   -2.530519082386750e-05   4.644285881211840e-05    -2.020846016213081e-04   1.886230547100880e-05    4.652840290531360e-01    -8.689527879139284e-01   
4.079000000000000e+09    4.697869081974748e-01    -8.897757526884960e-01   -1.655861793188523e-04   -6.362787101373044e-05   -1.194286313065606e-05   9.617620499931990e-06    4.638970997023883e-01    -8.688912745740386e-01   
4.080000000000000e+09    4.686662581844209e-01    -8.905141842930540e-01   -1.985613412645910e-04   5.140856427784586e-06    1.556180735322765e-04    1.048063310694136e-05    4.623097466801300e-01    -8.687220455662686e-01   
4.081000000000000e+09    4.684159866770687e-01    -8.913640999148146e-01   -8.156334269587543e-05   -3.536596909043684e-06   1.412205848376335e-04    2.051238524775748e-04    4.608352646576512e-01    -8.689688570749434e-01   
4.082000000000000e+09    4.679676587440370e-01    -8.916664555758139e-01   5.933520643811458e-05    1.080445434290975e-04    2.858528665623567e-06    5.729432866746353e-05    4.592087074561313e-01    -8.687743967505659e-01   
4.083000000000000e+09    4.670910324179293e-01    -8.923258569664289e-01   -1.861642126488203e-04   9.369255162949645e-05    2.372847748491302e-04    -7.487691217265279e-05   4.575927640143968e-01    -8.688688486381879e-01   
4.084000000000000e+09    4.665069965446237e-01    -8.932126387595833e-01   1.991025684035006e-04    7.153388382990868e-05    4.642714520454815e-05    5.526700978677501e-05    4.558400539315378e-01    -8.689917107440245e-01   
