[Version] 2.0
! Rohde & Schwarz Vector Network Analyzer
! Rohde-Schwarz,ZNL20-2Port,1323001220200009,1.71.1.10-23.02.1.238
! 
! Port Assignments:
! Nominal Port -> Actual Test Port
! --------------------------------
!   1 -> 1
!   2 -> 2

! Created: GMT+2 2025-01-17 12:08:51

# Hz S RI R 50

[Number of Ports] 2
[Two-Port Data Order] 21_12
[Number of Frequencies] 16001

[Network Data] 
! freq[Hz]               S11[Re]                  S11[Im]                  S21[Re]                  S21[Im]                  S12[Re]                  S12[Im]                  S22[Re]                  S22[Im]                  
4.000000000000000e+09    5.544788353951182e-01    -8.372292447031074e-01   -5.655733937974261e-05   1.350152865329868e-04    1.483829906247838e-04    4.144604930662860e-06    5.390208556873627e-01    -8.152242531848245e-01   
4.001000000000000e+09    5.533333383497286e-01    -8.379196270049487e-01   3.094239422024804e-05    2.553300936390041e-05    -1.255438693257011e-04   5.619838826189605e-05    5.366275159594636e-01    -8.159899089140935e-01   
4.002000000000000e+09    5.521475036308479e-01    -8.386395859714573e-01   -2.957811616788511e-05   5.203996405332859e-05    -8.095397135264813e-05   -4.139155137671138e-05   5.345707492049437e-01    -8.172990241337432e-01   
4.003000000000000e+09    5.507479293209709e-01    -8.393739121752785e-01   -1.456512872728028e-04   -9.672037275305151e-05   -1.783490578617615e-04   -4.399619808535747e-06   5.325292698588004e-01    -8.183392946539600e-01   
4.004000000000000e+09    5.498264164982939e-01    -8.403457469274126e-01   1.163807570446769e-04    -1.393397477805691e-04   -2.150488389574818e-04   -4.130960595510056e-05   5.307784422155125e-01    -8.195485403718441e-01   
4.005000000000000e+09    5.486349046309380e-01    -8.411224722009168e-01   1.498419202423837e-04    2.048896510560330e-04    -1.206760895528033e-04   6.070387085200503e-05    5.286302785906563e-01    -8.203635634585996e-01   
4.006000000000000e+09    5.474865467001685e-01    -8.418466717586940e-01   1.101893166731970e-05    1.967331440963415e-05    3.031019096100815e-05    8.372958550508629e-05    5.264177922607809e-01    -8.215474104704664e-01   
4.007000000000000e+09    5.458216651232628e-01    -8.425884982090797e-01   -4.323304889768719e-05   3.895637217669642e-07    -5.133881893961077e-05   9.661558526498143e-05    5.246291907917461e-01    -8.229481328056778e-01   
4.008000000000000e+09    5.448105213305072e-01    -8.442009942643945e-01   5.084757266992023e-05    -3.716006221758199e-05   9.152188852142380e-05    -9.342118449208196e-05   5.227258464294046e-01    -8.244439190265607e-01   
4.009000000000000e+09    5.437500811849266e-01    -8.444623586929165e-01   2.588429384476266e-05    1.848001822234152e-05    1.356666278004364e-04    -1.160134742390023e-04   5.205554547488399e-01    -8.254314896012684e-01   
4.010000000000000e+09    5.421343231462673e-01    -8.450942109833249e-01   -4.885449743020684e-05   -2.814239093286412e-06   2.595474828533418e-05    3.531597735574381e-06    5.186933600777655e-01    -8.265608885995589e-01   
4.011000000000000e+09    5.410898712238296e-01    -8.460475970863488e-01   -3.664366099860653e-05   -2.494000501175861e-04   4.390087972910382e-05    -3.062840130455005e-05   5.168318741576076e-01    -8.282711864229483e-01   
4.012000000000000e+09    5.396786839907363e-01    -8.468095278728702e-01   5.238088199078073e-05    1.000396302417771e-04    8.522931204694501e-05    1.731082535482095e-04    5.146473076656108e-01    -8.296824231708315e-01   
4.013000000000000e+09    5.382274612148121e-01    -8.475711058960244e-01   -6.268775054500908e-05   -6.350323623816300e-05   -3.175642251795607e-05   2.037808232064513e-05    5.131825641374985e-01    -8.309099649215174e-01   
4.014000000000000e+09    5.370774493670011e-01    -8.480565081556947e-01   -1.259426120458604e-04   1.868789993997344e-04    -2.817227156239220e-05   -1.298712271169760e-04   5.112732485326067e-01    -8.322102737940907e-01   
4.015000000000000e+09    5.355633631217256e-01    -8.487864809260021e-01   -1.122019962110969e-04   -1.951401354331747e-04   -1.089977690044863e-04   7.291272423389448e-05    5.094470940190365e-01    -8.335653919949871e-01   
4.016000000000000e+09    5.344975694311052e-01    -8.496674386445430e-01   5.006636388701853e-05    -1.092175107328404e-04   1.323443335525189e-05    1.024567800289224e-05    5.079493704882052e-01    -8.351388509000733e-01   
4.017000000000000e+09    5.332255691281892e-01    -8.500173503788774e-01   5.849480111407089e-05    3.008485140927175e-06    1.211691084654234e-04    1.366624613408799e-04    5.061133992446937e-01    -8.363612598325446e-01   
4.018000000000000e+09    5.318503060684195e-01    -8.505800403065679e-01   -9.865407441878554e-05   6.108626925457284e-05    -6.626102981965557e-05   -3.726068857285246e-05   5.048000033413506e-01    -8.375733094777196e-01   
4.019000000000000e+09    5.306667539981385e-01    -8.506385929989729e-01   9.526885285547818e-05    -1.983796838597562e-05   5.435545214961898e-05    -1.886584418707887e-04   5.035777019123988e-01    -8.392232244120471e-01   
4.020000000000000e+09    5.293506993394347e-01    -8.517538503402589e-01   -1.420244707066582e-04   7.610301329904352e-05    5.386963087041448e-05    -7.784059062041587e-05   5.016095358444425e-01    -8.404301091791793e-01   
4.021000000000000e+09    5.281910146586555e-01    -8.522107630079990e-01   -5.345370647621458e-05   -5.180283722722122e-05   -1.160603460011305e-04   -1.306502406072514e-04   5.005676069285910e-01    -8.414769860009036e-01   
4.022000000000000e+09    5.267725885594952e-01    -8.530079817831183e-01   2.235108761439632e-04    -8.956559384286170e-05   -3.770361844416662e-05   1.220447582214543e-04    4.991529859190634e-01    -8.429010616812784e-01   
4.023000000000000e+09    5.256550901692488e-01    -8.534849939180218e-01   -9.372965533244862e-05   -3.095307545403392e-04   1.868131299679139e-04    2.083933636249732e-04    4.977430284198071e-01    -8.441843555866589e-01   
4.024000000000000e+09    5.244106093568209e-01    -8.535711131626107e-01   2.284803103740504e-05    1.774934976661631e-04    2.404549688710823e-05    8.495090240881970e-05    4.965090873254544e-01    -8.455172505362053e-01   
4.025000000000000e+09    5.230528712052241e-01    -8.542408742035668e-01   -6.308014419310042e-05   8.664168756016655e-07    -2.376794440943245e-04   -1.593251812359727e-04   4.954809690523850e-01    -8.465687997940945e-01   
4.026000000000000e+09    5.216480286322666e-01    -8.545614011213963e-01   1.001067934382791e-04    -1.656369998233671e-04   6.466434429063690e-05    -3.336212288895394e-05   4.944230071853638e-01    -8.479979325617094e-01   
4.027000000000000e+09    5.205173997380903e-01    -8.551108400764256e-01   -1.597334526228807e-04   8.059531337828203e-05    6.565056976532373e-05    -9.745127636308698e-05   4.934395789315575e-01    -8.488710601207984e-01   
4.028000000000000e+09    5.192474482203966e-01    -8.555854300045698e-01   4.259079308261734e-05    8.307962196901010e-05    -1.983902457911468e-04   -2.698319312268157e-05   4.918934157942177e-01    -8.501177639726056e-01   
4.029000000000000e+09    5.177650922748631e-01    -8.561933123780605e-01   4.548565879217090e-05    -6.523970234031975e-05   1.136438765477189e-04    1.386160622917823e-05    4.911612987995896e-01    -8.512084710160583e-01   
4.030000000000000e+09    5.166583974309449e-01    -8.564489313405408e-01   -2.517310950163234e-04   -6.434121443956388e-05   -5.988813197066939e-05   5.254505977429983e-05    4.903839205463690e-01    -8.522322075246227e-01   
4.031000000000000e+09    5.153313331337982e-01    -8.565965014348187e-01   -1.186851097296436e-04   2.300764550318161e-04    -6.819409392150547e-05   5.249043267888548e-05    4.893410858629874e-01    -8.531959800751752e-01   
4.032000000000000e+09    5.139190595961222e-01    -8.570579399611390e-01   5.154499649858714e-05    -7.423645285837091e-05   -8.438214943989905e-05   4.107499814190836e-05    4.881748328870743e-01    -8.543224133822972e-01   
4.033000000000000e+09    5.124356265038272e-01    -8.574207491590181e-01   -9.773604523477074e-05   -1.503540284225283e-04   -4.196416578464641e-05   -8.356526216969375e-05   4.878087993673879e-01    -8.551102228542651e-01   
4.034000000000000e+09    5.109634621433549e-01    -8.580496729057084e-01   -1.009487234987452e-04   3.865704475191933e-05    1.984906698916436e-05    -3.633829675527221e-05   4.866296950112545e-01    -8.560958487822021e-01   
4.035000000000000e+09    5.094981085795407e-01    -8.585718926365099e-01   1.406711181239192e-04    -5.463873502213558e-05   1.187252020219867e-04    -2.395970765791846e-04   4.859922447232380e-01    -8.571591698431932e-01   
4.036000000000000e+09    5.083508617855879e-01    -8.590538528737500e-01   7.146869673934660e-05    1.913025553030976e-04    -8.715695425901133e-05   1.561649591500518e-04    4.851386087491956e-01    -8.578532870713789e-01   
4.037000000000000e+09    5.069300771255147e-01    -8.595573815545697e-01   -2.571565324222465e-05   -6.259337137332591e-05   3.614351189340297e-05    9.213086811025772e-05    4.843518367030220e-01    -8.589905357980772e-01   
4.038000000000000e+09    5.055220849203921e-01    -8.596851752638009e-01   -2.184441107756131e-04   4.356133471573690e-05    2.573526067272557e-05    4.235304916468015e-05    4.838111302404099e-01    -8.597849690498904e-01   
4.039000000000000e+09    5.045127871493112e-01    -8.605160681472427e-01   4.554151383008391e-05    -2.819244614498756e-04   -1.060094536620273e-04   1.285600452483969e-04    4.832150249460713e-01    -8.607503077342953e-01   
4.040000000000000e+09    5.028050255748546e-01    -8.608805322991471e-01   -1.201615187025837e-04   3.137374611378612e-05    -1.236523423764336e-04   -5.311485373668154e-05   4.824224122026629e-01    -8.615257782883421e-01   
4.041000000000000e+09    5.014937833232955e-01    -8.612298774782499e-01   2.988503907830154e-05    -5.682508612550527e-05   1.763993708603284e-04    -1.542258411658546e-04   4.818217845543539e-01    -8.625358910257767e-01   
4.042000000000000e+09    5.001682010358862e-01    -8.621462657158082e-01   -7.484683048100685e-06   1.110188500056881e-04    2.561107983173704e-05    -6.004000776418098e-06   4.814697127362195e-01    -8.632903812140594e-01   
4.043000000000000e+09    4.989699493441158e-01    -8.625598547215775e-01   1.502715941551048e-05    -7.378007331904042e-05   5.759814248152305e-05    -4.696539174966049e-05   4.805627375798808e-01    -8.641464816973511e-01   
4.044000000000000e+09    4.974620398243498e-01    -8.633206420884600e-01   -1.378085813485459e-04   1.405867636827354e-04    1.022107790779001e-04    4.622962698657482e-05    4.799330920905457e-01    -8.649118475490246e-01   
4.045000000000000e+09    4.964006648476755e-01    -8.640537957647301e-01   2.053607647175019e-05    -4.149068936251852e-05   1.055238504102274e-04    1.046448781053851e-04    4.796301893499564e-01    -8.655407959298490e-01   
4.046000000000000e+09    4.950471037179704e-01    -8.647663169826161e-01   -5.878015418403359e-05   1.829209208097258e-04    1.143369779748296e-05    8.418602537486025e-05    4.792432294171255e-01    -8.663993613748842e-01   
4.047000000000000e+09    4.938160608210366e-01    -8.653637979792620e-01   1.691345363611156e-04    6.774844232311340e-05    -8.371427527550835e-05   -1.005410498821719e-04   4.786225998383356e-01    -8.671600646898830e-01   
4.048000000000000e+09    4.929382198366457e-01    -8.661477645218960e-01   1.113820251924305e-05    5.864215112165639e-05    2.781763754791882e-05    -4.837325579619425e-05   4.784688829546709e-01    -8.679943993772417e-01   
4.049000000000000e+09    4.915665436150683e-01    -8.669181151392116e-01   -2.348745880085440e-05   1.966830234071581e-04    5.758643463751600e-05    1.468497588001363e-04    4.780038658865480e-01    -8.685997727651031e-01   
4.050000000000000e+09    4.905732526588749e-01    -8.676780742568418e-01   1.058890801077539e-04    -2.484426200885180e-05   1.228735743123902e-04    -5.592252080849176e-05   4.779198428986567e-01    -8.694100298366596e-01   
4.051000000000000e+09    4.895833532429035e-01    -8.684642345787876e-01   -7.347340934444238e-05   -4.264647995208831e-05   -8.924818713784690e-05   -2.494201295632483e-05   4.775943229107801e-01    -8.696475918646051e-01   
4.052000000000000e+09    4.885183252458918e-01    -8.695137039321931e-01   -8.579669498396536e-05   -1.921026185405942e-05   -1.232413557328178e-04   1.209274214972336e-04    4.770973041623388e-01    -8.703309182125706e-01   
4.053000000000000e+09    4.872904520982013e-01    -8.701864596431637e-01   9.385626766030683e-05    7.026662429628293e-06    1.903562726747191e-04    1.244982829826626e-04    4.769455714147620e-01    -8.709399900927142e-01   
4.054000000000000e+09    4.864599165212665e-01    -8.709646928580459e-01   6.042048905453209e-05    -1.867411952525150e-04   1.595058709847726e-04    1.229845004454005e-04    4.770873065702167e-01    -8.716058048632435e-01   
4.055000000000000e+09    4.857525738396578e-01    -8.715202184252865e-01   -1.336810531335187e-05   1.349624838636219e-04    1.635811000285577e-04    7.186291870978344e-05    4.767662785224357e-01    -8.718214731397111e-01   
4.056000000000000e+09    4.845587370092942e-01    -8.725205767967172e-01   -2.552448027997667e-05   4.891131015080354e-05    4.204718464665493e-05    -9.553790384687425e-05   4.765289404122308e-01    -8.719211997793800e-01   
4.057000000000000e+09    4.838382726762211e-01    -8.733911800778070e-01   -7.136530052292507e-05   3.689381845938824e-05    -3.847692029911132e-06   1.687850466301121e-04    4.764083999884760e-01    -8.726533352888548e-01   
4.058000000000000e+09    4.829684990876542e-01    -8.740446764373795e-01   -9.923496345441182e-05   1.855355477653624e-06    -2.412867451508235e-05   9.043951829773697e-05    4.764450488098511e-01    -8.727348134870795e-01   
4.059000000000000e+09    4.821343233816750e-01    -8.749216455702338e-01   -2.629159531602833e-05   -5.687179193010636e-05   -8.738530236001079e-05   8.191616136268987e-05    4.761181308732566e-01    -8.731025154616843e-01   
4.060000000000000e+09    4.814223784589178e-01    -8.754957187045869e-01   -8.953801883400584e-05   -3.824169267388356e-05   -2.435049531202226e-05   6.606059889623156e-05    4.760955998291351e-01    -8.729174351804904e-01   
4.061000000000000e+09    4.808573937985415e-01    -8.766068671344329e-01   -4.511282470390940e-05   9.164112438481165e-05    -1.658480966312536e-04   -9.181567026333878e-05   4.761899288683985e-01    -8.730629797384407e-01   
4.062000000000000e+09    4.798811660924240e-01    -8.773367300011761e-01   -1.020113256731261e-04   -6.050475605605919e-06   2.023644694279918e-05    -7.979633503717519e-05   4.759090083902485e-01    -8.731637560692099e-01   
4.063000000000000e+09    4.791182100585697e-01    -8.781431100569741e-01   3.677834714333977e-05    9.837619028741874e-05    -5.346244823210828e-05   1.384707397225722e-04    4.755760465401116e-01    -8.732077460847142e-01   
4.064000000000000e+09    4.784659550996198e-01    -8.787401252201104e-01   -1.644309540748737e-04   -3.330020948631737e-06   -1.116038487686752e-04   -3.039192730932305e-05   4.754941101880954e-01    -8.726977653118619e-01   
4.065000000000000e+09    4.779007772543283e-01    -8.793435455068085e-01   1.841585881310774e-04    2.420746154056511e-04    -1.508790961276339e-04   4.900637787861570e-05    4.752301297994812e-01    -8.722963658566634e-01   
4.066000000000000e+09    4.772848059783633e-01    -8.805435070096577e-01   4.445533101430879e-05    1.333174208531973e-04    3.733292746682564e-06    -2.162821793778836e-05   4.749508207330806e-01    -8.724782407406126e-01   
4.067000000000000e+09    4.765966104175114e-01    -8.811644910352842e-01   -1.274452334828419e-07   1.072401661450032e-04    5.141139720548543e-05    -8.868445171742805e-05   4.743268954612322e-01    -8.722250748322438e-01   
4.068000000000000e+09    4.762804264154670e-01    -8.820412151344379e-01   1.123102355819142e-04    4.269364401245067e-05    -1.558842626306383e-04   8.914524757254807e-06    4.742293943560902e-01    -8.716535324460511e-01   
4.069000000000000e+09    4.756496201000037e-01    -8.828221256751826e-01   2.994720364588924e-06    6.531867258387267e-05    8.851429528192742e-06    -2.355782117010463e-05   4.734304430136819e-01    -8.715806962442921e-01   
4.070000000000000e+09    4.748382665637068e-01    -8.834496313582301e-01   1.693063504774304e-05    -6.212418694862333e-05   -4.023288450204545e-05   -1.849933657460359e-05   4.726178055394072e-01    -8.713185645608618e-01   
4.071000000000000e+09    4.743742436566510e-01    -8.842901033214896e-01   1.060041148553397e-04    5.637857431768858e-05    -8.182138813958359e-05   -1.308021126634532e-04   4.721165641101481e-01    -8.713040909692945e-01   
4.072000000000000e+09    4.735617468801607e-01    -8.848241664381061e-01   -1.665518279240704e-04   3.696435498997129e-05    6.630346405757880e-05    1.071590948755704e-04    4.712381338578064e-01    -8.705065061715128e-01   
4.073000000000000e+09    4.729213745376646e-01    -8.853562751088144e-01   1.870957315161444e-05    1.188340536401180e-04    6.405578223566152e-05    -1.177037593338953e-04   4.705293483758809e-01    -8.703462331138443e-01   
4.074000000000000e+09    4.726062925178690e-01    -8.864473529667953e-01   -2.981465783955766e-05   9.901244938115664e-05    -1.052846400318256e-04   -1.208591266437988e-04   4.695960046305721e-01    -8.700472396282219e-01   
4.075000000000000e+09    4.720141084591686e-01    -8.869595079427033e-01   -1.398262748817923e-04   4.514979595215168e-05    6.885381938352075e-05    1.358262704967892e-04    4.686142302556309e-01    -8.694852450909534e-01   
4.076000000000000e+09    4.715028467350617e-01    -8.877095237067082e-01   -8.720256631945282e-05   -5.365709358601077e-05   -1.011068690963017e-05   1.176182207040816e-04    4.676188359489507e-01    -8.695992008509698e-01   
4.077000000000000e+09    4.707212192354598e-01    -8.884900126223022e-01   -3.334305868750663e-05   -1.959723727013632e-05   1.043581147169384e-04    8.927988401674769e-05    4.662212292333591e-01    -8.691339925828503e-01   
4.078000000000000e+09    4.702243527988675e-01    -8.892177879076195e-01   -1.307724111355887e-05   -1.179138252898720e-05   1.452947524567506e-05    -1.207573126042159e-06   4.651574902157247e-01    -8.689184525013670e-01   
4.079000000000000e+09    4.694492283848731e-01    -8.899060469858623e-01   6.830525293565758e-05    -1.026962227871332e-04   6.857562352047798e-05    -2.155078221558380e-05   4.637875747971298e-01    -8.689837782169666e-01   
4.080000000000000e+09    4.691590792029919e-01    -8.904731907316601e-01   -1.389702724791753e-05   1.771184077002674e-04    2.795716698841499e-05    4.759547775169761e-05    4.621997672984328e-01    -8.689500471749991e-01   
4.081000000000000e+09    4.687003786917094e-01    -8.912016457909528e-01   4.245976930839470e-05    1.539488114422069e-04    -7.408943582460493e-06   6.822051326847538e-05    4.609196896163125e-01    -8.685567320722988e-01   
4.082000000000000e+09    4.682153906097140e-01    -8.915732980036551e-01   -2.885690632947220e-05   1.529929259738026e-04    6.360819759164070e-05    -7.722711228842946e-05   4.592662702781877e-01    -8.685499817730729e-01   
4.083000000000000e+09    4.670817098840920e-01    -8.924109506070600e-01   -1.911768338444295e-05   1.054467851884097e-04    7.215291790747371e-05    -9.406280527825705e-05   4.575991372855274e-01    -8.687334548774241e-01   
4.084000000000000e+09    4.664047645034113e-01    -8.930997622390138e-01   -1.349112728347136e-04   1.106833927190357e-04    8.929294182263556e-05    4.120724968818134e-05    4.560504745563566e-01    -8.689484458836135e-01   
