[Version] 2.0
! Rohde & Schwarz Vector Network Analyzer
! Rohde-Schwarz,ZNL20-2Port,1323001220200009,1.71.1.10-23.02.1.238
! 
! Port Assignments:
! Nominal Port -> Actual Test Port
! --------------------------------
!   1 -> 1
!   2 -> 2

! Created: GMT+2 2025-01-17 12:09:09

# Hz S RI R 50

[Number of Ports] 2
[Two-Port Data Order] 21_12
[Number of Frequencies] 16001

[Network Data] 
! freq[Hz]               S11[Re]                  S11[Im]                  S21[Re]                  S21[Im]                  S12[Re]                  S12[Im]                  S22[Re]                  S22[Im]                  
4.000000000000000e+09    5.544290541052217e-01    -8.372242929054674e-01   1.714994233233388e-05    1.728322017846757e-04    3.487419453427875e-05    -1.241183226547694e-04   5.390050515290384e-01    -8.153009573542135e-01   
4.001000000000000e+09    5.535209309192639e-01    -8.374871727401392e-01   -5.051480132294242e-05   9.645838181449799e-05    1.326214058726535e-05    -6.375541182211432e-05   5.367759194324568e-01    -8.160636029263560e-01   
4.002000000000000e+09    5.520780390095924e-01    -8.384750969696675e-01   -9.043151594886178e-05   4.610953324556585e-05    2.642527345407041e-04    -3.586193784298579e-05   5.348262330730187e-01    -8.172196392170414e-01   
4.003000000000000e+09    5.508626924280079e-01    -8.395113367524606e-01   5.614323095490462e-05    -4.630197229716568e-05   -6.584632727144255e-05   9.386566770230548e-06    5.326871797020435e-01    -8.182709043567323e-01   
4.004000000000000e+09    5.496770980867839e-01    -8.404229610566731e-01   7.386302692308589e-06    1.266445112790317e-05    -3.749338356083791e-05   8.079701529787712e-05    5.305747253621815e-01    -8.192795499763394e-01   
4.005000000000000e+09    5.485397049340885e-01    -8.411944603861351e-01   2.187005475537140e-04    2.699063411859953e-05    1.374010669345532e-05    -1.081336259228502e-04   5.281978472305691e-01    -8.202660180448538e-01   
4.006000000000000e+09    5.474409496337572e-01    -8.422653245143285e-01   -2.902858050345854e-05   4.655522573066244e-05    -1.384438698958094e-04   8.201157697495025e-05    5.263308383877060e-01    -8.217940772649692e-01   
4.007000000000000e+09    5.459822701174469e-01    -8.429289368409172e-01   -1.416082364908402e-04   -1.444966317221349e-05   -6.694901430311430e-05   1.561821693092886e-04    5.243990748944309e-01    -8.230030217114261e-01   
4.008000000000000e+09    5.447963221505491e-01    -8.437956007408050e-01   -1.263677778121904e-04   1.046925115917784e-04    2.821906104061579e-05    -1.532751740849179e-04   5.226853435093399e-01    -8.242674572621099e-01   
4.009000000000000e+09    5.434081977730487e-01    -8.443185198236650e-01   2.142751405058824e-04    -6.916572369338513e-05   -1.358002612369943e-04   -8.834512380022133e-05   5.205617405111971e-01    -8.253994710431785e-01   
4.010000000000000e+09    5.422384446399584e-01    -8.456989634320885e-01   1.604411172050446e-04    -6.705710925829796e-05   -3.673230886166593e-05   -7.879060823762270e-05   5.181686469737671e-01    -8.269246268729303e-01   
4.011000000000000e+09    5.409249676128416e-01    -8.462339097341758e-01   9.205063283378821e-07    8.839665156655525e-06    3.673613124928721e-05    -2.154586613027459e-05   5.163552780275773e-01    -8.281403501899023e-01   
4.012000000000000e+09    5.393726728324921e-01    -8.469019757602642e-01   1.635830096381567e-04    5.174855310198822e-05    -4.533314408939667e-05   -5.079629209291797e-05   5.149067441699803e-01    -8.293431723764637e-01   
4.013000000000000e+09    5.380430750743374e-01    -8.474167440013398e-01   1.068520373557830e-04    2.902462017826805e-05    -8.945813701888935e-05   -1.297832518651376e-04   5.131822013803374e-01    -8.310129226410977e-01   
4.014000000000000e+09    5.370791029989641e-01    -8.481505454059211e-01   -1.045440580655474e-04   -1.143546667723174e-04   8.981395017060371e-05    -1.299663535752772e-05   5.110892623693000e-01    -8.321757348226202e-01   
4.015000000000000e+09    5.353802358437858e-01    -8.486978817966837e-01   1.174892319609553e-04    1.756713511164661e-04    5.848149239123085e-05    2.217606886499574e-04    5.095255731927572e-01    -8.338530288843327e-01   
4.016000000000000e+09    5.344777459334316e-01    -8.493094633433658e-01   1.190803245366838e-04    3.972441930114774e-06    -3.718170042326001e-05   3.497752433010000e-05    5.079404178912823e-01    -8.350308266539117e-01   
4.017000000000000e+09    5.332149785721141e-01    -8.502280155657455e-01   5.551251394799350e-05    -5.959287045376278e-05   3.363650205780710e-05    -1.117544445247059e-04   5.062167250019692e-01    -8.363973317946363e-01   
4.018000000000000e+09    5.319068975717025e-01    -8.511343296403200e-01   -2.129086749199119e-04   -1.397478168281609e-04   1.215875145382922e-05    6.403198394818603e-05    5.049888570240466e-01    -8.379355628535803e-01   
4.019000000000000e+09    5.307809494198706e-01    -8.510837357086670e-01   2.781745527925321e-05    8.148955388322587e-05    6.810186334717029e-05    -1.214391291769373e-04   5.033485427196719e-01    -8.394739789770655e-01   
4.020000000000000e+09    5.294499154348972e-01    -8.519661102696034e-01   4.483197942879549e-05    -2.759026988854527e-05   1.858378932208912e-05    4.650681058249494e-05    5.015398428136244e-01    -8.405175829361277e-01   
4.021000000000000e+09    5.283643182043812e-01    -8.522113093158705e-01   5.149514674862953e-05    -3.467042850089137e-05   2.020585632799970e-04    1.519691074693754e-04    5.002282319510043e-01    -8.415103849724717e-01   
4.022000000000000e+09    5.267269916340697e-01    -8.531848881365106e-01   -2.223770560932474e-05   -5.766479478965845e-05   5.452440824633462e-06    1.817876275109714e-07    4.991313445616716e-01    -8.431103703041249e-01   
4.023000000000000e+09    5.255840415575321e-01    -8.532221818037844e-01   -1.482541602386024e-04   -5.543656828690969e-05   -4.057265417819004e-05   -1.042940666121956e-04   4.978458911782832e-01    -8.443037851307140e-01   
4.024000000000000e+09    5.243480541692600e-01    -8.538438228407662e-01   -7.050055959540374e-05   3.288206793282476e-05    -3.340923056807322e-05   -4.687924963775769e-06   4.965955507683212e-01    -8.454408108287608e-01   
4.025000000000000e+09    5.229295372023018e-01    -8.542226673079270e-01   -2.799639237959914e-05   -3.785736491121462e-05   -1.419973837948131e-04   1.705490329287042e-04    4.957349626519333e-01    -8.467785034951526e-01   
4.026000000000000e+09    5.218789141859760e-01    -8.548062512134492e-01   1.193379276396050e-04    4.959935756038724e-05    -8.371501420999338e-05   6.409668684416609e-05    4.941426794309811e-01    -8.479047067771204e-01   
4.027000000000000e+09    5.202872671605464e-01    -8.551117242715061e-01   3.871312395481967e-05    1.215893928789642e-05    4.226459414833127e-06    5.149945818006572e-05    4.933396049084237e-01    -8.487854858864815e-01   
4.028000000000000e+09    5.191276869675783e-01    -8.555515043001235e-01   2.018402085730783e-04    1.065740073719388e-05    5.868397683855488e-05    -6.066188636441673e-06   4.922623291705580e-01    -8.500579222435880e-01   
4.029000000000000e+09    5.181454259435311e-01    -8.561503392850500e-01   -2.227272400774628e-05   1.887277725974078e-05    -3.755413461736523e-06   6.856307648380532e-05    4.912903590841280e-01    -8.509654556162854e-01   
4.030000000000000e+09    5.165912698209162e-01    -8.564788791420974e-01   1.929528184062089e-05    -1.160820118390705e-04   -2.957592683697015e-05   2.063473021944422e-05    4.901388826332093e-01    -8.523049514774513e-01   
4.031000000000000e+09    5.153383377375216e-01    -8.567101127443474e-01   6.918465354881033e-05    8.301093992325394e-05    -8.102791952870453e-05   -1.005915266079131e-04   4.894637826527138e-01    -8.532262584335266e-01   
4.032000000000000e+09    5.137030858091773e-01    -8.571726446337873e-01   6.125020590771312e-05    2.344874927302155e-05    5.002955116398075e-05    2.007505745213824e-04    4.883664293517472e-01    -8.541498606489926e-01   
4.033000000000000e+09    5.122092578310837e-01    -8.575222814400459e-01   -4.472536754813852e-05   -2.232083569080258e-05   8.034565578574861e-05    2.808788491610166e-04    4.875098752597248e-01    -8.552464326863098e-01   
4.034000000000000e+09    5.111038018061329e-01    -8.582196797915824e-01   -5.612064648397959e-05   1.910283785490561e-04    -4.462841247248963e-05   1.846802012770034e-04    4.866541057300207e-01    -8.564901840936260e-01   
4.035000000000000e+09    5.095149880887433e-01    -8.587779896432363e-01   2.157150124185434e-05    1.476634556556320e-04    5.314220370510852e-05    -1.084523935830892e-04   4.858425172447189e-01    -8.570622027327519e-01   
4.036000000000000e+09    5.084815390867521e-01    -8.589605760071144e-01   -1.254211542749275e-04   1.504699227654498e-04    -7.776202510194241e-05   -1.422850546795052e-04   4.850655876672609e-01    -8.579505484899883e-01   
4.037000000000000e+09    5.069603838874827e-01    -8.592706796340231e-01   4.756864650829174e-05    -1.263135382169057e-06   -1.159423030771276e-04   -1.572784212023901e-04   4.844255602025070e-01    -8.587054945140188e-01   
4.038000000000000e+09    5.055551805631738e-01    -8.597781627331109e-01   -2.524570097586217e-06   8.161387217125611e-05    3.157383442801122e-05    -1.026047087330208e-04   4.836291173039137e-01    -8.600285460755069e-01   
4.039000000000000e+09    5.042213953529611e-01    -8.604249596574235e-01   -1.663463109625547e-05   9.519286275842187e-05    6.647312491830009e-06    -1.431874480159565e-05   4.831481925489318e-01    -8.608774739469857e-01   
4.040000000000000e+09    5.028782233149935e-01    -8.611387347649435e-01   1.507561164490527e-05    7.280771711501527e-05    1.570700881096757e-04    2.430748371198814e-05    4.822179054983021e-01    -8.614827298105263e-01   
4.041000000000000e+09    5.012787082485493e-01    -8.614760925824871e-01   -5.209515834759579e-05   -4.796882574916049e-05   2.656698164692066e-05    5.768876577186924e-05    4.816860319084550e-01    -8.625187210914012e-01   
4.042000000000000e+09    5.000654589293706e-01    -8.621505986008230e-01   9.293601332931991e-05    1.800634883712210e-04    3.892937981241609e-06    -1.691501513248321e-06   4.812390933903811e-01    -8.631888000831677e-01   
4.043000000000000e+09    4.989408435447214e-01    -8.627526897757339e-01   3.781293249612966e-05    1.559382448449369e-04    -1.061179406787083e-04   -1.018200218131262e-04   4.806989919749294e-01    -8.642762393852840e-01   
4.044000000000000e+09    4.977081525533943e-01    -8.635383106799922e-01   -3.086084261311540e-05   -7.873179824258910e-05   7.200682663390652e-05    1.307865944086877e-04    4.799429252869597e-01    -8.649359610923105e-01   
4.045000000000000e+09    4.963663294590520e-01    -8.640028024741677e-01   5.738385976548771e-05    -9.982593505960710e-05   -1.592536219265208e-04   7.765391077553166e-05    4.798468624779229e-01    -8.657406981286120e-01   
4.046000000000000e+09    4.952607607855998e-01    -8.648163444068312e-01   -7.147897549927157e-05   1.404096027041489e-05    2.905774580769779e-05    4.044185025259712e-06    4.791692164765605e-01    -8.664525276264171e-01   
4.047000000000000e+09    4.939048217661722e-01    -8.655684812482427e-01   -2.551410915391556e-05   -5.840829099246260e-05   -1.444298789997279e-04   3.416979628249896e-05    4.787574069478769e-01    -8.669086033958028e-01   
4.048000000000000e+09    4.927724247074080e-01    -8.660891884627234e-01   -2.496698905422513e-05   1.205728813011495e-05    -1.548969814824603e-04   -7.462220755888789e-05   4.784766049912200e-01    -8.677494754646308e-01   
4.049000000000000e+09    4.916478281138672e-01    -8.668933543782096e-01   9.734610297700138e-06    -3.380511512693952e-05   -6.071149985757447e-05   -1.579589033184813e-05   4.780395266077562e-01    -8.686165756840120e-01   
4.050000000000000e+09    4.905543499273151e-01    -8.676996722415842e-01   4.916057920625904e-05    -3.138018287137370e-05   1.787256070168498e-04    4.271906485121812e-05    4.779196207608987e-01    -8.690535515007335e-01   
4.051000000000000e+09    4.897939402076245e-01    -8.683207929175377e-01   -9.938981820142415e-05   3.217836530258737e-05    -3.463826955235413e-06   1.249853505308613e-04    4.774219658344788e-01    -8.698131345362847e-01   
4.052000000000000e+09    4.884004563049201e-01    -8.695891842484994e-01   5.279217149321819e-05    7.691250909297402e-05    1.282832604160823e-04    9.580047516838997e-05    4.771438463501690e-01    -8.702937856695636e-01   
4.053000000000000e+09    4.874302510603867e-01    -8.700734513049783e-01   2.929397979588214e-05    5.951351078489384e-05    5.874108660819133e-05    9.424044901046817e-06    4.773504903040072e-01    -8.708591986522123e-01   
4.054000000000000e+09    4.867151162919016e-01    -8.708744140201758e-01   -8.799933786071444e-06   1.326198856777756e-05    4.537180114760879e-05    2.667903408080029e-04    4.769396649966277e-01    -8.714064652729018e-01   
4.055000000000000e+09    4.857350794843988e-01    -8.715593677193210e-01   -1.781638544115763e-04   -4.047327180231593e-05   -1.783146097763254e-05   -5.859155792277704e-05   4.769925509476077e-01    -8.718274235950048e-01   
4.056000000000000e+09    4.846611737353492e-01    -8.723868520562467e-01   -3.867724795097307e-05   -2.066290902351514e-04   -8.200914780676951e-07   1.201457435189043e-04    4.765036826357464e-01    -8.721158657650085e-01   
4.057000000000000e+09    4.838154071928076e-01    -8.730871618111277e-01   3.765751695530970e-05    -3.851029542319156e-05   -1.049482550068799e-04   1.317354431046127e-04    4.765657088372934e-01    -8.725342005298565e-01   
4.058000000000000e+09    4.828470369241892e-01    -8.738174760661321e-01   -1.092886961767706e-04   -1.963409519563085e-05   5.000025803927941e-05    8.286931295911820e-05    4.765292352287029e-01    -8.723903697577822e-01   
4.059000000000000e+09    4.822415329593021e-01    -8.749132249096199e-01   8.581039834415305e-06    -1.823902907852340e-04   -4.604559589868059e-06   -1.752895136101905e-05   4.762775288499329e-01    -8.727915126714868e-01   
4.060000000000000e+09    4.814474603362257e-01    -8.758243206275161e-01   -9.621619432750037e-05   1.323766785622331e-04    -3.933661368855912e-05   2.037263354909924e-06    4.763337117291897e-01    -8.728806036541037e-01   
4.061000000000000e+09    4.806702110371783e-01    -8.763399067618137e-01   4.167608794681546e-05    9.518444362742684e-05    1.154262951017769e-04    -1.226616098009744e-04   4.762423699808158e-01    -8.732223012286585e-01   
4.062000000000000e+09    4.800184193201224e-01    -8.772938258136032e-01   2.962172488038266e-05    -1.444269438993759e-04   -1.043681790084762e-04   -1.190640126888023e-04   4.762510514203468e-01    -8.730196659447423e-01   
4.063000000000000e+09    4.792109086173865e-01    -8.781160798337448e-01   -5.178173390439152e-05   1.055948682943370e-05    -6.896410727426210e-06   -9.165275651919757e-06   4.757195983753678e-01    -8.729236217886608e-01   
4.064000000000000e+09    4.784783899683109e-01    -8.786284352713986e-01   -1.086698080722158e-04   1.344652062192394e-04    7.777394541868979e-05    -9.368523588448510e-05   4.755864897585021e-01    -8.727349054804403e-01   
4.065000000000000e+09    4.780414173410962e-01    -8.793434602958268e-01   1.446178505494970e-04    -1.195241099897469e-04   -8.724235249755135e-06   -7.389643227290012e-05   4.754456431270271e-01    -8.727624323905167e-01   
4.066000000000000e+09    4.773776131675255e-01    -8.802479647630146e-01   2.214338676341703e-06    5.717779202760410e-05    1.062656157259039e-04    3.300565614207954e-05    4.749665085940140e-01    -8.727199729359535e-01   
4.067000000000000e+09    4.765655421147237e-01    -8.814304733308783e-01   -9.561687155007563e-05   -4.233897921160374e-05   4.410144537891541e-05    -5.572671056153515e-06   4.744145534648155e-01    -8.724262361398127e-01   
4.068000000000000e+09    4.760799177587456e-01    -8.817591372273201e-01   -3.575695671442039e-05   -2.903230131651922e-06   -6.428115403096811e-05   6.402260006616800e-05    4.741129322029527e-01    -8.718632802030909e-01   
4.069000000000000e+09    4.754416056885249e-01    -8.828623022152901e-01   1.034133183541766e-05    -2.812364718596243e-05   -7.564900039138408e-05   7.459799946143018e-05    4.735574009181908e-01    -8.716096659015996e-01   
4.070000000000000e+09    4.748212496424294e-01    -8.832689359689450e-01   7.701017231007665e-06    -2.185311321250359e-05   4.461628285889202e-05    -2.044079013455896e-06   4.726266894215511e-01    -8.711616019102640e-01   
4.071000000000000e+09    4.744032964938167e-01    -8.841966178251626e-01   -5.164033078104482e-05   -2.678390857765770e-05   -1.878525666423952e-04   5.909083303162606e-05    4.721274191248356e-01    -8.711020171331213e-01   
4.072000000000000e+09    4.733639349666166e-01    -8.847210571000776e-01   -1.160570737516713e-04   -4.102747347927187e-05   1.138620573607966e-04    1.652348351785031e-04    4.716637412746469e-01    -8.706514035915643e-01   
4.073000000000000e+09    4.733462145908923e-01    -8.855450898642221e-01   2.898032408832673e-05    1.842545757242306e-05    -1.518357503204484e-05   -1.403676428764501e-04   4.706841237564601e-01    -8.704113208350724e-01   
4.074000000000000e+09    4.725683662562898e-01    -8.861313146014441e-01   -7.227178685171918e-05   -1.008815307894024e-04   1.388064695769905e-04    1.467665333821482e-05    4.695672634308602e-01    -8.701854470297608e-01   
4.075000000000000e+09    4.718353086161963e-01    -8.869641642888172e-01   -8.917434189269458e-06   -3.832366283668028e-05   1.394815373897633e-04    2.125763054903369e-05    4.684992353340294e-01    -8.696380956052789e-01   
4.076000000000000e+09    4.714051540583489e-01    -8.873727169659738e-01   7.798819516532787e-05    1.181866976479841e-05    -5.172442236347279e-05   -1.893794187746545e-04   4.676815919869873e-01    -8.693468768783829e-01   
4.077000000000000e+09    4.707691429112247e-01    -8.881452268980988e-01   -9.141843942613628e-05   -6.377150048782604e-05   7.916147805584841e-06    -5.490495071934672e-05   4.663796903274958e-01    -8.689980856537096e-01   
4.078000000000000e+09    4.704513109148201e-01    -8.892594978522502e-01   1.902580896752022e-04    1.367995543550851e-04    1.009953644858873e-04    3.931839688909427e-05    4.651799819045692e-01    -8.688848229864599e-01   
4.079000000000000e+09    4.696969324924756e-01    -8.898913581566772e-01   1.499967682489342e-04    6.924222830273514e-05    3.344524512279456e-05    4.473709122976745e-05    4.636612103848802e-01    -8.689497329087283e-01   
4.080000000000000e+09    4.689695179780247e-01    -8.906144242551400e-01   1.263648390820021e-05    -1.600838354495360e-05   1.129514907084476e-04    1.216232020920438e-06    4.625561382059916e-01    -8.688707170544663e-01   
4.081000000000000e+09    4.687458595107665e-01    -8.909414333708172e-01   -1.803517470901176e-04   -5.052726477807369e-05   3.118316026456460e-05    -1.405652553254967e-05   4.609763667198729e-01    -8.687366099204942e-01   
4.082000000000000e+09    4.682270245021556e-01    -8.912314538534539e-01   8.333206025830969e-05    8.201737814221602e-05    2.654553514593898e-05    5.810694558080363e-05    4.593330746881418e-01    -8.684237854963911e-01   
4.083000000000000e+09    4.670767646403799e-01    -8.924469919643259e-01   7.495250693170493e-06    9.601680780796773e-05    -2.760882043035124e-05   -3.669666519634614e-05   4.577792369041241e-01    -8.688682047904567e-01   
4.084000000000000e+09    4.667834990513749e-01    -8.932942229138879e-01   1.166258481625385e-04    1.129872462005072e-04    7.193449483884507e-06    -1.324735367845680e-05   4.558395082252797e-01    -8.689114111315820e-01   
