[Version] 2.0
! Rohde & Schwarz Vector Network Analyzer
! Rohde-Schwarz,ZNL20-2Port,1323001220200009,1.71.1.10-23.02.1.238
! 
! Port Assignments:
! Nominal Port -> Actual Test Port
! --------------------------------
!   1 -> 1
!   2 -> 2

! Created: GMT+2 2025-01-17 12:09:31

# Hz S RI R 50

[Number of Ports] 2
[Two-Port Data Order] 21_12
[Number of Frequencies] 16001

[Network Data] 
! freq[Hz]               S11[Re]                  S11[Im]                  S21[Re]                  S21[Im]                  S12[Re]                  S12[Im]                  S22[Re]                  S22[Im]                  
4.000000000000000e+09    5.547221444832868e-01    -8.369251054524121e-01   -1.189561892991156e-04   7.929520223419543e-05    -1.823515071667021e-05   -4.175369911880031e-05   5.388930702167163e-01    -8.152102666896750e-01   
4.001000000000000e+09    5.534956898820683e-01    -8.377966427456518e-01   -1.604902031391785e-04   8.810640268329683e-06    -1.460571073156668e-05   4.862261925838005e-05    5.367252433357316e-01    -8.160570516107154e-01   
4.002000000000000e+09    5.522562473545980e-01    -8.388454905053880e-01   -4.089992359497560e-05   -1.164347305325938e-04   -2.202289373272221e-04   -1.099081781125424e-04   5.348051863837863e-01    -8.172063946331904e-01   
4.003000000000000e+09    5.510888528144559e-01    -8.393572436873199e-01   -1.295621104914185e-05   2.278983969642430e-05    1.328717207126384e-04    -5.435948233891855e-05   5.327302106321175e-01    -8.181758429049979e-01   
4.004000000000000e+09    5.497270666508397e-01    -8.405090406745259e-01   2.972273794555932e-05    6.972651187267676e-05    8.456632411716551e-05    -5.078722005072742e-05   5.307753827483369e-01    -8.197554870426638e-01   
4.005000000000000e+09    5.485764606926926e-01    -8.409478789776471e-01   7.260405708092865e-05    -2.119183184621484e-04   1.178077803063218e-04    1.324061063358187e-04    5.285910349867959e-01    -8.206184187309435e-01   
4.006000000000000e+09    5.472764079359975e-01    -8.422915189375609e-01   -5.914440746797805e-05   7.064539181129984e-06    -1.476657053591486e-04   6.134707686367801e-06    5.264332289910217e-01    -8.215539143854077e-01   
4.007000000000000e+09    5.460330720730449e-01    -8.428920264346517e-01   -3.032971723934756e-06   9.686948611127604e-05    1.217663464295264e-05    2.885546667396514e-05    5.246609240175496e-01    -8.229320152515153e-01   
4.008000000000000e+09    5.447832052762166e-01    -8.437202003061429e-01   1.258038563240271e-04    1.219511845654478e-05    -8.733782493107775e-05   -3.659410236809162e-06   5.223336088451709e-01    -8.243036387678154e-01   
4.009000000000000e+09    5.434000128406032e-01    -8.442517416003917e-01   1.779538754825115e-06    9.337257578665418e-05    -5.051236609093029e-05   8.901279441862535e-06    5.206033717348409e-01    -8.253360852405768e-01   
4.010000000000000e+09    5.424250146840782e-01    -8.454698665805067e-01   -1.251547797241870e-04   1.546987195122458e-04    1.480931744250873e-04    -1.142182242614588e-04   5.187112864413119e-01    -8.268872057196386e-01   
4.011000000000000e+09    5.412325076430894e-01    -8.461097307543570e-01   9.214654311231503e-05    -4.895686579567809e-05   -7.918207233623487e-06   1.269182054548623e-05    5.167749888219083e-01    -8.279331378916760e-01   
4.012000000000000e+09    5.396304901181791e-01    -8.468268431962216e-01   8.991827816324283e-05    1.121066830080019e-04    -7.769967878961419e-06   -9.945422394325138e-05   5.148815644244248e-01    -8.296337174142193e-01   
4.013000000000000e+09    5.385013839179038e-01    -8.472598456159833e-01   -1.616671858324281e-04   1.079025456918157e-04    1.526821328199575e-04    6.275694657262832e-05    5.132204922100085e-01    -8.308785636511881e-01   
4.014000000000000e+09    5.368996329334307e-01    -8.480172538619483e-01   -4.328391551345096e-05   1.086731359663641e-05    -1.819796431366270e-05   8.557278747241696e-05    5.110692797657189e-01    -8.321479452241467e-01   
4.015000000000000e+09    5.355027184734278e-01    -8.490413926855788e-01   -8.074962209381889e-05   8.466843160372524e-05    -5.587331939336594e-05   3.925238186818660e-05    5.098228564760682e-01    -8.333605534222707e-01   
4.016000000000000e+09    5.342546080501075e-01    -8.492134329349602e-01   -2.081617329199650e-04   4.821315407163200e-06    -1.220127966603151e-04   -1.569746708714907e-04   5.080235515676462e-01    -8.350578703634284e-01   
4.017000000000000e+09    5.333048275419039e-01    -8.496830784576668e-01   -1.188411733993059e-04   1.646659550905584e-04    -1.791905326024554e-04   -6.922370103354492e-05   5.066497801559252e-01    -8.363799675822525e-01   
4.018000000000000e+09    5.318553279440653e-01    -8.506817715938965e-01   -7.053714201463882e-05   -1.002994968758631e-04   2.158335381241262e-04    1.708701631447609e-05    5.049420304232636e-01    -8.377010658068155e-01   
4.019000000000000e+09    5.306980495326882e-01    -8.510087411185914e-01   -9.353105332410286e-05   -9.559776687363496e-05   6.458658591762671e-05    6.316144313949363e-05    5.030832804312084e-01    -8.391737967655669e-01   
4.020000000000000e+09    5.295965010630107e-01    -8.518123158517092e-01   -1.998014455614301e-04   2.168518717859889e-04    -2.674412785887831e-05   -1.311069366181851e-04   5.016595541887664e-01    -8.405909876574865e-01   
4.021000000000000e+09    5.279573726529753e-01    -8.523968747165461e-01   1.067318791709558e-05    -2.227677811290617e-04   -1.470441048887283e-04   1.018267980884672e-04    5.004878480248236e-01    -8.414309868149666e-01   
4.022000000000000e+09    5.269767743058152e-01    -8.528679691408887e-01   1.597358632370648e-04    8.892793901257504e-05    -1.342130971845594e-04   4.677690338240604e-06    4.990427668235394e-01    -8.425197499779251e-01   
4.023000000000000e+09    5.256778994182987e-01    -8.532741715666566e-01   3.450694526784863e-05    8.312721657425666e-05    3.296982906238873e-04    -8.602650543617763e-05   4.978276126115557e-01    -8.441291960966109e-01   
4.024000000000000e+09    5.244544192998482e-01    -8.536546805035147e-01   -1.392565000910179e-04   -2.383801867498435e-04   -1.661226500770671e-04   5.937875047350693e-05    4.964494603362018e-01    -8.453827030690929e-01   
4.025000000000000e+09    5.232392380081214e-01    -8.542125088961707e-01   -5.311195696412922e-05   -2.042844721592435e-06   -9.926109125507202e-05   2.180783912802581e-05    4.953271939980964e-01    -8.465112167276618e-01   
4.026000000000000e+09    5.216531884280227e-01    -8.547641839082337e-01   -2.213686899802633e-05   2.017270706143785e-04    -2.376252136382381e-04   5.740030916034478e-06    4.942911284430765e-01    -8.475990770078548e-01   
4.027000000000000e+09    5.203918039764225e-01    -8.550122071290032e-01   8.772688267906183e-05    2.377151422913272e-05    8.048696757130517e-05    5.533034222833653e-05    4.931856360767893e-01    -8.485926101672037e-01   
4.028000000000000e+09    5.192065580264943e-01    -8.552696041239347e-01   -1.864081828374820e-04   -1.176203210083444e-04   -8.160781321205678e-05   5.782240227538439e-05    4.923011806489517e-01    -8.499591982502315e-01   
4.029000000000000e+09    5.177848042043028e-01    -8.562129172105359e-01   -7.161485728227883e-05   9.120625778950806e-06    2.328875643948487e-05    9.637949892957689e-05    4.913323712373000e-01    -8.508920798667948e-01   
4.030000000000000e+09    5.167137214274995e-01    -8.563432779432782e-01   1.046346985134118e-04    6.712673795748373e-05    4.660687150022106e-05    -5.336446659934919e-05   4.903126663520887e-01    -8.522933083853911e-01   
4.031000000000000e+09    5.155468459445435e-01    -8.568032926935989e-01   -2.412311087825616e-04   -1.158849380546418e-05   -1.613859439665385e-04   -7.739446221509961e-05   4.892678393751298e-01    -8.532445641870616e-01   
4.032000000000000e+09    5.137719884360351e-01    -8.572369623800116e-01   -3.954874025485527e-05   -1.417804561453881e-04   -1.661399410773111e-05   -4.085707234927577e-05   4.884182085494364e-01    -8.541867867075197e-01   
4.033000000000000e+09    5.125047308597098e-01    -8.574212603522402e-01   -6.559197355531514e-05   1.450645299705083e-04    1.317693599524982e-04    -6.680358466111769e-05   4.873275968220898e-01    -8.549774181965347e-01   
4.034000000000000e+09    5.111348638413930e-01    -8.581097301986857e-01   1.112271533058354e-04    1.180089046271148e-04    -1.579295858070290e-04   1.799882668356140e-05    4.864125231247332e-01    -8.564002500417277e-01   
4.035000000000000e+09    5.098344222228014e-01    -8.585947290957907e-01   1.818806230312877e-05    5.733649181731205e-07    -1.446379224773033e-04   5.130862342039800e-05    4.857286544962313e-01    -8.571611983508337e-01   
4.036000000000000e+09    5.086451358532061e-01    -8.587112297254333e-01   -1.529239167643506e-04   -1.717501862526852e-04   9.985542565278565e-05    -1.544359657590618e-04   4.852398000004948e-01    -8.580489144011423e-01   
4.037000000000000e+09    5.067982621412559e-01    -8.593671291307439e-01   6.233919878693863e-05    -8.245573657773829e-05   1.096756539387135e-04    -8.387434347938335e-05   4.842938740604665e-01    -8.589122890326767e-01   
4.038000000000000e+09    5.054598053614490e-01    -8.598998897315073e-01   -3.605157081795503e-05   2.851778608973804e-06    1.052907849309458e-05    2.475399356494010e-05    4.837557141679857e-01    -8.597498518856542e-01   
4.039000000000000e+09    5.041764679937698e-01    -8.603164318025869e-01   -9.048951730651496e-05   -1.997252775404673e-04   -9.680413601945779e-05   1.323366239019178e-04    4.830000214916727e-01    -8.606480621552033e-01   
4.040000000000000e+09    5.026866614073333e-01    -8.608304941521868e-01   1.240957210529284e-04    1.871018577083246e-05    6.594364841827184e-05    -7.030743155332170e-05   4.822771377956581e-01    -8.615469113149660e-01   
4.041000000000000e+09    5.017199695398806e-01    -8.615321408888605e-01   2.807879402391549e-04    -5.040328641708277e-05   -1.590341895959677e-04   3.432436575208954e-05    4.818462517455931e-01    -8.626148797691711e-01   
4.042000000000000e+09    5.002805929145829e-01    -8.619440209781809e-01   -8.902415241528925e-05   8.166081836284560e-05    -5.443826869940945e-05   7.060618948746709e-05    4.811800851146436e-01    -8.633466462870594e-01   
4.043000000000000e+09    4.987315538821704e-01    -8.626688023117817e-01   -3.491823031793053e-05   7.512428713796914e-05    -9.252441758236267e-05   -2.148297737530113e-05   4.805364485791931e-01    -8.640392407477145e-01   
4.044000000000000e+09    4.975023359464164e-01    -8.634302305762470e-01   -6.130210684549677e-05   -1.787419486529231e-04   4.190780224034961e-05    6.697076154430340e-05    4.801381552419653e-01    -8.648042598624762e-01   
4.045000000000000e+09    4.965441506786586e-01    -8.638378394341217e-01   2.867415361779457e-05    -6.767726249736775e-05   -3.358672319717534e-05   6.294266537877586e-05    4.795751675542250e-01    -8.655710918075223e-01   
4.046000000000000e+09    4.953893580809616e-01    -8.648451340553954e-01   -9.181806770906217e-05   1.817267850754450e-05    -6.177292659212228e-05   -1.341450079618643e-05   4.793779918203980e-01    -8.663477102625007e-01   
4.047000000000000e+09    4.939270929923100e-01    -8.655358707172744e-01   -1.036381119285379e-04   -2.318552234652435e-05   2.836898517715885e-04    2.179000634719820e-04    4.787833039048427e-01    -8.670554249963555e-01   
4.048000000000000e+09    4.926353158688866e-01    -8.661679529526317e-01   -7.298608099629703e-05   -1.974578774350259e-04   2.677304155350311e-04    -4.517258016532357e-05   4.786125247125491e-01    -8.677095597325361e-01   
4.049000000000000e+09    4.914403946878145e-01    -8.669911410466564e-01   1.358926500122798e-05    -1.631074610856268e-04   -1.526442517681869e-05   1.752216819524136e-05    4.780187087286255e-01    -8.685901562026498e-01   
4.050000000000000e+09    4.905928921725298e-01    -8.675347914323481e-01   -2.365496217125614e-05   5.791358944790650e-05    7.031764152264448e-05    -7.310848151630389e-05   4.781083288261394e-01    -8.692339500682178e-01   
4.051000000000000e+09    4.895854102259944e-01    -8.684872722934549e-01   9.859525971820712e-05    2.768289453286864e-04    -1.020017968577151e-04   -4.695250785930692e-05   4.775016401561740e-01    -8.696983807099067e-01   
4.052000000000000e+09    4.885539424694630e-01    -8.692792175933081e-01   6.460748355581685e-05    1.744974351636383e-04    -5.482412008877425e-05   2.019910194982088e-04    4.771741517280240e-01    -8.704049904979827e-01   
4.053000000000000e+09    4.874649784522148e-01    -8.699333748627962e-01   3.761003677835671e-06    3.002706368317111e-05    9.820132023669356e-05    1.193319800599335e-04    4.771143573078298e-01    -8.709417252992964e-01   
4.054000000000000e+09    4.864874266808593e-01    -8.708289082603413e-01   1.957219688269210e-05    1.734779649424046e-05    -9.028473258198530e-05   1.464578945275773e-04    4.771535473277476e-01    -8.712436190009196e-01   
4.055000000000000e+09    4.856968340344811e-01    -8.713426039361325e-01   -1.122616033150175e-04   6.099831928231349e-05    9.596692831566704e-05    6.046149913836457e-05    4.769483229773104e-01    -8.718746722156447e-01   
4.056000000000000e+09    4.845754314099789e-01    -8.721766284222775e-01   -4.427006883053835e-05   -9.013543627081955e-05   -1.369341974651336e-04   -6.811087038789103e-05   4.766698727658829e-01    -8.719134888150392e-01   
4.057000000000000e+09    4.839353690530261e-01    -8.732080870645381e-01   1.182579692467634e-04    1.387107587703258e-04    -1.850636662650027e-05   8.536308111031278e-06    4.764388569552382e-01    -8.724509414529085e-01   
4.058000000000000e+09    4.827968238990084e-01    -8.739009421465976e-01   -1.498342634593809e-04   6.224152617704040e-05    -7.237052844005742e-05   1.199493727053880e-04    4.764986437137898e-01    -8.727768866982909e-01   
4.059000000000000e+09    4.819278303970183e-01    -8.750332485326690e-01   2.775169486083595e-05    -1.056168577384472e-04   -1.233267489430814e-05   -3.984373797661075e-05   4.761429569892235e-01    -8.728008825185051e-01   
4.060000000000000e+09    4.811787687361095e-01    -8.756970268532244e-01   -5.647090419325000e-05   3.280761381341887e-05    2.606712267673082e-04    1.407973097161258e-04    4.760625966793376e-01    -8.727372418436780e-01   
4.061000000000000e+09    4.804371356000472e-01    -8.765168281927155e-01   -1.845548034298663e-04   2.979647656072082e-05    4.411784339972131e-05    1.794417962029180e-04    4.759713495656193e-01    -8.729605545559391e-01   
4.062000000000000e+09    4.800024913955293e-01    -8.772190771091175e-01   -2.905667551723958e-05   5.153890486077663e-05    -9.241986033987307e-05   -5.941839112108479e-05   4.761199002022647e-01    -8.729959081052695e-01   
4.063000000000000e+09    4.792069436409465e-01    -8.781903660645602e-01   3.312433079368783e-05    -2.850091601703293e-05   6.794580799415551e-05    -3.879312580211241e-05   4.758012891312079e-01    -8.729250883087800e-01   
4.064000000000000e+09    4.786291458175271e-01    -8.789236884569318e-01   -3.645834654952083e-05   7.214521915258343e-05    3.146212179905879e-05    -1.984462460801958e-05   4.755702530555005e-01    -8.727886612213570e-01   
4.065000000000000e+09    4.780290204334083e-01    -8.796106690856066e-01   2.917324747547456e-05    -4.111321719302326e-05   -2.002692463578618e-05   3.848691305434614e-05    4.752287337732612e-01    -8.727407766344488e-01   
4.066000000000000e+09    4.773602985438672e-01    -8.805042928540722e-01   -1.537777542458353e-05   -1.348164914035886e-04   -4.501510405529385e-05   -5.439243367377656e-05   4.748774602517693e-01    -8.723320544573809e-01   
4.067000000000000e+09    4.767408252596069e-01    -8.811220396048091e-01   -8.526323835719836e-05   -1.174251272466864e-04   3.507102423282066e-05    -1.355080066700055e-05   4.744778610841174e-01    -8.722386808020073e-01   
4.068000000000000e+09    4.761751888596614e-01    -8.819175376611788e-01   -1.207479704219391e-04   2.378585450332030e-04    1.025352289999897e-04    -1.768898742042316e-04   4.741157427263731e-01    -8.717782697094764e-01   
4.069000000000000e+09    4.754963280887035e-01    -8.828214146312776e-01   -1.513898311770795e-04   2.261492821059505e-05    -3.158082080968183e-06   9.180909797649602e-05    4.736648227027614e-01    -8.717584150159436e-01   
4.070000000000000e+09    4.747255770910965e-01    -8.833416427937271e-01   8.388576402935258e-05    -1.736977970831284e-05   2.848248158919401e-05    -4.018994008770244e-05   4.728166363593485e-01    -8.712725154309631e-01   
4.071000000000000e+09    4.743763324971785e-01    -8.843821030115652e-01   -3.454310449530033e-05   -2.917931410506994e-05   4.005392404751329e-05    1.411909978089257e-04    4.723812711319317e-01    -8.710501965197176e-01   
4.072000000000000e+09    4.739211338020006e-01    -8.847697262742685e-01   1.662442651634732e-04    -4.798373394588287e-05   -9.461404269488419e-06   -1.285821313230418e-04   4.715975324243337e-01    -8.707348025053913e-01   
4.073000000000000e+09    4.730784459377210e-01    -8.854670966222059e-01   3.755117535396017e-05    -4.764252990473788e-05   -3.073842350133113e-06   1.815038888419863e-06    4.707564921249849e-01    -8.702746460479365e-01   
4.074000000000000e+09    4.723575319401757e-01    -8.864372310660008e-01   9.278528081578596e-05    1.736388875322384e-06    2.250184935143348e-05    7.784477337428212e-06    4.697336317496699e-01    -8.701293179521065e-01   
4.075000000000000e+09    4.720124082151307e-01    -8.870441507195664e-01   -1.013112539303711e-04   7.088711390568911e-05    1.054654467389396e-04    6.420172412319674e-06    4.685178839135816e-01    -8.696460915491666e-01   
4.076000000000000e+09    4.711748671889708e-01    -8.877788911599507e-01   6.288373421422910e-05    3.313736775922040e-05    8.914735865476125e-05    -8.895850236568597e-05   4.676234262420719e-01    -8.695852146910954e-01   
4.077000000000000e+09    4.711187797706315e-01    -8.886149614311871e-01   -6.071099366571944e-05   8.460378263982590e-05    5.021405117805080e-05    -6.679601442066729e-05   4.663384895348934e-01    -8.690454881270298e-01   
4.078000000000000e+09    4.703071279176067e-01    -8.889577602769949e-01   1.402933083643224e-04    -4.637657064760980e-05   -7.488777531108492e-05   7.966916340566277e-05    4.653106941113184e-01    -8.689601216113232e-01   
4.079000000000000e+09    4.692550966448244e-01    -8.900697344234701e-01   -5.242940292695026e-05   2.281467495617833e-04    -1.666230938869203e-04   -4.340311395175181e-05   4.640274561878630e-01    -8.687995330236599e-01   
4.080000000000000e+09    4.689577033083926e-01    -8.903829831155837e-01   -3.866046980410810e-05   3.498024991194715e-05    1.665859402362344e-05    6.811611713878664e-05    4.624688108271425e-01    -8.686599495141629e-01   
4.081000000000000e+09    4.684871910934221e-01    -8.912600389636002e-01   2.439711956153718e-04    8.305740854721510e-05    -5.574367163826179e-06   2.097466514161387e-04    4.609189998134378e-01    -8.685984640507625e-01   
4.082000000000000e+09    4.678090640308010e-01    -8.916068963582919e-01   6.828469083888745e-05    -9.778416678561928e-05   1.509036257993141e-04    -9.866655635932454e-06   4.596446794692911e-01    -8.686903301784867e-01   
4.083000000000000e+09    4.672718375247589e-01    -8.923670729503677e-01   2.857552061629070e-05    -1.519347739518190e-04   -1.074549329618973e-05   -7.101607451052164e-05   4.577129853792301e-01    -8.685043462462505e-01   
4.084000000000000e+09    4.667377869926827e-01    -8.930445295868380e-01   -4.691846561615754e-05   5.715795567408691e-05    5.970302991812477e-05    2.862626202128946e-05    4.560369869197211e-01    -8.687581789774257e-01   
