[Version] 2.0
! Rohde & Schwarz Vector Network Analyzer
! Rohde-Schwarz,ZNL20-2Port,1323001220200009,1.71.1.10-23.02.1.238
! 
! Port Assignments:
! Nominal Port -> Actual Test Port
! --------------------------------
!   1 -> 1
!   2 -> 2

! Created: GMT+2 2025-01-17 12:02:05

# Hz S RI R 50

[Number of Ports] 2
[Two-Port Data Order] 21_12
[Number of Frequencies] 16001

[Network Data] 
! freq[Hz]               S11[Re]                  S11[Im]                  S21[Re]                  S21[Im]                  S12[Re]                  S12[Im]                  S22[Re]                  S22[Im]                  
4.000000000000000e+09    5.565892880088833e-01    -8.349822399780034e-01   1.307150656750327e-04    1.187097976856572e-04    1.476793518341141e-04    -5.129286543080540e-05   5.405519801105365e-01    -8.138661470910312e-01   
4.001000000000000e+09    5.553595047453916e-01    -8.362616123650037e-01   9.875771742155674e-06    -1.863552845526872e-04   -2.854622512040381e-05   -1.761086622796766e-05   5.385428273577244e-01    -8.147870837582105e-01   
4.002000000000000e+09    5.543501015809371e-01    -8.371196645334870e-01   -1.521426374763905e-04   7.541492698394808e-05    -3.920055340777579e-05   7.867426985051239e-05    5.363689985549145e-01    -8.160717842880875e-01   
4.003000000000000e+09    5.527933152991309e-01    -8.378276511640292e-01   6.115834618024309e-05    1.438650510020076e-04    7.729662320411032e-05    8.162901186461816e-05    5.343656403664471e-01    -8.171108731741137e-01   
4.004000000000000e+09    5.519292836446373e-01    -8.383299366216761e-01   1.970721259459309e-04    4.419535519026162e-05    -1.136031164451579e-05   1.132967530664393e-04    5.322039518609080e-01    -8.181810082692823e-01   
4.005000000000000e+09    5.505766343615770e-01    -8.398345813935020e-01   1.644061141765980e-04    2.109603030874847e-04    2.237276685333571e-04    5.351516111818263e-05    5.304973661751777e-01    -8.193964338221830e-01   
4.006000000000000e+09    5.493835711992089e-01    -8.401179494095684e-01   -3.112889183688192e-05   -7.152197607628013e-05   1.856460981996220e-05    4.165136272782890e-06    5.279489920794025e-01    -8.205926086660918e-01   
4.007000000000000e+09    5.478834223581809e-01    -8.410687236669410e-01   -9.936777773732345e-05   8.350320512623351e-05    -2.801531770555501e-05   2.506004668856761e-05    5.263296140052335e-01    -8.217687601409406e-01   
4.008000000000000e+09    5.469739868619521e-01    -8.422160410113877e-01   1.211375596305068e-04    -5.140299106900835e-05   2.966855354703393e-05    1.108783090716446e-04    5.244632128834265e-01    -8.228562051642900e-01   
4.009000000000000e+09    5.454627480995535e-01    -8.426307777122531e-01   -8.544569379502302e-06   3.000828285118947e-05    3.055515276178867e-05    4.936805155581072e-05    5.224091789291647e-01    -8.242296726669972e-01   
4.010000000000000e+09    5.443250597895629e-01    -8.435280745604298e-01   3.044396494433625e-05    5.491467298367957e-05    8.869269160469461e-05    3.634817137487164e-05    5.201634917963400e-01    -8.256282106672069e-01   
4.011000000000000e+09    5.431254790873148e-01    -8.443522908135755e-01   6.395626895720175e-05    -1.082311225826798e-05   -3.433512576113420e-05   1.056899367118864e-04    5.182079095728168e-01    -8.266673860602304e-01   
4.012000000000000e+09    5.418505127319059e-01    -8.452342603903773e-01   -3.851526521125123e-05   1.084690042452226e-04    -8.437631785551299e-05   1.737157417572731e-04    5.166424215372400e-01    -8.284251527201471e-01   
4.013000000000000e+09    5.404046748581701e-01    -8.456335592698538e-01   1.325541220442427e-04    -3.230709168113176e-05   5.894868701264226e-05    -3.213412611065703e-05   5.151568249820271e-01    -8.295082259023494e-01   
4.014000000000000e+09    5.391235786104481e-01    -8.465093640883796e-01   5.265874964997017e-05    3.911440484405746e-05    -1.103116965590828e-04   -7.751041376982623e-05   5.131797618729785e-01    -8.307517477418291e-01   
4.015000000000000e+09    5.377969024655043e-01    -8.469551293118990e-01   -4.905898429162128e-05   2.575274439757001e-04    -7.796899268069446e-05   -1.496343086503215e-04   5.114670600649562e-01    -8.324445020946406e-01   
4.016000000000000e+09    5.365968565890632e-01    -8.478856550170379e-01   1.179785462507916e-04    -1.672764088686745e-04   -6.853089357240307e-05   -7.413202543908066e-07   5.098733616477850e-01    -8.340660606996357e-01   
4.017000000000000e+09    5.353345729945377e-01    -8.480778977223312e-01   1.286891710657836e-04    -1.218723947409248e-04   -1.375146141259193e-04   -1.021756211281035e-04   5.081098076168510e-01    -8.350700089152365e-01   
4.018000000000000e+09    5.341220596066785e-01    -8.490071595033315e-01   -2.234860764903411e-04   4.732751435368677e-05    -1.238556981467578e-05   -1.970251560448239e-04   5.065377149219523e-01    -8.363798753198968e-01   
4.019000000000000e+09    5.328084919957375e-01    -8.490784840059665e-01   -5.582713917911253e-07   1.292277502891931e-05    8.682610069031142e-07    -1.036060983953728e-04   5.050757526925155e-01    -8.379065319325243e-01   
4.020000000000000e+09    5.316481386749898e-01    -8.500664278897953e-01   1.529224384511796e-05    -3.689569238340989e-05   1.143891787629893e-04    4.562620856532141e-05    5.036511892075749e-01    -8.390217061483239e-01   
4.021000000000000e+09    5.301185858620348e-01    -8.504991362967235e-01   5.057908535941328e-05    -2.962825620021452e-05   -2.556914331528287e-05   1.089372271766870e-04    5.022452798073547e-01    -8.403843638246054e-01   
4.022000000000000e+09    5.289374733462352e-01    -8.512311158282237e-01   1.192589736297969e-04    -4.419743764142892e-05   -2.317492078355019e-04   5.625837206871166e-05    5.008058167489583e-01    -8.419134284375239e-01   
4.023000000000000e+09    5.278532155520084e-01    -8.517286173135827e-01   -6.564648204834369e-05   1.650117930003861e-04    -4.244462254969728e-05   2.120497470231656e-05    4.993773753694769e-01    -8.428661120427102e-01   
4.024000000000000e+09    5.264974875385287e-01    -8.519683731757908e-01   -1.925268963304669e-04   4.691717639944250e-05    1.123026626835250e-04    4.173439892057951e-05    4.984415812844799e-01    -8.441688457454146e-01   
4.025000000000000e+09    5.253297306453828e-01    -8.524358747992867e-01   4.151343351981713e-05    -9.868673967966087e-05   7.331345947558918e-06    1.956927514057711e-04    4.973966503341559e-01    -8.453957961253163e-01   
4.026000000000000e+09    5.237639178321547e-01    -8.529215074291978e-01   -2.247354201720046e-04   -1.997625010039945e-04   -1.063412904434454e-04   -1.332981935880842e-04   4.956304295516621e-01    -8.465814133885019e-01   
4.027000000000000e+09    5.226625431463230e-01    -8.534449423928931e-01   7.282581237872563e-05    3.543467103485064e-05    1.205390429722463e-04    2.179704578510619e-05    4.951736918938396e-01    -8.476391779664160e-01   
4.028000000000000e+09    5.213405499198107e-01    -8.538742731917452e-01   -4.733399586402083e-05   1.106425812784032e-04    1.991570640222435e-04    -7.593736482445035e-05   4.938946173485305e-01    -8.485741233420832e-01   
4.029000000000000e+09    5.202027270178777e-01    -8.541686543831984e-01   4.793390119104878e-05    1.204166544552806e-04    1.251617081344857e-04    1.050074345673136e-05    4.927534959428235e-01    -8.497667067634234e-01   
4.030000000000000e+09    5.188128500234397e-01    -8.546607249964522e-01   -4.943775845494605e-05   9.092439306895332e-06    4.604898012231330e-05    1.852412021392043e-04    4.917370997498606e-01    -8.510391511697093e-01   
4.031000000000000e+09    5.172161850406561e-01    -8.549455646054017e-01   1.588691794390026e-06    -1.452747142985191e-05   -2.621305734939158e-04   -1.396863498148494e-04   4.909967129492344e-01    -8.520747487454783e-01   
4.032000000000000e+09    5.161031065831446e-01    -8.554324297743693e-01   -2.566334598075143e-05   -8.546490218885456e-05   -4.064608327357513e-05   -1.607987579240213e-04   4.899996590443426e-01    -8.529549020741377e-01   
4.033000000000000e+09    5.146647128913162e-01    -8.557236299178974e-01   -2.274316906169224e-04   5.351636993515356e-05    -1.629416263535814e-05   -6.619703698715709e-05   4.890949863323018e-01    -8.537037320599897e-01   
4.034000000000000e+09    5.132524845075552e-01    -8.562994515913794e-01   8.704806508897235e-05    6.000962008899425e-05    3.998462761610419e-05    -8.242295699310314e-05   4.884153838095655e-01    -8.554465330439540e-01   
4.035000000000000e+09    5.120537434509465e-01    -8.566728558875478e-01   -1.545526301895848e-04   -1.765964403569681e-04   1.574456602623172e-04    1.615924256972816e-04    4.877806055962486e-01    -8.560181866838944e-01   
4.036000000000000e+09    5.106288951153388e-01    -8.573296644143059e-01   -1.508369708002536e-06   -1.701733876087164e-05   -1.182451531716289e-04   -1.098251199537451e-04   4.868229059358861e-01    -8.569110814144866e-01   
4.037000000000000e+09    5.091264347408105e-01    -8.577451215942581e-01   -1.009402433046701e-04   -1.590658860682072e-04   -2.826164114803170e-05   1.313190938639414e-04    4.859955393567365e-01    -8.580225686467737e-01   
4.038000000000000e+09    5.076559940155592e-01    -8.581754053399491e-01   5.185803655118169e-05    -9.138315505139585e-06   2.145144069015111e-05    1.963722612838570e-04    4.852700802704635e-01    -8.587323347201811e-01   
4.039000000000000e+09    5.065690039141073e-01    -8.587527991666893e-01   1.195119759615324e-04    4.756792597098290e-05    -1.059267125348490e-05   2.618305831352930e-05    4.844847616568829e-01    -8.595346144239775e-01   
4.040000000000000e+09    5.050483125554421e-01    -8.592784252251405e-01   -1.524278997324500e-04   5.968289307860831e-05    -7.808311515836625e-05   3.906131125606157e-05    4.838286855503250e-01    -8.603456413944951e-01   
4.041000000000000e+09    5.036857341775530e-01    -8.597797244793802e-01   -6.385439245882628e-05   1.314207100654720e-05    -1.267054426242688e-06   -4.745306643318252e-05   4.834138296463014e-01    -8.611965525403750e-01   
4.042000000000000e+09    5.023047965353145e-01    -8.604207342315772e-01   6.806973358920532e-06    -7.591870885552629e-05   -1.021594054288807e-04   9.081206557565767e-05    4.830207906217001e-01    -8.621955266200381e-01   
4.043000000000000e+09    5.008425421918277e-01    -8.609068544277715e-01   1.829009794200707e-04    -1.080124115300208e-05   -1.465506725739862e-04   -1.691233275733176e-04   4.823200344304058e-01    -8.630957082252364e-01   
4.044000000000000e+09    4.996626692907084e-01    -8.619632541638836e-01   -4.068205721235425e-06   1.080879832981944e-07    1.278112048117435e-04    1.404503878787279e-05    4.816965079913084e-01    -8.638074632614553e-01   
4.045000000000000e+09    4.983971684991245e-01    -8.623049966304057e-01   -7.516013044102629e-05   -3.324429084789705e-05   2.026717473212129e-05    6.743828202758933e-05    4.815276160372470e-01    -8.644316939636387e-01   
4.046000000000000e+09    4.972364372488114e-01    -8.631582122504899e-01   6.425734639101841e-05    -1.008347602241410e-04   -1.881832119496725e-04   3.470279428200605e-05    4.809883665125650e-01    -8.653823314773955e-01   
4.047000000000000e+09    4.960199739299980e-01    -8.638488547660320e-01   -1.531776022026657e-04   2.369414909275395e-05    1.093346337774045e-05    -7.582981658642918e-05   4.805414689055583e-01    -8.656834017296097e-01   
4.048000000000000e+09    4.948203680713374e-01    -8.647060334707449e-01   -2.986149440560750e-05   1.537064776040786e-04    1.600827698320479e-04    5.632594285154650e-05    4.800961383806627e-01    -8.666426855335826e-01   
4.049000000000000e+09    4.939131987448117e-01    -8.650613787037141e-01   1.263034527144846e-04    -3.076240923508504e-05   7.482569131040047e-05    -1.179647669729862e-04   4.795826528561813e-01    -8.675129804876722e-01   
4.050000000000000e+09    4.925208550668803e-01    -8.660011428752862e-01   -6.230158749037288e-06   2.666463666289534e-05    -2.316502659834015e-05   -3.227273670960453e-05   4.797088234989487e-01    -8.682130981362811e-01   
4.051000000000000e+09    4.914878981239141e-01    -8.667696923300544e-01   -4.080587197222328e-06   2.836081430927111e-05    -2.921627193380241e-05   9.405333144967816e-05    4.792468602075874e-01    -8.687628578032849e-01   
4.052000000000000e+09    4.905303046315329e-01    -8.677630518870765e-01   4.706123151447925e-05    -1.757181564008140e-04   3.114130519097678e-05    6.837754473759165e-05    4.788149938259250e-01    -8.694756535967713e-01   
4.053000000000000e+09    4.893532263542148e-01    -8.682971480550636e-01   1.037308758212958e-04    -9.883666516536074e-05   -9.489263713865661e-05   -5.619723277315729e-05   4.787891413917632e-01    -8.700173718884281e-01   
4.054000000000000e+09    4.887144245051256e-01    -8.691991843454722e-01   -9.456611230607239e-05   2.168587893820418e-05    -1.678746862808218e-05   1.948399793633615e-04    4.785051878660396e-01    -8.700909556950835e-01   
4.055000000000000e+09    4.878695997168355e-01    -8.698929246692143e-01   -3.391381180784810e-05   7.410899827243913e-06    6.884953123157290e-05    2.669743656602322e-04    4.785929665761900e-01    -8.708339316942713e-01   
4.056000000000000e+09    4.870530428070947e-01    -8.709949328467267e-01   5.552506386232502e-05    -4.689997880884419e-05   -4.314498671817311e-05   1.120352711725201e-04    4.783415039275704e-01    -8.706638564627480e-01   
4.057000000000000e+09    4.859863430768427e-01    -8.715410157081198e-01   8.870331698390597e-05    -8.467994766751852e-06   3.060032445754111e-05    -2.387070203854378e-04   4.781869640651594e-01    -8.714552067079692e-01   
4.058000000000000e+09    4.849433854392216e-01    -8.724507721594442e-01   -1.077866515170670e-05   1.148582556193613e-04    -1.067106515430671e-04   -2.884559866790221e-06   4.781835133248177e-01    -8.714268684126524e-01   
4.059000000000000e+09    4.844901097649071e-01    -8.732337930050894e-01   -2.077994387326430e-05   -3.783998367777714e-05   3.254379421951861e-05    2.355200963654483e-05    4.778116297097375e-01    -8.719074788064353e-01   
4.060000000000000e+09    4.838663584504622e-01    -8.741595478326953e-01   1.316302617221465e-04    6.139757673273402e-05    -7.207123159452944e-05   2.208994146645316e-05    4.779700167601214e-01    -8.719854511858951e-01   
4.061000000000000e+09    4.827273049045386e-01    -8.748957958835485e-01   -1.358645090349828e-04   4.982474855850120e-05    -7.317553546554690e-06   -1.186901369365882e-04   4.779517428397277e-01    -8.721523671100126e-01   
4.062000000000000e+09    4.821216088259405e-01    -8.753383830595618e-01   9.468073657662948e-05    5.597116271736613e-05    -4.746102680792433e-05   1.361534402913128e-04    4.775081514141389e-01    -8.720463483056070e-01   
4.063000000000000e+09    4.812684194322309e-01    -8.766335178026773e-01   -2.371488584353357e-05   -7.932888639074188e-05   5.269573098599170e-07    7.075932064205592e-05    4.774465991018626e-01    -8.719458500268251e-01   
4.064000000000000e+09    4.808454680972599e-01    -8.769752749988445e-01   6.118320697129535e-05    -8.447411305769551e-05   1.196264878348496e-05    -1.132640304974275e-04   4.772403510722651e-01    -8.717259859475514e-01   
4.065000000000000e+09    4.804782263411934e-01    -8.779626085410711e-01   -1.626561117279085e-05   -1.672981448982710e-05   9.194499624422476e-05    -1.600493445380361e-04   4.770587181527804e-01    -8.717394391345485e-01   
4.066000000000000e+09    4.795225844150910e-01    -8.791874451682993e-01   1.905793315724630e-06    -4.991414197942662e-05   1.508437152115243e-05    -1.981293556930562e-04   4.767762845830036e-01    -8.716278558453294e-01   
4.067000000000000e+09    4.788489840076054e-01    -8.795199822446060e-01   3.719640449214817e-05    -9.233237688168403e-05   1.955725615228196e-05    1.456030569185013e-04    4.761724193544176e-01    -8.710129101703921e-01   
4.068000000000000e+09    4.782839218861077e-01    -8.803946735352810e-01   2.084739331016541e-05    2.228936110141841e-04    -9.397162908450108e-05   -1.156448027717660e-04   4.757162166990674e-01    -8.707608777485383e-01   
4.069000000000000e+09    4.774399433319445e-01    -8.811271336239418e-01   -1.019633125886325e-04   -5.160517507084440e-05   1.539080922369550e-04    1.419201743000649e-04    4.752631502438108e-01    -8.708649882067012e-01   
4.070000000000000e+09    4.769776488748019e-01    -8.816887241123084e-01   -1.173505161461257e-04   1.037649369089986e-05    3.205049651543844e-05    -9.318204992372499e-05   4.747149329674969e-01    -8.702931338691702e-01   
4.071000000000000e+09    4.765234173039735e-01    -8.827339422797784e-01   1.963022555776266e-05    -2.119773632653730e-05   1.155464126155413e-05    8.550057929423327e-07    4.736491684970717e-01    -8.701946772351522e-01   
4.072000000000000e+09    4.758224938065246e-01    -8.829474320584453e-01   1.437590746224589e-04    -7.641801432380892e-05   -1.053521386102236e-04   -7.500096846608017e-05   4.730930548988793e-01    -8.697612394292110e-01   
4.073000000000000e+09    4.753371519748815e-01    -8.837288966527421e-01   8.992701027412435e-05    1.748313443511490e-05    2.693021976610745e-05    7.510098146155021e-05    4.722543907388189e-01    -8.693207858492111e-01   
4.074000000000000e+09    4.747020481452726e-01    -8.843902538146380e-01   -1.310494531278673e-04   -9.248636147043434e-05   1.180686525145182e-06    7.043818952335023e-05    4.713101737783121e-01    -8.690433925631256e-01   
4.075000000000000e+09    4.742711965827641e-01    -8.855542131049129e-01   -1.408104235352993e-05   9.709369850076749e-05    -1.236924089192653e-05   9.873497792471388e-05    4.701562672793069e-01    -8.685554555977211e-01   
4.076000000000000e+09    4.734826330789182e-01    -8.859160194493487e-01   -6.574976667892382e-05   -5.624952678338154e-06   6.849178600300306e-05    6.864440411993549e-05    4.694450990462212e-01    -8.684267676349723e-01   
4.077000000000000e+09    4.727172441748030e-01    -8.870244462514894e-01   -1.514579429784752e-04   -1.449960160148848e-04   -4.037526336516092e-05   -6.184574143946911e-05   4.679939250978269e-01    -8.679184596693877e-01   
4.078000000000000e+09    4.724426859615592e-01    -8.877105570173510e-01   5.578445195721193e-05    3.785427020556908e-05    6.252265052393045e-05    1.019197604204854e-04    4.671151164543237e-01    -8.678576293271248e-01   
4.079000000000000e+09    4.720486143552367e-01    -8.883850610080912e-01   5.241162406162215e-05    5.673000559287545e-05    -3.510376116849808e-05   -9.017115002985650e-05   4.656436785039876e-01    -8.679878306959892e-01   
4.080000000000000e+09    4.712011440640805e-01    -8.889831547268147e-01   -4.860745995862788e-05   -1.643377158985701e-05   2.901745329677668e-05    -5.876363521924380e-05   4.640225672205175e-01    -8.677790005107158e-01   
4.081000000000000e+09    4.707840361421108e-01    -8.892374513719283e-01   -9.722451883673699e-05   -2.048812011378594e-05   1.283393339945869e-06    1.175073106019183e-05    4.626889684009010e-01    -8.674178018180791e-01   
4.082000000000000e+09    4.702022133221506e-01    -8.896024106124604e-01   -2.436998614118909e-04   -1.532480744777671e-04   7.527538722787829e-05    8.611266993790020e-05    4.610989371104506e-01    -8.674873135926818e-01   
4.083000000000000e+09    4.694832139205979e-01    -8.906744975329177e-01   -7.491683482741972e-05   5.390979321090401e-05    1.649648352865176e-05    -6.400228359445761e-05   4.594226963290030e-01    -8.677915414443876e-01   
4.084000000000000e+09    4.686259317916035e-01    -8.916734149929971e-01   -2.509684607053790e-05   2.926593616083945e-05    7.125234918106435e-05    7.902451679111329e-05    4.579493752580155e-01    -8.679944869197379e-01   
