[Version] 2.0
! Rohde & Schwarz Vector Network Analyzer
! Rohde-Schwarz,ZNL20-2Port,1323001220200009,1.71.1.10-23.02.1.238
! 
! Port Assignments:
! Nominal Port -> Actual Test Port
! --------------------------------
!   1 -> 1
!   2 -> 2

! Created: GMT+2 2025-01-17 12:15:12

# Hz S RI R 50

[Number of Ports] 2
[Two-Port Data Order] 21_12
[Number of Frequencies] 16001

[Network Data] 
! freq[Hz]               S11[Re]                  S11[Im]                  S21[Re]                  S21[Im]                  S12[Re]                  S12[Im]                  S22[Re]                  S22[Im]                  
4.000000000000000e+09    5.538296413431421e-01    -8.372185427496986e-01   -5.647276611347959e-05   -3.218193206766216e-05   -6.504072288669606e-05   -2.918586221138979e-05   5.389097687956882e-01    -8.158574332033229e-01   
4.001000000000000e+09    5.529440448061076e-01    -8.379744104093370e-01   8.316291664099817e-05    1.041891833778384e-05    1.464586892262831e-04    -9.077580287862294e-05   5.370375676673981e-01    -8.166690262374485e-01   
4.002000000000000e+09    5.518328708789553e-01    -8.392844302735736e-01   1.827732121580113e-05    -4.934828965084968e-05   5.450077824034030e-05    -7.127446463410724e-05   5.347719293407264e-01    -8.176007630656684e-01   
4.003000000000000e+09    5.506384503454754e-01    -8.399063669024045e-01   3.613009020319984e-05    -1.801947823716362e-05   7.188128173667485e-05    -1.378816756680301e-04   5.329671349162923e-01    -8.188690268105111e-01   
4.004000000000000e+09    5.494087279871447e-01    -8.404236449900784e-01   7.647542484505847e-05    1.184968147158796e-04    -8.021751686820445e-05   3.801335613003948e-05    5.310448647803893e-01    -8.198584021554034e-01   
4.005000000000000e+09    5.481797233789373e-01    -8.417623665269304e-01   4.824270078340344e-05    5.176095682330605e-06    -3.503020663715604e-05   -7.087209750469244e-05   5.288321851892764e-01    -8.206370413136213e-01   
4.006000000000000e+09    5.469145311059442e-01    -8.423746599871238e-01   6.073861347841226e-05    -9.243367856157167e-05   -1.816810502408991e-04   -5.276127202648243e-05   5.264508557950911e-01    -8.220600766473017e-01   
4.007000000000000e+09    5.455511328829399e-01    -8.429386215784103e-01   -1.949052376675880e-04   -1.593081723075449e-05   7.620665878050323e-05    1.111840370113259e-04    5.247010886110183e-01    -8.232109216436303e-01   
4.008000000000000e+09    5.446436883334901e-01    -8.439602034585029e-01   -1.099548044988076e-04   6.033535005188971e-05    -4.052749937116789e-05   -1.680663254425809e-04   5.228081278634770e-01    -8.246333377052525e-01   
4.009000000000000e+09    5.433443952360536e-01    -8.449247207653476e-01   -9.699029614571798e-05   -2.592803301367448e-04   -5.503316312473688e-05   -4.577792580656811e-05   5.208849174916842e-01    -8.255613412495211e-01   
4.010000000000000e+09    5.418154471065002e-01    -8.456559300340691e-01   1.890258495391821e-05    6.735798900586224e-05    -4.557772408376550e-05   -1.085303396428939e-04   5.189764164009725e-01    -8.274466788953062e-01   
4.011000000000000e+09    5.405715586443471e-01    -8.464231501427844e-01   -2.578836289463082e-04   -1.527859039078017e-05   -4.674642244622794e-05   -1.924285965429171e-05   5.168298343188518e-01    -8.286231102254558e-01   
4.012000000000000e+09    5.393917178610650e-01    -8.466907679068320e-01   9.011345049578237e-05    -3.019469891081052e-05   -3.487942558524990e-05   -3.028627362340922e-05   5.148959457084845e-01    -8.298521736126063e-01   
4.013000000000000e+09    5.380175155518742e-01    -8.477256712319597e-01   -1.046246410559189e-04   -6.315807622143947e-05   4.747327146671000e-05    3.078257685988590e-05    5.133623959550826e-01    -8.314814905095150e-01   
4.014000000000000e+09    5.364984928701793e-01    -8.483027148250204e-01   -1.603339608237821e-04   -8.268809811457729e-05   -1.254151785845963e-04   -2.233111269832486e-04   5.115163658617353e-01    -8.327709962560214e-01   
4.015000000000000e+09    5.352818091949131e-01    -8.490505691117143e-01   -4.205060431587189e-05   5.664731969266445e-06    -1.274252170947758e-04   9.928245665674672e-05    5.096664932193757e-01    -8.336369007469616e-01   
4.016000000000000e+09    5.342108525441236e-01    -8.497281259582624e-01   -9.341848310974945e-06   -7.992198617953586e-05   -1.337742326059651e-04   2.516825193544563e-04    5.082393322309198e-01    -8.356712506363299e-01   
4.017000000000000e+09    5.330705935855095e-01    -8.506464292516559e-01   4.386682610657102e-05    5.970356614043517e-06    -1.220217053914296e-05   -9.927438508507896e-05   5.065170676546051e-01    -8.366378623683822e-01   
4.018000000000000e+09    5.315466673082854e-01    -8.508498528090214e-01   3.387141250588522e-05    1.112947687419342e-04    -3.963947877629993e-05   2.308054311714892e-04    5.052154779110851e-01    -8.381271971782446e-01   
4.019000000000000e+09    5.301791252078744e-01    -8.510702205930621e-01   -1.131783740625319e-05   -1.207360787180124e-04   -9.178444292931700e-05   6.278992481578665e-05    5.033458624066227e-01    -8.396521017006607e-01   
4.020000000000000e+09    5.288646613865982e-01    -8.519595524179387e-01   -1.460893123497498e-05   6.527288182238389e-05    8.776278034939363e-05    1.716718024742773e-05    5.020582887276003e-01    -8.408186143172827e-01   
4.021000000000000e+09    5.276151394835479e-01    -8.525760117647473e-01   -2.722457656228250e-05   6.658315152205861e-05    -1.169580346095212e-04   -3.512064428360444e-05   5.005987262389567e-01    -8.415575305515516e-01   
4.022000000000000e+09    5.259827857045105e-01    -8.532492185354790e-01   -1.529600152501583e-04   -2.886461599315962e-06   -8.154633637659026e-05   1.330281961350507e-04    4.994362641521409e-01    -8.432600617872020e-01   
4.023000000000000e+09    5.253856017597647e-01    -8.539476387519426e-01   1.543053628866879e-04    -1.328794473851891e-04   -1.802257721774285e-04   1.160968325914278e-04    4.980655056025802e-01    -8.445530297782889e-01   
4.024000000000000e+09    5.236788345185330e-01    -8.543822418233598e-01   3.836133118962440e-05    -1.250141833669010e-04   8.639906038767920e-05    1.070276492381611e-04    4.968695735776245e-01    -8.457205466494778e-01   
4.025000000000000e+09    5.226994602047013e-01    -8.545383625990364e-01   -4.716102747984731e-05   -3.323387294306326e-05   1.363806091000587e-05    5.537317714657799e-05    4.954652181957508e-01    -8.471193365237524e-01   
4.026000000000000e+09    5.214987845204633e-01    -8.548404750063039e-01   6.203803515209964e-07    -7.372360260495720e-05   -4.482278125093709e-06   7.039574238538184e-05    4.946119685189984e-01    -8.479901865614536e-01   
4.027000000000000e+09    5.199184669739277e-01    -8.556519519627365e-01   1.621537781187199e-05    2.524990166140839e-05    3.172606890697377e-05    3.013055105698270e-05    4.932321539192115e-01    -8.491328232513060e-01   
4.028000000000000e+09    5.188220006634360e-01    -8.555236997236806e-01   9.289922042978751e-05    2.791606161294073e-05    1.837355537127728e-04    1.154385193616349e-04    4.920395850590263e-01    -8.506935244453186e-01   
4.029000000000000e+09    5.173866965650248e-01    -8.564276932686584e-01   1.745255416256270e-05    -1.107210669729440e-04   -2.837871835798694e-05   -8.649509912348837e-05   4.910210836837514e-01    -8.512793061453748e-01   
4.030000000000000e+09    5.157550146860497e-01    -8.566695584329052e-01   -4.526382072156963e-05   2.753367041839664e-06    8.982178494798157e-05    7.990921551623704e-05    4.903854522941322e-01    -8.525998771758850e-01   
4.031000000000000e+09    5.148511177449832e-01    -8.571816552661946e-01   -2.080749855039384e-04   -1.152566943514500e-05   -5.009844997437842e-05   -3.916691745973496e-07   4.893500178740233e-01    -8.534846036180441e-01   
4.032000000000000e+09    5.133243133819724e-01    -8.575631818546658e-01   -1.744977479053594e-04   1.261729353379760e-04    2.406436854595448e-04    2.480952809944684e-05    4.887166608875440e-01    -8.544801375844604e-01   
4.033000000000000e+09    5.120156852350806e-01    -8.577920362842123e-01   -4.900122907501358e-05   -6.360818750021822e-05   -1.357999026608078e-04   8.622471999620145e-05    4.871666395982783e-01    -8.555106444939091e-01   
4.034000000000000e+09    5.106649369631052e-01    -8.585927638020608e-01   2.017734068193103e-07    3.378668147744534e-05    -6.104316872475040e-05   2.229956899343320e-04    4.865587089831047e-01    -8.565657974914396e-01   
4.035000000000000e+09    5.090411804343887e-01    -8.590333458056956e-01   8.577083748161368e-05    7.283286000944569e-05    -7.872403287247423e-05   -9.436184124890023e-05   4.862035447267610e-01    -8.578401252770820e-01   
4.036000000000000e+09    5.080252079173136e-01    -8.594993505632703e-01   3.091444530249058e-05    4.491640419175754e-05    7.894203934556672e-07    5.442778550346646e-05    4.852598685406319e-01    -8.586326130085740e-01   
4.037000000000000e+09    5.065258968416114e-01    -8.600181336616544e-01   6.041964392242569e-05    -8.897791723586357e-05   -1.984668109642675e-04   -8.825886039877989e-05   4.843743054719832e-01    -8.594177075570997e-01   
4.038000000000000e+09    5.051082004458709e-01    -8.602093932832952e-01   -6.846074704423801e-05   4.317128527786535e-05    -2.049821694805788e-05   1.733412786084447e-05    4.838268148764009e-01    -8.603501338170442e-01   
4.039000000000000e+09    5.038828579316319e-01    -8.606430991060799e-01   2.736197504536160e-05    2.634134511706535e-05    -1.435405191995696e-04   -7.739013378035014e-05   4.828883924625499e-01    -8.612507938351305e-01   
4.040000000000000e+09    5.024038778147808e-01    -8.613923164005766e-01   1.796815349083565e-04    2.159990586978968e-05    8.276635944669020e-05    -5.766881262577373e-05   4.823297341033552e-01    -8.621039229884236e-01   
4.041000000000000e+09    5.010621218606047e-01    -8.620234673163343e-01   6.064106619058999e-05    1.033158811652118e-04    -2.117419623999757e-05   4.581033055505730e-05    4.816523133477010e-01    -8.629499756579141e-01   
4.042000000000000e+09    4.998496352752227e-01    -8.623644295230384e-01   2.553769324789764e-05    -8.068203123616155e-05   3.457455480433115e-05    3.908846555331874e-06    4.813253087220661e-01    -8.639024177227955e-01   
4.043000000000000e+09    4.984508320127355e-01    -8.630541371730722e-01   -1.277160589955025e-04   -1.417742093805093e-04   -3.484840138089432e-05   4.752561025112980e-05    4.807086012558949e-01    -8.644066115519474e-01   
4.044000000000000e+09    4.970567803580349e-01    -8.637100534171908e-01   -7.303308270588846e-05   -1.257920967592520e-04   -2.401625020610792e-04   -1.268794046751278e-04   4.801222542926810e-01    -8.656954177606523e-01   
4.045000000000000e+09    4.959295766542919e-01    -8.642757583198655e-01   -9.530823391524307e-06   -1.481395815211796e-04   -1.745594041354719e-06   3.951247234215190e-05    4.795316435867059e-01    -8.660824637575157e-01   
4.046000000000000e+09    4.944660656126328e-01    -8.650199626917073e-01   2.241042815926534e-04    1.072252814219757e-04    -4.044106882692510e-05   -4.446240165620425e-05   4.792563952834410e-01    -8.670743777501119e-01   
4.047000000000000e+09    4.934671523881011e-01    -8.659708261561095e-01   -6.512759852215499e-05   -1.002565439214648e-04   7.384130631779043e-05    -1.221129969509325e-04   4.788192566605404e-01    -8.675305293593011e-01   
4.048000000000000e+09    4.921465303821357e-01    -8.662897312211969e-01   9.303505523595958e-05    -5.470462793880964e-05   -5.677991473540544e-05   -1.479247947374422e-04   4.784435441657847e-01    -8.681192371027939e-01   
4.049000000000000e+09    4.909372506944090e-01    -8.673911311230686e-01   2.509015109822633e-04    -3.497682988370476e-05   -6.347920907320023e-05   -4.624711365682933e-05   4.778143603231214e-01    -8.692191270914723e-01   
4.050000000000000e+09    4.902136847961926e-01    -8.678573062253593e-01   -1.152451966183799e-04   1.326330817210384e-04    1.291525972378296e-04    -2.488266447726852e-07   4.779843037440143e-01    -8.698568586068137e-01   
4.051000000000000e+09    4.890814974195309e-01    -8.688007968816907e-01   4.003062792504231e-05    -2.009368278593697e-04   9.084863507322840e-05    1.759742417339058e-04    4.775511287092742e-01    -8.702084577434013e-01   
4.052000000000000e+09    4.882096338239729e-01    -8.696582511912614e-01   4.203604069965873e-05    -3.394817170225046e-05   7.583166249281556e-05    1.311366550274049e-04    4.769859442935458e-01    -8.709451252775876e-01   
4.053000000000000e+09    4.867453746240192e-01    -8.704655693219037e-01   5.903049600238515e-06    -1.204850023614487e-04   -4.246738503923461e-05   1.455718978041808e-04    4.770068279619911e-01    -8.713379541358069e-01   
4.054000000000000e+09    4.861072237677901e-01    -8.711678645844950e-01   -1.053369186276270e-04   -7.537024952662921e-05   -1.000001503671670e-05   3.684763012429736e-05    4.767705724419109e-01    -8.716444485233790e-01   
4.055000000000000e+09    4.850615310595541e-01    -8.720519901130702e-01   -6.934000151056639e-06   -5.723188424549151e-05   2.812908330912052e-05    1.277782600344573e-04    4.770119197835552e-01    -8.724771827084949e-01   
4.056000000000000e+09    4.841538052401107e-01    -8.727290283503445e-01   8.461707045321837e-05    -6.269220024181913e-05   -9.855896334547993e-05   -1.765586089806240e-05   4.766435725094296e-01    -8.729061869298768e-01   
4.057000000000000e+09    4.833681425522255e-01    -8.738020329836711e-01   1.774758763888953e-04    -5.846534711683535e-05   -2.017668518004780e-04   -1.846286227807653e-06   4.765581617602870e-01    -8.730197523160685e-01   
4.058000000000000e+09    4.823875712625538e-01    -8.745832508821398e-01   -1.301589603077676e-04   2.664629476983032e-05    -1.421288660466058e-04   -8.966024474650941e-05   4.765719846489607e-01    -8.731895777478501e-01   
4.059000000000000e+09    4.815242243443639e-01    -8.753018327524118e-01   3.058669624541055e-05    1.672756084443226e-06    -4.966260276902570e-05   -6.229795122842382e-05   4.763465398445056e-01    -8.734330595355828e-01   
4.060000000000000e+09    4.808177012572641e-01    -8.759779461460909e-01   -1.486959574714021e-04   -8.103316480446991e-05   1.249048378015188e-04    1.596682042264508e-04    4.762289888877926e-01    -8.733226026151376e-01   
4.061000000000000e+09    4.804192825202925e-01    -8.768637931559055e-01   6.628897478710856e-05    1.046404597442940e-04    -7.889987696961961e-05   -1.388795394667037e-04   4.760365189757582e-01    -8.737169016986961e-01   
4.062000000000000e+09    4.796416006673296e-01    -8.776784027081725e-01   3.890184223882099e-05    7.856046493960611e-06    3.679281286839015e-05    5.766915794072627e-05    4.760529220518722e-01    -8.733354563646079e-01   
4.063000000000000e+09    4.789511349756438e-01    -8.783456599364684e-01   1.949584989537651e-05    -8.597712116550301e-05   1.896438590822134e-05    6.693476070247862e-05    4.758122427100861e-01    -8.733776430771379e-01   
4.064000000000000e+09    4.782091614398053e-01    -8.792734257096174e-01   -1.246389207587327e-04   -7.164440430789912e-05   8.459092398620060e-05    -4.146504537528390e-05   4.757086839934739e-01    -8.736838678231470e-01   
4.065000000000000e+09    4.774198792803975e-01    -8.798514354932014e-01   -1.663701747895236e-05   -1.095226246628344e-05   1.006132546706554e-04    6.689155263882574e-05    4.751709522298199e-01    -8.731587844917281e-01   
4.066000000000000e+09    4.768297507875894e-01    -8.808882394072138e-01   4.408671449825498e-05    -5.015835367006340e-05   6.435151323266873e-05    -3.454401725441230e-05   4.749708882094392e-01    -8.732381595927279e-01   
4.067000000000000e+09    4.763659606830260e-01    -8.815105288216827e-01   8.929033649969578e-05    -1.229069331814433e-04   3.227928494602063e-06    -2.483292852990146e-05   4.746081370505130e-01    -8.727019999875113e-01   
4.068000000000000e+09    4.757933091734661e-01    -8.821416338669844e-01   -1.652575301007359e-04   -1.197695911724756e-04   3.696198479859396e-05    5.555549931111131e-05    4.742418111964942e-01    -8.725774686529593e-01   
4.069000000000000e+09    4.750955058761043e-01    -8.833193693741458e-01   -7.363434962300873e-06   1.088157682657954e-04    -4.956218892544735e-05   -6.110050319682681e-05   4.732955918659104e-01    -8.721811602093696e-01   
4.070000000000000e+09    4.741855152339328e-01    -8.838122759590979e-01   6.380053077565118e-05    1.637305495153300e-04    1.459369390905152e-05    -6.367731401926170e-05   4.728680978266835e-01    -8.721449554405966e-01   
4.071000000000000e+09    4.739397378363883e-01    -8.843721463755435e-01   1.894934543837515e-05    -3.843936302500992e-05   2.028003955702049e-05    -4.330661681305648e-05   4.721491996363379e-01    -8.715388844033455e-01   
4.072000000000000e+09    4.730251378949276e-01    -8.853247155285658e-01   -2.447826189187160e-04   1.509065741737201e-04    1.465575676678033e-04    6.136018754811934e-05    4.715235263720342e-01    -8.712891538389068e-01   
4.073000000000000e+09    4.726677337827059e-01    -8.857569789842055e-01   1.489199144860128e-04    -6.630669763871907e-06   -1.054968546243099e-04   1.151979951077545e-04    4.705036701339506e-01    -8.712191363641245e-01   
4.074000000000000e+09    4.719370653518611e-01    -8.865221136299558e-01   8.126952352149364e-05    1.402826150417957e-04    -3.052670141202113e-05   -3.991239325295890e-05   4.696327108783324e-01    -8.708399993674880e-01   
4.075000000000000e+09    4.714042805389572e-01    -8.872842239321518e-01   2.765044214894435e-05    -6.954408985969729e-05   2.635331568554893e-05    1.691324372482224e-04    4.687025735414294e-01    -8.703278564807941e-01   
4.076000000000000e+09    4.712415529995521e-01    -8.877882699161064e-01   -9.975748476891709e-05   1.164081301607383e-04    4.793644183294916e-05    -1.294348458931240e-04   4.676149655930271e-01    -8.703528587951347e-01   
4.077000000000000e+09    4.705492715927681e-01    -8.887116771016792e-01   9.041836828189060e-06    -1.475092914815369e-04   -2.969660380003009e-05   8.553301715697373e-06    4.663355226225600e-01    -8.698289118423660e-01   
4.078000000000000e+09    4.698075400798001e-01    -8.891993163432070e-01   5.538049992047733e-05    -7.495711717474725e-05   -9.019328890326033e-05   4.277079376648091e-05    4.651292698201611e-01    -8.693413473196646e-01   
4.079000000000000e+09    4.691596156267362e-01    -8.903453303140749e-01   6.798241074210102e-05    1.370094328928372e-04    -4.896565200083098e-05   8.361378861100136e-05    4.638530463816868e-01    -8.694984177316338e-01   
4.080000000000000e+09    4.686658026959030e-01    -8.906745762998433e-01   -4.258657657572281e-05   1.166100868823322e-04    8.831593672796378e-05    1.017022016037288e-04    4.626384759416420e-01    -8.694913092693605e-01   
4.081000000000000e+09    4.679981357486397e-01    -8.912498406639915e-01   -8.908857518332238e-05   3.281352713828870e-04    5.902180276176007e-05    1.373458368558407e-04    4.608799744134896e-01    -8.691464620294489e-01   
4.082000000000000e+09    4.676548163591383e-01    -8.922449197311315e-01   2.243537040096776e-04    -2.453839612960405e-05   4.607818709530760e-05    -8.421767815984306e-05   4.593366975731109e-01    -8.693964168800947e-01   
4.083000000000000e+09    4.667700741720184e-01    -8.925729698865758e-01   5.463086467255241e-05    -3.726108647062865e-05   2.165279587740734e-04    1.170943089479373e-04    4.577880688705703e-01    -8.693556863838000e-01   
4.084000000000000e+09    4.661773229495328e-01    -8.932032794644027e-01   2.035832415607551e-05    1.203065123168643e-04    6.510005372787082e-05    1.914405548401824e-04    4.561023105863757e-01    -8.695887236813479e-01   
