[Version] 2.0
! Rohde & Schwarz Vector Network Analyzer
! Rohde-Schwarz,ZNL20-2Port,1323001220200009,1.71.1.10-23.02.1.238
! 
! Port Assignments:
! Nominal Port -> Actual Test Port
! --------------------------------
!   1 -> 1
!   2 -> 2

! Created: GMT+2 2025-01-16 20:19:46

# Hz S RI R 50

[Number of Ports] 2
[Two-Port Data Order] 21_12
[Number of Frequencies] 16001

[Network Data] 
! freq[Hz]               S11[Re]                  S11[Im]                  S21[Re]                  S21[Im]                  S12[Re]                  S12[Im]                  S22[Re]                  S22[Im]                  
4.000000000000000e+09    5.516469990340768e-01    -8.360308225875869e-01   -1.041203252504959e-04   -1.432165459420120e-04   3.180783216591178e-05    4.196628594487596e-05    5.425119815049693e-01    -8.146090463715034e-01   
4.001000000000000e+09    5.502986489459043e-01    -8.368227833070012e-01   -1.426831647312765e-04   3.263948915835847e-07    3.375803756711053e-05    1.361493615205483e-04    5.403940160182218e-01    -8.156794760051905e-01   
4.002000000000000e+09    5.493332303227788e-01    -8.373978510900844e-01   6.997937923694045e-05    -6.113469226926091e-05   -2.308528740722839e-05   1.465724781091230e-04    5.382795148137380e-01    -8.165855497524500e-01   
4.003000000000000e+09    5.483018945398739e-01    -8.384246881773251e-01   -3.616617279857399e-05   1.280682991941219e-04    6.217848808485789e-06    -3.737833828243145e-05   5.363990285295891e-01    -8.179164057621799e-01   
4.004000000000000e+09    5.468292912529695e-01    -8.392137532217508e-01   -7.757136897684436e-05   -7.678934743773888e-05   2.317883716586048e-05    -9.973646537641902e-05   5.349297631834704e-01    -8.190694010453009e-01   
4.005000000000000e+09    5.460711939119547e-01    -8.401635566203428e-01   1.970187410189117e-04    4.850532368640542e-06    -8.604041758750666e-05   -5.948435894230208e-05   5.325627414086862e-01    -8.200739789026846e-01   
4.006000000000000e+09    5.447245389885097e-01    -8.407812039150747e-01   -6.930087169058440e-05   2.529885245653716e-05    -1.042745515112110e-04   -3.426941742726975e-05   5.307798806416095e-01    -8.214326432088440e-01   
4.007000000000000e+09    5.436047875500009e-01    -8.414221225565893e-01   -8.921644236291948e-05   4.925653449876260e-05    1.282340438518398e-04    1.805255440979914e-04    5.289456494651995e-01    -8.225582576384485e-01   
4.008000000000000e+09    5.424014579803432e-01    -8.426543211549037e-01   -1.070341345811026e-04   -6.001931513489101e-05   -5.774729936906803e-05   1.306501615603259e-04    5.268358512240912e-01    -8.238486516318816e-01   
4.009000000000000e+09    5.411712993413874e-01    -8.434024829537123e-01   7.986901581125616e-05    -2.113186545153892e-04   -4.740956193937577e-05   -2.306263651550464e-04   5.248067067029850e-01    -8.248754770166529e-01   
4.010000000000000e+09    5.400155211969522e-01    -8.442913589594463e-01   1.104754296537322e-04    -1.977577086714629e-07   -1.253354065036711e-04   -9.737805619304576e-05   5.233598169972863e-01    -8.267332186041189e-01   
4.011000000000000e+09    5.387460433690427e-01    -8.451313807536530e-01   1.223067327203598e-04    -2.468706313197059e-05   1.784627079214596e-04    1.224888151533940e-05    5.214486975101091e-01    -8.280213089979896e-01   
4.012000000000000e+09    5.378534696696674e-01    -8.458210373510296e-01   1.222143416564102e-04    1.019880270308171e-04    1.129384810410944e-05    1.628448410473437e-04    5.194289910179647e-01    -8.292724990904201e-01   
4.013000000000000e+09    5.363344507574938e-01    -8.459187117851462e-01   -9.575515389246963e-05   4.095550667225801e-06    -4.616041849524237e-06   8.527243571321549e-05    5.179994904849442e-01    -8.307521326481588e-01   
4.014000000000000e+09    5.356247323274608e-01    -8.472161255864141e-01   -4.022336999418204e-05   6.174919927806797e-05    1.550655793804468e-04    -2.298808516300969e-05   5.161378044124516e-01    -8.318872077364431e-01   
4.015000000000000e+09    5.340207981865123e-01    -8.475988203739372e-01   3.352885169727941e-05    -1.168130587439412e-04   -8.521013336223180e-05   4.671202567625655e-05    5.146941041800588e-01    -8.337470200234506e-01   
4.016000000000000e+09    5.333510339513425e-01    -8.484574397473199e-01   9.522062549334867e-05    -6.285676328982271e-05   -4.552217947629343e-05   1.345654071528289e-04    5.131153786997203e-01    -8.349387995817515e-01   
4.017000000000000e+09    5.321342457584421e-01    -8.490119136530000e-01   -5.663992221894612e-06   2.101814407260107e-04    9.274116535374327e-05    5.315722962715480e-05    5.115648904310593e-01    -8.356805536910380e-01   
4.018000000000000e+09    5.306971874402380e-01    -8.493526535621669e-01   -2.195200551673957e-04   2.965979980678661e-05    1.419652982671523e-04    1.235250553968328e-04    5.105474513925981e-01    -8.374529765877722e-01   
4.019000000000000e+09    5.299487575360683e-01    -8.496984474324417e-01   -3.155939348491016e-07   -3.966594789572001e-05   1.804918956533132e-04    -5.428206721256312e-07   5.088523173689008e-01    -8.389211831045820e-01   
4.020000000000000e+09    5.287562967905738e-01    -8.503535290556047e-01   1.589306744111386e-04    1.565904434460462e-04    1.243782768110784e-05    1.325440046265392e-05    5.078046316100082e-01    -8.401706847672301e-01   
4.021000000000000e+09    5.276907742966087e-01    -8.512737098873151e-01   3.800903335234887e-05    1.216703087105628e-04    2.068141106549898e-04    -9.376709104714791e-05   5.064145065699176e-01    -8.413152038103369e-01   
4.022000000000000e+09    5.261801275738081e-01    -8.516602651019965e-01   2.687560438431406e-05    -4.419507834158041e-05   1.781996410329009e-05    2.149556464783304e-04    5.051257519947397e-01    -8.426274584498732e-01   
4.023000000000000e+09    5.254400936147565e-01    -8.519515393924492e-01   1.455393793700048e-04    -6.651282731219827e-05   -1.388406079775009e-04   1.091453547968539e-04    5.039678337804793e-01    -8.436812423037874e-01   
4.024000000000000e+09    5.240985001931394e-01    -8.526486051916693e-01   -2.139363875039633e-06   6.275206130216079e-05    2.365968820035092e-04    -1.128627097611822e-04   5.030268635615504e-01    -8.449559057336252e-01   
4.025000000000000e+09    5.229118317375819e-01    -8.528992894780002e-01   -1.606893665495593e-05   5.413672073603793e-05    -4.881121711255182e-05   1.100209942551526e-05    5.021113912924364e-01    -8.460798473307488e-01   
4.026000000000000e+09    5.215995728522278e-01    -8.534894337326480e-01   1.750605661713904e-05    2.458987139339391e-04    -1.779955569553681e-05   -2.670980604225029e-04   5.007446696479622e-01    -8.473017837378598e-01   
4.027000000000000e+09    5.206045489779427e-01    -8.537169101752838e-01   -2.871392690738289e-05   -1.094793555628908e-04   -5.716112211975988e-05   2.450542514874641e-05    5.001189169744575e-01    -8.485155005408470e-01   
4.028000000000000e+09    5.193975385558032e-01    -8.540056682939114e-01   -6.098514972604114e-05   1.607467866790600e-06    7.827753923386403e-05    6.841110704199074e-06    4.991884413694963e-01    -8.495387752145708e-01   
4.029000000000000e+09    5.183660741001445e-01    -8.546365320809142e-01   1.222176492435877e-04    -1.737679023646519e-05   -7.434576772741880e-05   1.034126604237522e-04    4.982369957914495e-01    -8.504840896372062e-01   
4.030000000000000e+09    5.173008643485945e-01    -8.550528663478861e-01   9.625145483699927e-06    -7.421034062130424e-05   -9.442440390618777e-05   -4.310391051493555e-05   4.973042278049620e-01    -8.517604376908585e-01   
4.031000000000000e+09    5.158716648562565e-01    -8.553761665958283e-01   2.600661013216084e-04    -1.155013121794042e-04   9.282761695068345e-05    5.194734629612587e-05    4.963964721279917e-01    -8.524789068021421e-01   
4.032000000000000e+09    5.145954364014889e-01    -8.556838322613546e-01   -8.040151445244865e-07   3.961159015136157e-05    -2.057206816625091e-04   7.518321845303293e-05    4.960046457223620e-01    -8.536154505951803e-01   
4.033000000000000e+09    5.135900954189178e-01    -8.557790504779001e-01   -1.225037002739836e-04   5.333072568347426e-05    7.372454811466090e-06    -2.473912550281675e-04   4.951655208283867e-01    -8.543190273512143e-01   
4.034000000000000e+09    5.122853130095261e-01    -8.563795301189561e-01   -2.853427966274631e-05   1.178978702466001e-04    -7.410778605081747e-05   1.377399912938698e-04    4.944354200586367e-01    -8.554414273052527e-01   
4.035000000000000e+09    5.109855735865548e-01    -8.569109567850465e-01   5.255078259900641e-05    8.046312360338841e-05    -1.305725159592817e-04   6.409119671884805e-05    4.935641248641269e-01    -8.565509678814299e-01   
4.036000000000000e+09    5.096385296589423e-01    -8.571743796508958e-01   -8.022415566883702e-05   1.574343502937414e-04    4.377981521221245e-05    -6.621694743165768e-05   4.930908922017073e-01    -8.572847036222356e-01   
4.037000000000000e+09    5.082913484678113e-01    -8.575745567986696e-01   -9.182485799454273e-05   9.266128321708632e-05    -5.154733876580457e-05   -2.494870334268381e-05   4.924472774546191e-01    -8.581183397544441e-01   
4.038000000000000e+09    5.069922485290145e-01    -8.579149706861308e-01   -1.588232100521813e-04   -1.389615004691498e-04   -1.129204113940119e-04   7.556041557128336e-05    4.917344312804409e-01    -8.589860701204698e-01   
4.039000000000000e+09    5.059225385229074e-01    -8.584939413834971e-01   -8.818821706328854e-05   -8.363300681487687e-05   -1.133781954786087e-04   4.233270304552010e-05    4.912371369070601e-01    -8.598330411226830e-01   
4.040000000000000e+09    5.045947244273918e-01    -8.589296733957585e-01   -2.651488505725992e-04   9.370634593364193e-05    1.220432508642164e-04    -1.637230909643631e-05   4.907072442578432e-01    -8.601984741567084e-01   
4.041000000000000e+09    5.033624838338566e-01    -8.594997870452633e-01   -1.670532289219692e-04   1.016665985591997e-04    1.191631141491661e-04    1.237680536213539e-05    4.900800548725665e-01    -8.614343547762209e-01   
4.042000000000000e+09    5.022057095789049e-01    -8.599688888278693e-01   -5.168690360543992e-05   1.647207634834028e-04    -6.880229650627301e-05   9.223547487171991e-07    4.897491020247677e-01    -8.621696821318789e-01   
4.043000000000000e+09    5.009834999415237e-01    -8.605447707320248e-01   -7.835216510126678e-05   2.875635116661690e-04    -4.989244161006572e-05   -1.286714619804882e-04   4.893004224153077e-01    -8.630367906821480e-01   
4.044000000000000e+09    4.995156665588819e-01    -8.611744083745468e-01   1.032863163161548e-04    -1.152188623707606e-04   6.332916702571618e-05    1.898747152577728e-05    4.888715842484184e-01    -8.637409008212070e-01   
4.045000000000000e+09    4.984984210904916e-01    -8.618546728000869e-01   -6.750245115865840e-05   1.512395078885111e-07    8.540257616271074e-05    -5.289804350530755e-05   4.883614915170800e-01    -8.643331656717168e-01   
4.046000000000000e+09    4.971063891197287e-01    -8.623607112756683e-01   1.749028766595638e-04    -1.425173022708647e-04   7.713271688452903e-06    5.146101099647078e-05    4.880698252138887e-01    -8.652586710339899e-01   
4.047000000000000e+09    4.957932490344135e-01    -8.630365671313912e-01   -4.672977875372316e-05   -6.334696597035852e-05   5.144393857019073e-05    -2.733700536858942e-05   4.875059508157755e-01    -8.658893084457316e-01   
4.048000000000000e+09    4.949108396266031e-01    -8.634233546887066e-01   -1.112602604092246e-04   -2.143303797949640e-05   -7.100812696900798e-05   2.189612695822017e-05    4.871554678278342e-01    -8.661995077519927e-01   
4.049000000000000e+09    4.937518832157518e-01    -8.644378405786183e-01   -1.017666740034422e-05   -3.633224099928327e-05   8.568093213566864e-05    1.257146711587285e-04    4.869726587943848e-01    -8.669679828747919e-01   
4.050000000000000e+09    4.929628503390727e-01    -8.650522381853438e-01   2.267141619764338e-05    8.020851746491990e-05    1.659250812945615e-04    1.145426074786480e-04    4.869178203164687e-01    -8.678957537214775e-01   
4.051000000000000e+09    4.916207189470226e-01    -8.657164842230943e-01   3.108334213351999e-05    1.573054719984426e-04    -1.856755529736385e-04   2.202443498475494e-05    4.864001899124472e-01    -8.680619812140883e-01   
4.052000000000000e+09    4.908578033128003e-01    -8.664171566174190e-01   -1.096237907925997e-04   -1.632009630356533e-04   -5.091347389427039e-05   -7.285276263273516e-05   4.863078830772414e-01    -8.687756959539278e-01   
4.053000000000000e+09    4.896067338144599e-01    -8.672365351444271e-01   8.554707090255137e-05    3.614853296672618e-06    -6.208241025983020e-05   1.193452883708951e-04    4.860886471715860e-01    -8.690730124527896e-01   
4.054000000000000e+09    4.887472263186017e-01    -8.678009681654024e-01   -4.716788528745020e-05   -1.120433113669065e-04   6.310519600504268e-05    6.210934860367799e-05    4.860735120392672e-01    -8.696287513508298e-01   
4.055000000000000e+09    4.878542910437021e-01    -8.684647986347086e-01   -6.682193553085625e-05   -1.201574264405363e-05   1.361530067811035e-05    1.421915731955878e-04    4.858361831389936e-01    -8.702390310063810e-01   
4.056000000000000e+09    4.865935351635223e-01    -8.697251492250889e-01   2.760398058527231e-05    -7.842549884631087e-05   -8.329317455331283e-06   -1.948535787595186e-05   4.856888115734209e-01    -8.704674821556206e-01   
4.057000000000000e+09    4.857732681367892e-01    -8.699515097048988e-01   -1.118651106626457e-04   -2.651070045795909e-05   1.246883418224259e-04    -1.528371332976788e-04   4.851454143978235e-01    -8.708249420145998e-01   
4.058000000000000e+09    4.849160516336303e-01    -8.708716517847397e-01   -9.621631882282936e-05   9.124950448012797e-05    4.370510544053125e-06    -1.463814802621154e-04   4.851386334275752e-01    -8.706703748091718e-01   
4.059000000000000e+09    4.837455264739989e-01    -8.718007993000990e-01   1.124506157402501e-04    3.190813935892524e-05    2.115566362902250e-05    -1.833023834421563e-04   4.852394194046312e-01    -8.711400255797858e-01   
4.060000000000000e+09    4.829608945157696e-01    -8.726058095648156e-01   9.438494313608477e-05    -6.644211317751459e-05   -2.678344398653745e-05   1.085139333407183e-04    4.848913515959196e-01    -8.709924146714179e-01   
4.061000000000000e+09    4.822370665907570e-01    -8.733046880628962e-01   7.317276908887216e-05    -5.170012223494034e-05   -6.904449952409486e-05   -7.451596934470954e-05   4.847573042023184e-01    -8.711384126748184e-01   
4.062000000000000e+09    4.813184212345467e-01    -8.739309845218335e-01   2.645509239614064e-05    2.411782680014504e-05    -5.096201866444356e-05   9.426937527726485e-05    4.843386209415201e-01    -8.711584873770333e-01   
4.063000000000000e+09    4.806121768101415e-01    -8.747363856563977e-01   -5.062289642360852e-05   -1.172239443041409e-04   1.286413773523512e-04    -1.339103066758374e-05   4.840950531509924e-01    -8.709753715852167e-01   
4.064000000000000e+09    4.797467927305605e-01    -8.753805561910182e-01   -4.876029358689462e-05   -6.490194967795820e-06   1.567488446079130e-04    -8.282287289452219e-05   4.840243807582637e-01    -8.709928264931424e-01   
4.065000000000000e+09    4.790742460240890e-01    -8.762136993763278e-01   -1.485297300859876e-05   6.339203772952463e-07    7.017806311232722e-05    8.868540509368804e-05    4.838297487899210e-01    -8.706759145383226e-01   
4.066000000000000e+09    4.782532607060286e-01    -8.771777701362177e-01   -6.933881535679165e-05   -2.590123695356386e-05   -5.060681038894723e-05   -1.132513469578115e-04   4.831255449963247e-01    -8.706393374826464e-01   
4.067000000000000e+09    4.772380432888502e-01    -8.777348132468685e-01   1.384541278458695e-05    -3.001808024129282e-05   1.738857045649766e-05    -1.087388011835273e-04   4.828405815788425e-01    -8.701242770808029e-01   
4.068000000000000e+09    4.768900058093090e-01    -8.781138969071033e-01   -4.859020875613389e-05   7.519777171598227e-05    -2.406183926644719e-05   5.563853221703173e-05    4.819287230734942e-01    -8.700327996248655e-01   
4.069000000000000e+09    4.760943951046900e-01    -8.792607786252894e-01   -1.275823811523912e-06   -1.482648107834770e-04   3.835682852027795e-05    1.059891015612079e-04    4.812504287281932e-01    -8.697952688676327e-01   
4.070000000000000e+09    4.753245654968568e-01    -8.798155589322763e-01   4.610014004698748e-05    1.310534177356523e-04    7.971220674188569e-05    -1.553925837893429e-06   4.807296051837819e-01    -8.691566447313832e-01   
4.071000000000000e+09    4.748631523830509e-01    -8.807411174962040e-01   -1.004527312314698e-05   8.108630900043237e-05    -1.197717163140075e-04   -1.163107035315807e-04   4.797899038776063e-01    -8.689039122149406e-01   
4.072000000000000e+09    4.737362378899812e-01    -8.817573442722849e-01   1.888251068001650e-05    2.012164550119775e-05    -3.005583164078768e-05   -6.894273636344826e-05   4.788673214043198e-01    -8.687512632874443e-01   
4.073000000000000e+09    4.729531792893051e-01    -8.825074763799315e-01   -4.005125814927663e-05   -9.383678703044455e-05   3.912793071550232e-05    -1.539036429955996e-04   4.780342550309323e-01    -8.686259096133089e-01   
4.074000000000000e+09    4.722757824407209e-01    -8.830629235151297e-01   -5.347999758376160e-05   2.401738890226977e-05    1.769219132622536e-05    4.677494490537826e-05    4.767448914739885e-01    -8.682285070598935e-01   
4.075000000000000e+09    4.715375794075424e-01    -8.838402503684818e-01   6.897008963029219e-05    6.303344335852764e-05    2.094211464337246e-05    1.523722431629714e-04    4.757904690698440e-01    -8.679864511691894e-01   
4.076000000000000e+09    4.706024984818427e-01    -8.841760365858152e-01   8.524949440578912e-05    1.732473637615027e-05    6.587659273695616e-05    1.269264104621378e-04    4.745141838764894e-01    -8.676664267579948e-01   
4.077000000000000e+09    4.702528816776865e-01    -8.853229449611855e-01   1.695947496201004e-04    1.069866584644256e-04    6.313953537087082e-05    -1.175841311537880e-04   4.731729678238258e-01    -8.674342426578090e-01   
4.078000000000000e+09    4.694855566654060e-01    -8.857425119657039e-01   -2.176610383403986e-05   -1.210524954659915e-05   -5.953995013570817e-05   7.101411837484812e-06    4.717059890259393e-01    -8.670951948386006e-01   
4.079000000000000e+09    4.684293974519326e-01    -8.865914837877019e-01   -4.461917049563973e-05   1.342181316048159e-04    1.626955775328680e-04    1.649688247522429e-05    4.702898831804496e-01    -8.672306947250740e-01   
4.080000000000000e+09    4.677414102544530e-01    -8.874518601405370e-01   -4.448932995008997e-05   -4.172298025897814e-05   3.245653227938282e-05    -6.227005056257505e-05   4.689156623303192e-01    -8.669173563950313e-01   
4.081000000000000e+09    4.671993088875978e-01    -8.881434390390515e-01   5.615272460077264e-05    1.593810144946181e-04    -7.992579027402979e-05   -7.713097086326684e-05   4.669792098871675e-01    -8.670069405183789e-01   
4.082000000000000e+09    4.664225397283457e-01    -8.883877534080642e-01   9.385344763955955e-05    -7.777770256140276e-05   -8.892665927787223e-06   4.595320781789561e-05    4.654454142812377e-01    -8.671748161768014e-01   
4.083000000000000e+09    4.653714633921930e-01    -8.895624749504920e-01   -7.068821292111501e-05   5.373886875893675e-05    3.425376678575319e-05    -5.618230344686172e-05   4.636338874940237e-01    -8.670634791295107e-01   
4.084000000000000e+09    4.647091120159129e-01    -8.904133230437751e-01   -1.713739384347551e-04   1.357590123769583e-04    4.482693298170533e-05    -1.298519998332597e-04   4.618050645506570e-01    -8.673933498594978e-01   
