[Version] 2.0
! Rohde & Schwarz Vector Network Analyzer
! Rohde-Schwarz,ZNL20-2Port,1323001220200009,1.71.1.10-23.02.1.238
! 
! Port Assignments:
! Nominal Port -> Actual Test Port
! --------------------------------
!   1 -> 1
!   2 -> 2

! Created: GMT+2 2025-01-16 20:20:12

# Hz S RI R 50

[Number of Ports] 2
[Two-Port Data Order] 21_12
[Number of Frequencies] 16001

[Network Data] 
! freq[Hz]               S11[Re]                  S11[Im]                  S21[Re]                  S21[Im]                  S12[Re]                  S12[Im]                  S22[Re]                  S22[Im]                  
4.000000000000000e+09    5.516654107929907e-01    -8.356495748042956e-01   4.106001241285527e-05    7.702414295431633e-05    -1.292954025558562e-04   5.764073269106916e-05    5.425974574818971e-01    -8.147259162016033e-01   
4.001000000000000e+09    5.501387233810164e-01    -8.368910502715040e-01   8.174264234477740e-05    -4.321077501084150e-06   1.195254911182172e-04    -3.592483164979555e-05   5.406207334082033e-01    -8.157566284805493e-01   
4.002000000000000e+09    5.497052171940615e-01    -8.372463955660583e-01   -8.310847863886759e-05   -7.209588634652551e-05   -7.289379362675465e-05   7.676657663604119e-05    5.386580218582739e-01    -8.166441778031149e-01   
4.003000000000000e+09    5.484866029403344e-01    -8.381175678325524e-01   -1.941966447328037e-04   -1.203551132563669e-04   5.177588284463335e-05    -5.412848053145395e-05   5.366722216972406e-01    -8.178303943865789e-01   
4.004000000000000e+09    5.472068973877784e-01    -8.390275944413873e-01   -1.600231250896350e-05   -2.155371409533683e-05   1.758010559702454e-04    -6.064553440358810e-05   5.343459009952695e-01    -8.188585964690006e-01   
4.005000000000000e+09    5.460949644612743e-01    -8.398415511193669e-01   -4.593372923160395e-05   -1.181306920213030e-05   -4.524331887158925e-05   2.740540321226385e-05    5.324936753205680e-01    -8.203720569554034e-01   
4.006000000000000e+09    5.450532108751449e-01    -8.411620410728214e-01   -2.122635093783445e-04   1.133214250606209e-04    9.420765356292845e-05    6.955842749057106e-05    5.306202777113207e-01    -8.214396723505625e-01   
4.007000000000000e+09    5.436760063066561e-01    -8.417913658515773e-01   1.071515952632225e-04    -1.618984432378607e-05   -7.787421773464941e-05   4.390986305932164e-06    5.286892792940342e-01    -8.228080896937175e-01   
4.008000000000000e+09    5.425123789874923e-01    -8.428162852829443e-01   1.418375117778088e-04    -4.411385317975290e-05   -1.124023311737947e-04   1.283363763640754e-06    5.269331439638277e-01    -8.240312400605639e-01   
4.009000000000000e+09    5.412295870484454e-01    -8.435105945852754e-01   -1.208498939955613e-04   -1.278470564207137e-04   -2.625682392878838e-06   5.061250609861934e-05    5.248173954611921e-01    -8.250495698416590e-01   
4.010000000000000e+09    5.400676523864080e-01    -8.443879094826552e-01   1.500998349970123e-04    1.744657647082600e-05    1.461046751250172e-04    4.148285777409750e-06    5.227995842363355e-01    -8.267172988619014e-01   
4.011000000000000e+09    5.391385135758492e-01    -8.448990949011652e-01   -3.402654038652467e-06   3.637147951341941e-05    -1.106670948692223e-04   8.118674059729685e-05    5.212614373796971e-01    -8.277767604874204e-01   
4.012000000000000e+09    5.378395032908106e-01    -8.458192586386093e-01   -7.113624377072284e-05   8.677132428479406e-05    -1.863182508612537e-04   7.577240722549129e-05    5.196456432095455e-01    -8.292354469836044e-01   
4.013000000000000e+09    5.363431164190401e-01    -8.463850620860399e-01   -1.505486466076921e-04   5.559811779976754e-05    4.765562360801472e-05    -3.068078724442294e-05   5.182871983190620e-01    -8.305475529738127e-01   
4.014000000000000e+09    5.355157832488776e-01    -8.466965604956735e-01   -4.027263441258879e-05   -8.011785575626624e-05   3.528827055896170e-05    -3.599734481381964e-05   5.161312344701763e-01    -8.320283691066831e-01   
4.015000000000000e+09    5.338987324842441e-01    -8.475890990720398e-01   -5.182581084985739e-05   6.566670015148955e-05    -3.329264949751943e-05   7.753576568617092e-05    5.147442226603697e-01    -8.334074095700343e-01   
4.016000000000000e+09    5.332732144035681e-01    -8.481627776623129e-01   5.477944979454726e-05    -1.256335158478348e-04   2.405510505424084e-05    -8.091888543708318e-05   5.134324977444780e-01    -8.346942456840670e-01   
4.017000000000000e+09    5.320779463739596e-01    -8.487834776176492e-01   1.039432830018993e-04    -8.641954974117154e-05   1.994428849229036e-05    -1.430050679923841e-05   5.116141136426213e-01    -8.363156038307531e-01   
4.018000000000000e+09    5.307758468570702e-01    -8.493572485389277e-01   -1.394011009249702e-04   6.025718386682802e-05    3.019115628295196e-04    -1.840338619315088e-04   5.104178910172342e-01    -8.376004590488926e-01   
4.019000000000000e+09    5.298238370621067e-01    -8.494919192179259e-01   9.057422221091729e-05    -6.318025769578911e-05   7.437690252761152e-05    -8.625378609945421e-05   5.088448755612340e-01    -8.388190827537947e-01   
4.020000000000000e+09    5.284073259813671e-01    -8.502987550448116e-01   7.443904714176157e-05    1.080646621384721e-04    -2.615086529667013e-05   9.067486105155800e-05    5.077823101706710e-01    -8.402890422990468e-01   
4.021000000000000e+09    5.274160693449622e-01    -8.508660857184055e-01   -5.626551265455869e-05   -1.174962438042676e-04   -3.565147679810157e-06   1.142058252303002e-05    5.065198108058079e-01    -8.415028052414485e-01   
4.022000000000000e+09    5.262489986384242e-01    -8.513781920714496e-01   1.347497014082699e-04    -2.190017916196048e-04   -4.268063304409873e-05   5.873949905426380e-06    5.053939752831944e-01    -8.427520227543682e-01   
4.023000000000000e+09    5.253273663621342e-01    -8.521760434632855e-01   4.558111566673252e-05    -1.307949221610615e-04   -1.906167637171491e-05   -9.570194943842556e-06   5.039132054309197e-01    -8.438473864221979e-01   
4.024000000000000e+09    5.239821397472432e-01    -8.524757532007384e-01   -8.145631835453287e-05   1.608230735484262e-04    -6.699184240345973e-05   1.212943532778706e-04    5.029718520260272e-01    -8.450340259415261e-01   
4.025000000000000e+09    5.229996392001901e-01    -8.528121115316045e-01   -2.479071798976042e-05   5.886017727848062e-05    4.059558816227870e-05    1.911993995028364e-04    5.020297439308830e-01    -8.461660807405691e-01   
4.026000000000000e+09    5.219801244409128e-01    -8.533443474095048e-01   2.210468748537581e-04    -1.769540231800155e-04   -1.010074442134890e-04   6.028901696929361e-06    5.010696605853443e-01    -8.475441016667844e-01   
4.027000000000000e+09    5.205059027863604e-01    -8.535204971545681e-01   1.535637064023401e-04    1.680483661571336e-05    -2.014033050559892e-04   -5.307050393268470e-05   5.001928828136009e-01    -8.484872513933454e-01   
4.028000000000000e+09    5.195706689433296e-01    -8.541287027388413e-01   -5.042723278596195e-05   -1.294597156579129e-04   1.920536327758781e-04    1.370338626842317e-04    4.993493847687810e-01    -8.496275669282171e-01   
4.029000000000000e+09    5.183925029068019e-01    -8.546133239893052e-01   -7.054569204119461e-05   -6.412901884527222e-05   2.686856509671401e-06    1.856589373658706e-04    4.984816055181621e-01    -8.508161034808628e-01   
4.030000000000000e+09    5.172631584621583e-01    -8.547473544149422e-01   -9.076203160631717e-05   -5.748207156076810e-05   -2.951474225972792e-05   -4.811555195052275e-06   4.975440847526421e-01    -8.516722425492524e-01   
4.031000000000000e+09    5.159776615141354e-01    -8.551555600859048e-01   1.788717929481227e-04    5.380758748537965e-05    -1.436666316987933e-04   5.031427591414348e-05    4.968555343025519e-01    -8.527392649180955e-01   
4.032000000000000e+09    5.147115634878817e-01    -8.555121900841524e-01   -6.491255157795375e-06   6.927773678497394e-05    7.481778999878789e-05    -3.952679970078809e-05   4.960311020905209e-01    -8.536392910748286e-01   
4.033000000000000e+09    5.134698183300598e-01    -8.560566603707127e-01   -1.209018389185636e-04   -6.170257276624844e-05   -1.007445759649009e-04   -1.570746210550697e-04   4.950058690367998e-01    -8.546134984729192e-01   
4.034000000000000e+09    5.123496460435706e-01    -8.561156530952607e-01   4.711291262022865e-05    -1.661700370358866e-04   -8.257828768620536e-05   -1.549485467701644e-04   4.944167347979890e-01    -8.554033355590484e-01   
4.035000000000000e+09    5.109664484882807e-01    -8.567793828196103e-01   1.771753357926333e-04    1.449342294989260e-04    -4.819803718574941e-05   7.397053039659764e-05    4.938642707817077e-01    -8.563665692611881e-01   
4.036000000000000e+09    5.094870195202306e-01    -8.571142770897980e-01   3.089310883043353e-06    -1.274250415452794e-04   -6.788448850459528e-05   1.523942331969861e-04    4.933085855354988e-01    -8.570668993212441e-01   
4.037000000000000e+09    5.083363761426984e-01    -8.575895433980085e-01   -7.276109782881963e-05   -4.113335642491563e-05   5.470081924361120e-05    4.628203039313181e-05    4.927097610152215e-01    -8.583497747091000e-01   
4.038000000000000e+09    5.070561525145008e-01    -8.579797150579408e-01   -1.450627777419075e-04   -3.701460464748785e-05   -7.067562877408646e-05   -1.298512077448867e-04   4.918976670776046e-01    -8.591040925704410e-01   
4.039000000000000e+09    5.058978746554047e-01    -8.586052242145555e-01   8.169585083676485e-05    -5.511043803020375e-05   9.981938771792236e-05    5.653439434166233e-05    4.911801775193257e-01    -8.598495695899412e-01   
4.040000000000000e+09    5.049059193667917e-01    -8.589033374134326e-01   8.808933173377724e-05    -3.641635121025638e-05   -1.380779291716430e-04   1.099281418301102e-04    4.908795798808119e-01    -8.606216591378109e-01   
4.041000000000000e+09    5.032512888403127e-01    -8.594508374499154e-01   8.454342721722191e-05    1.390015767856488e-04    -6.417504694265244e-06   3.218055129750566e-05    4.901845107203380e-01    -8.614932490845143e-01   
4.042000000000000e+09    5.020865475972611e-01    -8.599927807160663e-01   -6.412702603214537e-05   8.186893228304591e-05    -1.352447269813692e-04   3.268541664749546e-05    4.894404270493004e-01    -8.620789542484686e-01   
4.043000000000000e+09    5.007709762999422e-01    -8.603198150986424e-01   -1.146983377229304e-04   -6.366692354229731e-05   -6.422428727600729e-06   2.920886282070210e-05    4.894392828729943e-01    -8.629846581758670e-01   
4.044000000000000e+09    4.996975503712468e-01    -8.608270500354900e-01   3.537946272719664e-06    4.998246413131430e-05    1.799130016951063e-04    -5.087551596264928e-05   4.892537420677084e-01    -8.639695332398410e-01   
4.045000000000000e+09    4.983808452046358e-01    -8.615872151404566e-01   6.707927675921809e-05    -9.132860019549280e-05   1.082834465264402e-04    2.858791416836392e-04    4.885234753771862e-01    -8.643822192560194e-01   
4.046000000000000e+09    4.971966906472092e-01    -8.622359401713636e-01   1.649271895681254e-04    -4.045789800625826e-05   1.958534692301409e-06    5.357507984368682e-05    4.879389390007092e-01    -8.651178773511531e-01   
4.047000000000000e+09    4.961400093271004e-01    -8.628806468991167e-01   7.283592118301510e-06    1.390583660295162e-04    -3.642922313860824e-05   5.814830948352499e-06    4.875198193271859e-01    -8.657591441604103e-01   
4.048000000000000e+09    4.948356158663830e-01    -8.637626267737444e-01   4.808638080628938e-05    -5.040339632836775e-05   1.891813944680642e-04    3.252044737138378e-05    4.872569341295381e-01    -8.664822696364998e-01   
4.049000000000000e+09    4.936506940716312e-01    -8.641169698674833e-01   4.231118367406537e-05    -1.100038015481234e-04   -2.064993184506567e-04   -2.372897236355912e-05   4.869376445503088e-01    -8.672503046569872e-01   
4.050000000000000e+09    4.928840612278297e-01    -8.650454027320721e-01   2.395551386786884e-05    -7.548229019299330e-05   -8.694413795658023e-05   8.165496077196250e-05    4.866419197137529e-01    -8.678040984505884e-01   
4.051000000000000e+09    4.916851746167984e-01    -8.657840021490962e-01   6.116806797685344e-05    -8.261296476777752e-05   -7.812852806343035e-05   9.386919458550848e-05    4.864034272669951e-01    -8.682425498304795e-01   
4.052000000000000e+09    4.907517856986667e-01    -8.665159757495690e-01   3.734218442909874e-05    -1.731059803097152e-04   1.025200034730960e-04    1.408556356723556e-04    4.861082616695320e-01    -8.687885222407108e-01   
4.053000000000000e+09    4.894625890112722e-01    -8.672151107746253e-01   -7.630735392154321e-05   4.151999751437646e-05    1.531186680656133e-04    9.812402439932475e-05    4.860561820229526e-01    -8.690801278495905e-01   
4.054000000000000e+09    4.886755215824854e-01    -8.678497547337642e-01   -8.532676699988386e-05   1.096179263079558e-05    7.632136026043797e-05    4.436545036081865e-05    4.860367544685882e-01    -8.698058950820474e-01   
4.055000000000000e+09    4.877895230662369e-01    -8.686804247848731e-01   -8.914148117535692e-06   -9.053911554508996e-05   2.195437697345941e-05    1.783362043762640e-04    4.860524299961324e-01    -8.700097343096852e-01   
4.056000000000000e+09    4.867691672534992e-01    -8.694162781923811e-01   -1.222210965430397e-04   -6.691940195043575e-06   -6.566045654871115e-05   1.263705542886184e-04    4.855423896984629e-01    -8.702015790791471e-01   
4.057000000000000e+09    4.858584986123436e-01    -8.703190521838838e-01   -5.994011983997787e-05   7.909984509614229e-06    -2.929433412055407e-05   -8.414298386045184e-05   4.854743387036761e-01    -8.708392530768709e-01   
4.058000000000000e+09    4.844917230831154e-01    -8.708743564025784e-01   2.819445128907987e-05    -1.343560833951641e-04   1.117957081911537e-04    -6.392049920861640e-05   4.854165236366039e-01    -8.709858661109043e-01   
4.059000000000000e+09    4.838958471407908e-01    -8.718487066184737e-01   4.568797140545568e-06    1.244395660558620e-04    -7.563943803863206e-05   6.738369294610394e-05    4.847987487249858e-01    -8.710991993783447e-01   
4.060000000000000e+09    4.830750736549489e-01    -8.726203474906002e-01   1.153619449529361e-04    -4.304201362884387e-05   9.045163422020987e-05    -3.908060900656264e-06   4.853101872038745e-01    -8.711621674556058e-01   
4.061000000000000e+09    4.822590635572655e-01    -8.732882975778617e-01   -5.624416396540133e-05   -4.466187782993188e-05   6.073475714492597e-05    -9.679621400858752e-05   4.848363794435723e-01    -8.711228313874596e-01   
4.062000000000000e+09    4.813867604161984e-01    -8.740574037541420e-01   -1.506773721476780e-04   9.597380355296676e-06    -8.835086393134066e-05   1.112177610597289e-04    4.847146969082716e-01    -8.709499549771970e-01   
4.063000000000000e+09    4.804257227626155e-01    -8.746570457174393e-01   -8.378406341635687e-05   8.736359302273291e-07    8.545012329440709e-05    9.888590648948303e-05    4.841984388240702e-01    -8.710549664848550e-01   
4.064000000000000e+09    4.799285308123628e-01    -8.754836622597986e-01   -8.793439654400866e-05   -1.213639514595965e-05   -8.616835658569562e-05   2.520052048087656e-05    4.841509685925471e-01    -8.709401495924866e-01   
4.065000000000000e+09    4.790514330523129e-01    -8.765085408650635e-01   -1.129141425824379e-05   -1.539649618496002e-06   9.501678513752190e-05    3.200483333101782e-05    4.836852465052859e-01    -8.706397811353254e-01   
4.066000000000000e+09    4.784752957519955e-01    -8.772458823002914e-01   -1.996886664138358e-05   3.911045351735909e-05    1.828264859922193e-04    7.438183578609267e-05    4.831921769424895e-01    -8.707462315308837e-01   
4.067000000000000e+09    4.774979215090866e-01    -8.778192007795625e-01   -3.609994877712861e-05   6.333330645218455e-05    1.156476815588029e-04    -8.961328859369428e-05   4.827364792346111e-01    -8.701061592059776e-01   
4.068000000000000e+09    4.767865527441902e-01    -8.785456129707272e-01   1.877436251179705e-05    6.627825489111388e-05    -1.059121455452952e-04   1.146202976984686e-04    4.821502398612758e-01    -8.696941787708997e-01   
4.069000000000000e+09    4.761284710349323e-01    -8.790687529813900e-01   -7.901164737128649e-05   -4.732286647590761e-05   -5.746485519808347e-05   -1.456598265147596e-05   4.814777942170370e-01    -8.696226690422431e-01   
4.070000000000000e+09    4.752970750876545e-01    -8.800117326372356e-01   -6.294856668288376e-05   7.075686984397540e-05    8.460522857655225e-05    -9.113007452824454e-06   4.804393344710995e-01    -8.693984687710908e-01   
4.071000000000000e+09    4.751255321532536e-01    -8.808667790433656e-01   -3.520865521929073e-06   4.847347283071063e-06    -9.427604080299148e-05   -4.458887392776587e-05   4.796782706005862e-01    -8.690034928711379e-01   
4.072000000000000e+09    4.736916732047451e-01    -8.813369568960833e-01   -9.165362412106237e-06   1.086022154645517e-04    -3.806934457629496e-05   -8.255005978245373e-05   4.787823255841142e-01    -8.687499721540854e-01   
4.073000000000000e+09    4.729322485731325e-01    -8.819483348346984e-01   8.194620834253737e-05    1.374123992050989e-04    -7.377652747883609e-05   -1.200397934932798e-04   4.781449817874189e-01    -8.684672339740545e-01   
4.074000000000000e+09    4.722781647124895e-01    -8.830188621327053e-01   3.192235780581498e-05    -1.180293453437879e-04   3.323507625998100e-05    1.131104981353564e-04    4.766917489441250e-01    -8.679049697663809e-01   
4.075000000000000e+09    4.717596645407904e-01    -8.836994933728408e-01   -4.312554481052797e-06   4.627678766721213e-05    9.118644291452067e-05    9.048926696129590e-05    4.755014132358794e-01    -8.678155653692763e-01   
4.076000000000000e+09    4.706097254592033e-01    -8.845099504182463e-01   9.056179069917077e-05    1.076040081221597e-04    -7.865553623478120e-05   -4.198544397702834e-05   4.743138585279816e-01    -8.675954130356831e-01   
4.077000000000000e+09    4.698697165072110e-01    -8.851222042060696e-01   2.094737007100990e-04    -1.194382837876695e-04   -1.206965887804565e-04   -1.684032207248543e-05   4.731049911673815e-01    -8.672206445431504e-01   
4.078000000000000e+09    4.691614712381686e-01    -8.858560829505897e-01   1.365261595744038e-05    2.509166553356280e-05    -1.583569359904176e-04   1.303062732908138e-04    4.720030785030376e-01    -8.670668628152699e-01   
4.079000000000000e+09    4.683410523522410e-01    -8.869902501902451e-01   -2.683604683542329e-04   -1.281995142967943e-04   1.143024971078323e-04    2.217613165321051e-05    4.703293161030073e-01    -8.670741185178326e-01   
4.080000000000000e+09    4.677120348783026e-01    -8.874954569756875e-01   3.855459154655002e-05    -8.358751103573384e-05   9.752674203960262e-05    -3.067273440449347e-05   4.685726272807991e-01    -8.669902770862304e-01   
4.081000000000000e+09    4.670789833815315e-01    -8.879608739980807e-01   -2.027222291619451e-05   -6.993088374259645e-05   2.207805766718058e-04    6.054798215589951e-05    4.668400058491300e-01    -8.670507000916687e-01   
4.082000000000000e+09    4.662352524581722e-01    -8.883003234306897e-01   2.613191788142969e-05    5.661685146311021e-05    3.003838493739073e-05    1.718572679959312e-04    4.654576989614833e-01    -8.668921544102790e-01   
4.083000000000000e+09    4.654300198451613e-01    -8.892600574307055e-01   9.428658174922946e-05    -2.460985569873478e-05   8.182067987315949e-05    -9.530603172376734e-07   4.634363599667268e-01    -8.673775785052127e-01   
4.084000000000000e+09    4.645692184617666e-01    -8.904963326676848e-01   3.594069200439272e-05    6.412591048677839e-05    1.694316222426205e-04    -1.039470527204129e-04   4.617485891481609e-01    -8.673647657878211e-01   
