[Version] 2.0
! Rohde & Schwarz Vector Network Analyzer
! Rohde-Schwarz,ZNL20-2Port,1323001220200009,1.71.1.10-23.02.1.238
! 
! Port Assignments:
! Nominal Port -> Actual Test Port
! --------------------------------
!   1 -> 1
!   2 -> 2

! Created: GMT+2 2025-01-16 20:23:44

# Hz S RI R 50

[Number of Ports] 2
[Two-Port Data Order] 21_12
[Number of Frequencies] 16001

[Network Data] 
! freq[Hz]               S11[Re]                  S11[Im]                  S21[Re]                  S21[Im]                  S12[Re]                  S12[Im]                  S22[Re]                  S22[Im]                  
4.000000000000000e+09    5.519578232878932e-01    -8.357814628167570e-01   -3.887436977700139e-06   -3.477859120484367e-05   8.343237230537260e-05    1.353491159615840e-04    5.426288201404255e-01    -8.145011494264539e-01   
4.001000000000000e+09    5.505704267660327e-01    -8.367270525552327e-01   -1.438979679120033e-04   -1.949313459969363e-04   -3.707259223736765e-05   9.698750383688337e-05    5.406337885501519e-01    -8.155961203902509e-01   
4.002000000000000e+09    5.493859358874471e-01    -8.373509960358922e-01   -9.953895092402035e-05   1.671507475460946e-04    6.408691994672032e-05    -1.322180794272999e-04   5.384551816249229e-01    -8.167653982476012e-01   
4.003000000000000e+09    5.483456164288675e-01    -8.383218820586305e-01   -2.264707555705034e-04   -1.341090585416115e-04   2.409462574624811e-04    4.441245203517854e-05    5.364659394348096e-01    -8.174339791541487e-01   
4.004000000000000e+09    5.472458304603099e-01    -8.390610092533659e-01   5.165471559691349e-05    1.982675605123716e-05    4.002362400805415e-05    -8.063331053941382e-05   5.347112530055468e-01    -8.188170653514486e-01   
4.005000000000000e+09    5.456620668024260e-01    -8.399987429892634e-01   -6.831625081129218e-06   1.099040401356513e-04    2.041854443332894e-04    1.087476692156616e-04    5.325489710092027e-01    -8.200254722695761e-01   
4.006000000000000e+09    5.450581187931058e-01    -8.405989885405680e-01   -2.180019257687409e-04   1.042479880732871e-04    4.166446546563737e-05    1.694141223704404e-04    5.304437001354830e-01    -8.212016649959137e-01   
4.007000000000000e+09    5.438457608657243e-01    -8.417504735262274e-01   1.279561117788258e-04    4.239240917394926e-05    -1.658847965635281e-04   -1.590966024508906e-04   5.285118916783105e-01    -8.227094635145050e-01   
4.008000000000000e+09    5.423767406521609e-01    -8.426701211974460e-01   1.852721805925206e-04    8.444417808792468e-05    6.221247628587579e-05    -7.905527843825559e-05   5.269139068650883e-01    -8.236965636209568e-01   
4.009000000000000e+09    5.411576496928856e-01    -8.431668685034300e-01   -6.611595224497314e-05   -4.189917768442159e-05   5.718302939304370e-05    5.031939984285174e-05    5.250099502831040e-01    -8.249932115372250e-01   
4.010000000000000e+09    5.402432816271260e-01    -8.441836808081711e-01   2.399860244159634e-04    3.455828880250488e-05    8.721138191047964e-05    -1.390991194180813e-04   5.231808302990236e-01    -8.264048508484114e-01   
4.011000000000000e+09    5.390037164280885e-01    -8.449447143507691e-01   -9.031967750802737e-05   5.746862065636418e-05    2.932688792754814e-05    -8.560569270527039e-05   5.211803600088318e-01    -8.279152718142644e-01   
4.012000000000000e+09    5.376926880202572e-01    -8.459439813428792e-01   -3.448991130659955e-05   2.960468579158339e-05    -8.007468194181830e-05   -5.855809936340992e-05   5.196878701036477e-01    -8.293588825178180e-01   
4.013000000000000e+09    5.363630099231553e-01    -8.462030839528891e-01   -1.569935275975360e-04   1.044937090458651e-04    -5.175240493735014e-05   3.496958810089403e-06    5.179479779599697e-01    -8.307261136455625e-01   
4.014000000000000e+09    5.354646300372414e-01    -8.468605640155646e-01   1.409063807553004e-04    8.309915897296400e-05    -1.546635761850022e-05   1.213119730030775e-04    5.161124773989010e-01    -8.319337593218078e-01   
4.015000000000000e+09    5.344733183338899e-01    -8.475541646077722e-01   -1.611750352768420e-04   1.030208394044562e-04    4.379727871947017e-05    -1.360846256719100e-05   5.145940125675433e-01    -8.332385659611337e-01   
4.016000000000000e+09    5.328646831154408e-01    -8.481715780324981e-01   -1.672633547355830e-04   -2.172452137072662e-05   -5.883837070823959e-05   -2.675150591700988e-05   5.130588101212180e-01    -8.346706427186974e-01   
4.017000000000000e+09    5.321421340145263e-01    -8.485610953097683e-01   1.053880589033602e-04    4.540610735586596e-05    -8.228277763075117e-05   9.339840364004313e-05    5.116265518034813e-01    -8.360823681772540e-01   
4.018000000000000e+09    5.310016128884525e-01    -8.495444090455699e-01   5.729552258128888e-05    1.812988846185674e-05    -8.050196480466821e-05   -7.722094740769691e-05   5.106103834468465e-01    -8.373927003833693e-01   
4.019000000000000e+09    5.297363542197691e-01    -8.499251800468541e-01   -1.256558805166193e-04   -1.768381343615446e-05   1.330544101154126e-04    -3.663917415791181e-05   5.090386914484026e-01    -8.388675408249516e-01   
4.020000000000000e+09    5.287690064848789e-01    -8.506679845346499e-01   -1.375663313868801e-04   -1.458925373478851e-04   1.704312503654969e-05    6.075903140082397e-05    5.073767148362122e-01    -8.399580890517021e-01   
4.021000000000000e+09    5.278364225828134e-01    -8.510647000658853e-01   -1.040120954274896e-04   -1.604798271935661e-04   -9.226203962912658e-05   -6.720250714510441e-05   5.062745054654584e-01    -8.414160626848867e-01   
4.022000000000000e+09    5.261502037311399e-01    -8.514816367832615e-01   -4.023917561199873e-05   -6.555388492148826e-05   -9.135771569734286e-05   -7.764634499449508e-05   5.050583092146349e-01    -8.425863029849313e-01   
4.023000000000000e+09    5.255846203648021e-01    -8.520879072979091e-01   6.937378147534115e-05    9.334057542072281e-05    9.398535074046448e-05    -7.370079694193314e-05   5.042516016345657e-01    -8.437341635333313e-01   
4.024000000000000e+09    5.241159556658487e-01    -8.524114346319405e-01   6.983824194208168e-05    1.081032652854047e-04    2.855928118449943e-04    1.286018283753092e-04    5.030621834247165e-01    -8.449376086558615e-01   
4.025000000000000e+09    5.230585109062681e-01    -8.525376469653688e-01   -3.213422350262853e-06   1.677127338732331e-04    4.615971070278952e-05    -7.742484302236661e-05   5.019364642293987e-01    -8.462485586818048e-01   
4.026000000000000e+09    5.215502509023942e-01    -8.531307664328407e-01   6.802500912723037e-05    -3.384896987293491e-05   -7.839637084166257e-05   -2.311275973776189e-04   5.009224716843113e-01    -8.472392778896163e-01   
4.027000000000000e+09    5.205128045840963e-01    -8.538073333168984e-01   5.966263840521475e-05    1.252738583118712e-04    -5.656445965666880e-05   -4.167249968085505e-05   4.999998903774336e-01    -8.483060034425609e-01   
4.028000000000000e+09    5.192144842724437e-01    -8.541210493366103e-01   6.569462847190931e-05    9.903190929754401e-05    6.064877323495507e-05    -1.933274327824550e-05   4.989035578032718e-01    -8.495661568238003e-01   
4.029000000000000e+09    5.184884067921950e-01    -8.545299512394952e-01   -2.975467361953488e-05   1.344107763861913e-04    -2.972851913831443e-05   -5.792320848108147e-05   4.982031896890298e-01    -8.503532462074134e-01   
4.030000000000000e+09    5.171297924187140e-01    -8.550872909021049e-01   1.108012004444269e-04    -3.887652145876444e-05   3.576824726966154e-05    1.757817681959232e-04    4.974868466466190e-01    -8.516597781970688e-01   
4.031000000000000e+09    5.160685810863825e-01    -8.553909104253158e-01   3.699001600047773e-05    -2.897614239276215e-05   -3.720906453468284e-05   3.324353274695969e-06    4.967876761489344e-01    -8.527305410385388e-01   
4.032000000000000e+09    5.147992228129626e-01    -8.557749464293594e-01   9.049869013182265e-05    -1.504149200273695e-04   7.988686899036357e-05    4.733027513952460e-05    4.960312567808342e-01    -8.537926440883793e-01   
4.033000000000000e+09    5.135718775409427e-01    -8.557391762451275e-01   -6.488376649901104e-05   -1.895848557516218e-04   6.237987471004061e-05    4.000480123938637e-05    4.951668031170988e-01    -8.545202337575462e-01   
4.034000000000000e+09    5.122836507555037e-01    -8.563300347983257e-01   9.344973096626564e-05    1.315912201559893e-04    -7.193106389049637e-05   -2.478477324581995e-05   4.944999294985397e-01    -8.556655136120631e-01   
4.035000000000000e+09    5.107829570697694e-01    -8.567192067532180e-01   -1.692428244071996e-04   7.121370200651013e-05    -8.556518199065448e-05   1.325952790489797e-04    4.938645594741676e-01    -8.563217005460725e-01   
4.036000000000000e+09    5.097521752870753e-01    -8.568537368648185e-01   4.016386280617543e-05    -7.186975686418291e-05   1.143885844999563e-04    -1.064377473416899e-04   4.934517896222105e-01    -8.571840714374949e-01   
4.037000000000000e+09    5.083200213005166e-01    -8.575718918553316e-01   -1.298290345441612e-04   -6.386371589970148e-05   -3.682638809392790e-05   1.701998296619422e-05    4.927145876890989e-01    -8.580537851985538e-01   
4.038000000000000e+09    5.073028451600543e-01    -8.579205597458334e-01   -1.306406186528499e-04   -8.963644128282539e-05   6.280554453536867e-05    1.276150560105625e-04    4.923281011749055e-01    -8.590381576486146e-01   
4.039000000000000e+09    5.061043412535023e-01    -8.584235717270949e-01   -8.987617836604732e-05   -2.604704490156853e-04   1.297102755820883e-04    -1.765229525370462e-05   4.914921800995620e-01    -8.599423228762232e-01   
4.040000000000000e+09    5.048455376015252e-01    -8.588796934464940e-01   -8.664693689469122e-05   9.958615031102653e-05    1.618388031156866e-04    -1.539551366384786e-04   4.908121413556291e-01    -8.606426912819501e-01   
4.041000000000000e+09    5.035963298780066e-01    -8.591647351507721e-01   -1.001244956522316e-04   1.699341521957979e-04    -3.919226428859977e-05   4.872447625044438e-05    4.902163899355787e-01    -8.615576044748844e-01   
4.042000000000000e+09    5.020799892052471e-01    -8.599152750954128e-01   -5.329909123646992e-05   6.189603860352559e-05    -8.404497363257382e-06   -1.206630836494537e-05   4.900018407731712e-01    -8.623015714635428e-01   
4.043000000000000e+09    5.010475965161030e-01    -8.604336692788681e-01   1.438952357370438e-04    5.243541841443276e-05    -2.531787559000321e-06   -1.924528709979041e-04   4.891936438306860e-01    -8.628639160826118e-01   
4.044000000000000e+09    4.997244870892307e-01    -8.612359707242140e-01   1.444569328709627e-04    -5.139164229554886e-05   1.668048993872718e-04    2.465068171995316e-05    4.886838387832008e-01    -8.636403757226183e-01   
4.045000000000000e+09    4.983751053630509e-01    -8.616310141703527e-01   1.240453915827714e-04    -9.371483621417541e-05   2.974643841029858e-04    6.152821937107249e-05    4.884585340506628e-01    -8.643837188841942e-01   
4.046000000000000e+09    4.970547383306425e-01    -8.621092399679489e-01   9.898353400723174e-05    6.404845936500885e-05    -5.079958622498137e-06   5.246914075439360e-05    4.880767100262529e-01    -8.649025092944254e-01   
4.047000000000000e+09    4.961210852801651e-01    -8.628188634478174e-01   1.515901962075283e-04    -1.196589833733024e-04   -7.586823461720784e-05   6.144092442463966e-05    4.878121567518999e-01    -8.656376316501686e-01   
4.048000000000000e+09    4.950619760956808e-01    -8.635788064000520e-01   -4.526617678349707e-05   6.548607411297200e-05    3.831848465610732e-05    7.745349062866807e-05    4.874411701953751e-01    -8.665695828078137e-01   
4.049000000000000e+09    4.934829280520510e-01    -8.641466509310893e-01   1.980971406412415e-05    2.329644837238967e-05    1.372540619830055e-05    5.452947875516457e-05    4.872798521585608e-01    -8.671536575851497e-01   
4.050000000000000e+09    4.929340896514108e-01    -8.650657642613094e-01   -9.920200553984864e-05   -1.968049616855290e-04   5.192368707923151e-05    -9.527259164737931e-05   4.869596697458637e-01    -8.676622722108077e-01   
4.051000000000000e+09    4.916850276268245e-01    -8.657513490933660e-01   1.498990141611069e-04    -1.413648993663797e-04   -1.956022094833209e-04   2.446862771464973e-05    4.866360060598447e-01    -8.682767978498068e-01   
4.052000000000000e+09    4.908009959731730e-01    -8.667971578419237e-01   -9.039127437481708e-05   -2.068851013382752e-05   -8.283729970044971e-05   1.162929802573469e-04    4.862436397245888e-01    -8.688497828998137e-01   
4.053000000000000e+09    4.896470093085973e-01    -8.672821191602043e-01   4.647575246853083e-05    -3.400109288948079e-05   -4.304840844089913e-05   -1.730132762544901e-06   4.863210805045773e-01    -8.691025521979174e-01   
4.054000000000000e+09    4.887634318181743e-01    -8.678596321776055e-01   2.925156152532019e-05    -2.402333554187224e-04   1.108108306266040e-04    2.588162275099179e-04    4.862599281185820e-01    -8.694368482341457e-01   
4.055000000000000e+09    4.877768766680506e-01    -8.685913958994482e-01   -6.576189892390482e-05   -1.672456781274081e-04   1.233773753051251e-04    5.169510081699195e-06    4.859360435553896e-01    -8.700526658828974e-01   
4.056000000000000e+09    4.866931127313586e-01    -8.694808294937580e-01   -1.437597698245421e-05   -6.014148827580275e-05   6.735561792628585e-06    3.257182233685148e-05    4.857261888698974e-01    -8.701830299763442e-01   
4.057000000000000e+09    4.856981321641459e-01    -8.702459646425251e-01   1.573879895194322e-05    1.755815725208849e-04    -2.173803612984397e-05   -8.583100443388201e-05   4.855071399363768e-01    -8.707719873739950e-01   
4.058000000000000e+09    4.847684195495732e-01    -8.707398806874812e-01   9.692889630186930e-05    6.247175247289951e-05    -3.354361644140445e-05   1.452619687424782e-04    4.856435493794398e-01    -8.705529125839299e-01   
4.059000000000000e+09    4.840431375357443e-01    -8.718717557052843e-01   -6.144260381448746e-05   -1.067307193004068e-04   -4.072217430813057e-05   2.438219285126728e-05    4.849768665665665e-01    -8.710468955907150e-01   
4.060000000000000e+09    4.831563150975825e-01    -8.725584960149697e-01   -1.075990489099179e-04   -9.443222912548954e-05   -7.113693382873469e-05   8.795191062128024e-05    4.851817534265090e-01    -8.709918139698705e-01   
4.061000000000000e+09    4.824203874561707e-01    -8.732380910587575e-01   8.552633859955177e-05    -3.590274260500714e-05   8.197612940594141e-05    -1.927486071716172e-07   4.850465382700258e-01    -8.711293347154863e-01   
4.062000000000000e+09    4.816475407646956e-01    -8.741255345363799e-01   -1.839713279342551e-04   1.354460235270641e-04    -7.625682270087358e-05   1.766287379861095e-04    4.844893284988215e-01    -8.711065977127191e-01   
4.063000000000000e+09    4.807307328727199e-01    -8.747370177093734e-01   2.745305610454979e-05    -2.159676223431841e-05   8.533651029144247e-05    1.212915676806409e-06    4.842339993719683e-01    -8.710194837301044e-01   
4.064000000000000e+09    4.798620685319110e-01    -8.753680885790637e-01   3.091574812243073e-05    -1.177994830763638e-04   1.192829660485024e-04    -1.007304984232514e-04   4.842074990335736e-01    -8.707177773465626e-01   
4.065000000000000e+09    4.791455384479231e-01    -8.761857404779346e-01   -2.062745335002461e-04   8.372555447052027e-05    7.058980090558275e-05    -1.207554703811776e-04   4.837814681018511e-01    -8.706477354257385e-01   
4.066000000000000e+09    4.784502874620609e-01    -8.769428254600787e-01   1.011428613889590e-04    2.227389401949855e-04    1.055655320351912e-04    5.261317455128605e-05    4.833195884730737e-01    -8.705556089566250e-01   
4.067000000000000e+09    4.772157517389454e-01    -8.776752858386345e-01   -3.732623858464388e-05   -1.179535291718875e-04   2.245651806147940e-04    9.350894991046789e-06    4.829062427959965e-01    -8.700554045092428e-01   
4.068000000000000e+09    4.770904451212212e-01    -8.786402838719402e-01   2.217276664478870e-04    1.466779032232775e-04    -5.153305586716997e-05   -2.217187778626373e-05   4.823621674632450e-01    -8.697356144222059e-01   
4.069000000000000e+09    4.761904642501850e-01    -8.795545158494690e-01   8.683880986864699e-06    -1.405520801452680e-04   4.238758224477182e-05    -2.046711167328128e-05   4.816421310671216e-01    -8.695247555927816e-01   
4.070000000000000e+09    4.753790322502833e-01    -8.801437921811257e-01   1.762091385529988e-05    1.083686926207545e-04    -7.530561650274153e-05   -1.176541819716124e-04   4.805247423152407e-01    -8.693026017843324e-01   
4.071000000000000e+09    4.747828029790289e-01    -8.808257017227145e-01   1.449940327987936e-07    -1.232224938330443e-04   -1.048956475249912e-04   7.063576987315522e-05    4.800188858961204e-01    -8.690120980010331e-01   
4.072000000000000e+09    4.737943279588838e-01    -8.811770768855753e-01   2.462953168143460e-05    -1.224669777753004e-05   9.847473645712143e-05    -1.874127078511883e-05   4.789826486842269e-01    -8.685908612066705e-01   
4.073000000000000e+09    4.729549763093027e-01    -8.821872012418018e-01   -9.111353238363328e-05   -8.468829055579129e-06   -2.322940703082725e-04   -2.138623028203632e-05   4.780870085870159e-01    -8.683355925285358e-01   
4.074000000000000e+09    4.721798793998407e-01    -8.830868866316780e-01   -1.411947778826724e-04   -3.019582331078481e-05   -2.918870800456888e-05   1.857007084673422e-05    4.768524718472961e-01    -8.681641270710293e-01   
4.075000000000000e+09    4.716667711221006e-01    -8.837660171983130e-01   -2.349413337769388e-05   7.025020226513761e-06    3.558459472772148e-05    1.151599390978074e-04    4.757703699229713e-01    -8.679572207453182e-01   
4.076000000000000e+09    4.710509616671633e-01    -8.843633216520089e-01   4.627835982050630e-05    -1.053069257744263e-04   -1.521488988776626e-05   -7.854628490343837e-05   4.745517816463514e-01    -8.674716530078940e-01   
4.077000000000000e+09    4.699300145206262e-01    -8.852948790620416e-01   -5.815440956902940e-05   -2.870847327371052e-05   3.396054977006290e-05    1.048464215153418e-04    4.732984539752432e-01    -8.671914208847280e-01   
4.078000000000000e+09    4.696224673999143e-01    -8.860655303864877e-01   1.585016346407031e-05    -1.631606472741552e-04   9.625648660237193e-05    -9.128524408101171e-05   4.717431662587183e-01    -8.671039597523370e-01   
4.079000000000000e+09    4.688072009334307e-01    -8.863355630329293e-01   8.638415330755951e-05    1.712833941391866e-05    1.286298597068712e-04    1.148617146944508e-05    4.702506038211054e-01    -8.670126277862701e-01   
4.080000000000000e+09    4.678274204727308e-01    -8.873648499600610e-01   -2.019009102683921e-04   -1.528456894333934e-04   -4.468497880260214e-05   -7.430403639588798e-06   4.686513818499014e-01    -8.667939414640902e-01   
4.081000000000000e+09    4.671199562826361e-01    -8.883291315626296e-01   -1.281017435799131e-04   -4.736315222478686e-05   4.127187967464835e-05    8.778522460948439e-06    4.671389249133296e-01    -8.670557328426433e-01   
4.082000000000000e+09    4.667607202545896e-01    -8.882828736780038e-01   -7.752226091337292e-05   1.350723683102933e-04    -1.349494301315798e-04   1.159600748438752e-04    4.657258524455186e-01    -8.668774520686849e-01   
4.083000000000000e+09    4.657607703532924e-01    -8.892772409227171e-01   -3.266598235904704e-05   1.940374125231710e-05    4.437730370481791e-05    -8.252233853041015e-05   4.637736277831704e-01    -8.669478351861301e-01   
4.084000000000000e+09    4.648195629100590e-01    -8.903126974464525e-01   -3.895787516729747e-05   9.489074228499140e-05    1.753993858556928e-04    -1.147879432235800e-05   4.618739256879885e-01    -8.674006459608412e-01   
