[Version] 2.0
! Rohde & Schwarz Vector Network Analyzer
! Rohde-Schwarz,ZNL20-2Port,1323001220200009,1.71.1.10-23.02.1.238
! 
! Port Assignments:
! Nominal Port -> Actual Test Port
! --------------------------------
!   1 -> 1
!   2 -> 2

! Created: GMT+2 2025-01-16 20:24:09

# Hz S RI R 50

[Number of Ports] 2
[Two-Port Data Order] 21_12
[Number of Frequencies] 16001

[Network Data] 
! freq[Hz]               S11[Re]                  S11[Im]                  S21[Re]                  S21[Im]                  S12[Re]                  S12[Im]                  S22[Re]                  S22[Im]                  
4.000000000000000e+09    5.518336148616897e-01    -8.357134513227652e-01   6.496635794048042e-05    1.788384362890513e-04    -2.236829319089964e-05   -2.376360560128161e-05   5.427054119070031e-01    -8.143358353222362e-01   
4.001000000000000e+09    5.504328635970666e-01    -8.362763056509952e-01   -9.707941255814690e-05   -9.797032907396952e-05   1.210392698539363e-04    1.324272944600977e-04    5.405717659635986e-01    -8.155625944707441e-01   
4.002000000000000e+09    5.493609963719727e-01    -8.377500521958946e-01   -1.404395876554167e-04   -1.547731864609932e-04   -4.842629571327056e-05   3.284834829670670e-05    5.384802655759880e-01    -8.166701164151576e-01   
4.003000000000000e+09    5.486733411956903e-01    -8.383304198144873e-01   -9.195777392023454e-05   -2.285277779067073e-05   7.051339223044351e-05    -8.104874781392993e-05   5.367105397781653e-01    -8.175859173449475e-01   
4.004000000000000e+09    5.469957867555398e-01    -8.389307429383951e-01   -5.486076833600364e-05   8.783865494730409e-07    -1.198152874241534e-04   5.057158652489457e-05    5.345423897765199e-01    -8.189092008706363e-01   
4.005000000000000e+09    5.461424642669117e-01    -8.403162520796909e-01   -1.743267826505993e-04   -7.194343146314905e-05   7.556802775381763e-05    1.428546792480901e-04    5.328331156404136e-01    -8.198698676977800e-01   
4.006000000000000e+09    5.446424749356845e-01    -8.407890444095386e-01   -1.251139160485593e-04   -2.439975521747021e-05   1.571979044909615e-04    7.187767923696163e-05    5.306148952233348e-01    -8.210727934154253e-01   
4.007000000000000e+09    5.433814976838093e-01    -8.416427616743138e-01   -8.152749877741827e-07   1.196213937599784e-04    -1.154443513853963e-04   -1.438724014539123e-04   5.286823863454412e-01    -8.226085104548047e-01   
4.008000000000000e+09    5.427163839448140e-01    -8.426675376869545e-01   2.295587087124820e-04    -8.064529036644349e-05   -1.773195386690642e-04   -1.703794502834595e-04   5.270328693298599e-01    -8.238635869752451e-01   
4.009000000000000e+09    5.412608648668848e-01    -8.429723424092491e-01   1.529554666260424e-04    -1.342114526132811e-04   -1.447175865130371e-04   1.256051667106602e-05    5.248499501292980e-01    -8.250725881140697e-01   
4.010000000000000e+09    5.402745621583319e-01    -8.438984167363349e-01   -6.303780433902254e-05   -2.198966846474277e-04   -3.243239686602656e-05   7.811749175733171e-06    5.228887650892633e-01    -8.260947208880038e-01   
4.011000000000000e+09    5.388150069644903e-01    -8.451540307877042e-01   -1.881983228160867e-04   -5.325656261794428e-05   5.759513784706283e-05    1.141783358647907e-04    5.213136317954143e-01    -8.277735878092827e-01   
4.012000000000000e+09    5.379050929032508e-01    -8.459265170200935e-01   8.603919787995759e-05    9.744730133415486e-05    -7.280887620302786e-05   6.091627656209782e-05    5.194701979570178e-01    -8.293860070249464e-01   
4.013000000000000e+09    5.366893243502707e-01    -8.462203138949669e-01   -4.304537213377147e-05   9.767001009506766e-05    2.870839604395804e-05    1.052873359599602e-04    5.181867335870255e-01    -8.306117516404914e-01   
4.014000000000000e+09    5.356624399806458e-01    -8.469016377213938e-01   7.248475260076325e-05    6.078307016826979e-05    -4.584801524719871e-05   -2.064062180838711e-05   5.163648431309983e-01    -8.319570152408499e-01   
4.015000000000000e+09    5.342053825829103e-01    -8.475108989563911e-01   -5.717334352499842e-05   7.667432812245738e-05    -1.023755850220676e-04   -5.898676656591759e-05   5.148999133054408e-01    -8.333625188298975e-01   
4.016000000000000e+09    5.333090545871022e-01    -8.483003475197736e-01   8.478118458020656e-05    -9.053496058654727e-05   9.147210472495955e-05    -8.865841889530653e-05   5.133437788503431e-01    -8.348324741335884e-01   
4.017000000000000e+09    5.323387831863414e-01    -8.489838010576475e-01   -4.836512866907584e-05   1.140147929416142e-04    -3.061565643398413e-05   6.007286274549360e-05    5.115243204433410e-01    -8.360806765418779e-01   
4.018000000000000e+09    5.308600691850065e-01    -8.495956860574529e-01   -1.000645400716279e-04   5.859152507420204e-05    -7.971982137540478e-05   1.004830722437079e-04    5.103366468022849e-01    -8.374070360856638e-01   
4.019000000000000e+09    5.300202705214112e-01    -8.497845178749810e-01   9.152137045158119e-05    1.173654206969948e-05    -1.472952623688159e-05   -6.729382992942200e-05   5.089738914292771e-01    -8.392035279267341e-01   
4.020000000000000e+09    5.286148126636421e-01    -8.503761377838925e-01   1.780194853569629e-04    -1.556005229892065e-04   9.775925597244131e-05    1.477842362223984e-04    5.077057876143714e-01    -8.403194679770181e-01   
4.021000000000000e+09    5.275055469231223e-01    -8.510503559246669e-01   -1.008675404927232e-04   1.013155810319305e-05    -1.124739266683109e-04   1.904645477254159e-04    5.064237691469474e-01    -8.410896185256060e-01   
4.022000000000000e+09    5.262724472237748e-01    -8.515031681524765e-01   -1.056946564873956e-04   -1.243012682126046e-04   -2.836445496953031e-04   -1.047562786227535e-04   5.052591556003145e-01    -8.426502767351354e-01   
4.023000000000000e+09    5.254657854916481e-01    -8.520714096743551e-01   -3.871325492410009e-05   -9.087233139522068e-05   1.651181658701915e-04    -1.888004527579340e-04   5.039119091186051e-01    -8.437146691850537e-01   
4.024000000000000e+09    5.242285380598117e-01    -8.522999658991502e-01   6.366975137634042e-05    1.090532713290053e-04    -1.900284703360457e-04   1.351200948907133e-04    5.033425339478611e-01    -8.450037732793013e-01   
4.025000000000000e+09    5.230832992743948e-01    -8.529669274830752e-01   1.934333659426279e-05    1.769047178611215e-04    7.467521598721620e-06    -1.544798816728400e-04   5.019567102883666e-01    -8.463052532029962e-01   
4.026000000000000e+09    5.219467501584331e-01    -8.533477712847745e-01   -5.085290984462735e-05   1.672593313332198e-04    6.743561378496634e-05    8.482858553258899e-05    5.013438140500680e-01    -8.472622953558175e-01   
4.027000000000000e+09    5.207508273936402e-01    -8.535065505162638e-01   5.156097313517942e-05    1.706643913284566e-04    -2.276958876562637e-04   1.058030709071350e-04    5.000560540564122e-01    -8.483775770333278e-01   
4.028000000000000e+09    5.196433638804391e-01    -8.538911748561252e-01   -5.193108258226827e-05   1.319717631915232e-05    -6.980260902850877e-05   -8.642018711968806e-05   4.992697052027623e-01    -8.496619003332625e-01   
4.029000000000000e+09    5.182330585569740e-01    -8.545496598108335e-01   -1.260398099012129e-05   2.042232167824520e-05    -5.621636005520479e-05   1.092123334881386e-04    4.984546715147660e-01    -8.505748971391156e-01   
4.030000000000000e+09    5.172807620141908e-01    -8.548136800977763e-01   2.360794712147449e-05    8.598939730337071e-05    -1.532393327111742e-04   1.358386112640510e-04    4.974405440151625e-01    -8.515373813846727e-01   
4.031000000000000e+09    5.160314870634252e-01    -8.553387479713860e-01   3.559536475830030e-05    -9.624283382090789e-05   1.159004114411558e-04    -3.013053698740382e-05   4.967242689726080e-01    -8.525589076720755e-01   
4.032000000000000e+09    5.147162096724034e-01    -8.552326107026456e-01   -3.348131987301125e-05   -1.382822724850886e-04   -1.542440521663709e-04   -6.179676922310386e-05   4.960595636962199e-01    -8.535691737985036e-01   
4.033000000000000e+09    5.134705072064315e-01    -8.558732487254215e-01   3.445978163899566e-05    -1.406630642766492e-04   -4.227499274659811e-05   -1.743535671348241e-04   4.952307579400018e-01    -8.542681219149000e-01   
4.034000000000000e+09    5.122278357132720e-01    -8.564351533716676e-01   -5.569271652800867e-05   1.104049785649385e-04    -1.089011783371674e-04   1.246181910846199e-04    4.943847222710478e-01    -8.554943413168840e-01   
4.035000000000000e+09    5.109961804818056e-01    -8.567548203527711e-01   8.034959795141051e-05    -1.366168167440510e-04   7.061167327194056e-06    -1.846647963071615e-04   4.940659555653305e-01    -8.563917294647347e-01   
4.036000000000000e+09    5.096698164879685e-01    -8.568383128464574e-01   -1.268462686254438e-04   -9.211875793689413e-05   6.784965993184597e-05    -5.111864641106073e-05   4.932124906531237e-01    -8.575024535051524e-01   
4.037000000000000e+09    5.084628893913421e-01    -8.574601837795379e-01   1.497498011893595e-04    1.094850790477214e-04    3.564740899390689e-05    8.463863772711729e-05    4.923560718815265e-01    -8.580005519795717e-01   
4.038000000000000e+09    5.072639923623827e-01    -8.578271165813586e-01   -2.890225635406571e-04   -1.081178983683254e-04   -1.011707600135518e-04   1.932089579616483e-05    4.920752295027221e-01    -8.589402627653226e-01   
4.039000000000000e+09    5.059673243745867e-01    -8.582108607566578e-01   3.784786644723275e-05    -7.393514224749653e-05   -2.702345231319901e-05   -2.176960214196278e-04   4.915584040707339e-01    -8.596448704717566e-01   
4.040000000000000e+09    5.046022288891506e-01    -8.587948817324164e-01   1.017991493404968e-04    9.052128059494802e-06    3.321256458040618e-05    -1.376687313265557e-04   4.909716909141576e-01    -8.605159161132073e-01   
4.041000000000000e+09    5.032030390816934e-01    -8.592650573918078e-01   5.065828228361122e-05    7.198725841933021e-05    -1.299187356843660e-04   7.281891644317788e-05    4.903722727125979e-01    -8.614869898216274e-01   
4.042000000000000e+09    5.019586053264585e-01    -8.598969280152003e-01   1.529159984156097e-04    -1.968106137429386e-05   -1.468357260298015e-04   -8.180525822482453e-05   4.902231137728438e-01    -8.620183823901787e-01   
4.043000000000000e+09    5.010898806356507e-01    -8.605922141302729e-01   3.264723961731015e-05    1.319776708535332e-04    -2.860281955121207e-04   -1.042174162771591e-04   4.893634224201919e-01    -8.627866168495979e-01   
4.044000000000000e+09    4.997305894603415e-01    -8.613427365565932e-01   -7.785047046071362e-05   -1.082044233915834e-04   1.900232485922304e-04    3.274124835393430e-05    4.891281547251859e-01    -8.638715834131210e-01   
4.045000000000000e+09    4.985620637310695e-01    -8.616555779366086e-01   -3.066797733879949e-04   1.415229268459955e-04    7.686760909483915e-05    -1.804392059375936e-04   4.884641597133834e-01    -8.643301420438799e-01   
4.046000000000000e+09    4.973321316108139e-01    -8.622075705179434e-01   1.022538597504072e-04    1.615793472122938e-04    -1.305084541300098e-04   4.253410978992275e-05    4.882432728277730e-01    -8.651182395646807e-01   
4.047000000000000e+09    4.959837157446542e-01    -8.630378370980943e-01   -1.737176178561422e-04   -3.529370326341416e-05   -1.342806498346499e-04   1.842093997774305e-05    4.877701173629220e-01    -8.654108167994944e-01   
4.048000000000000e+09    4.949190812166913e-01    -8.634815510637127e-01   -1.776575237580017e-05   1.187252432596685e-04    9.516328149525419e-05    -5.359434615420582e-05   4.873614993069430e-01    -8.665246162161993e-01   
4.049000000000000e+09    4.939114383924785e-01    -8.642487881853309e-01   6.869936477979291e-05    -9.452248657931370e-06   -7.961038519940962e-05   1.486257854228397e-04    4.872631739249119e-01    -8.669587164095027e-01   
4.050000000000000e+09    4.927746518211047e-01    -8.649811336642044e-01   1.622873729072367e-05    2.880538862796937e-05    -2.419112960597291e-05   -1.173819163824011e-04   4.871882674994956e-01    -8.675528794153635e-01   
4.051000000000000e+09    4.918251044833670e-01    -8.657758929764763e-01   1.229999789900792e-04    7.734126673514815e-05    -3.075010728945321e-05   -6.155325722272343e-05   4.866553395363959e-01    -8.679645772855060e-01   
4.052000000000000e+09    4.905147667249045e-01    -8.665653534534294e-01   -4.627226793172883e-05   5.913402133013401e-05    -1.051139517566186e-04   1.835265574643551e-04    4.861220521768263e-01    -8.685007022032242e-01   
4.053000000000000e+09    4.896163332658534e-01    -8.671486946801031e-01   -1.304050602591503e-05   2.042484752856828e-05    -3.689761454800405e-05   1.383831804547144e-04    4.863878271655340e-01    -8.691208489929637e-01   
4.054000000000000e+09    4.883301427764549e-01    -8.680013267081524e-01   -3.248205637518913e-05   6.154265089668841e-05    1.581612378365945e-06    -3.182776398212113e-05   4.862519397088486e-01    -8.695266545499404e-01   
4.055000000000000e+09    4.878265656846136e-01    -8.684663250121901e-01   -6.091794112066377e-05   -1.166476011242474e-05   4.285279359441650e-05    -4.270620888159892e-05   4.861671573631074e-01    -8.700984117167945e-01   
4.056000000000000e+09    4.866079703372171e-01    -8.695573903879245e-01   -5.533660756942923e-05   6.719839772735848e-06    1.134852125917681e-04    1.930226062294224e-05    4.857240196416655e-01    -8.704146221365602e-01   
4.057000000000000e+09    4.857678385168943e-01    -8.701319860573441e-01   2.910613913208824e-05    -2.962550346277321e-05   4.965760853720595e-05    -1.892797595391273e-04   4.857014062804335e-01    -8.703952738483429e-01   
4.058000000000000e+09    4.850036213236575e-01    -8.707148846280249e-01   -1.167875969647493e-04   5.965411678473632e-05    -2.896147286741162e-05   -2.433221426911959e-05   4.854073629970202e-01    -8.705946717243717e-01   
4.059000000000000e+09    4.839400512876829e-01    -8.717219468986451e-01   1.033260853244044e-04    1.589376748336212e-05    2.035277495065339e-04    1.825240314782016e-04    4.854236343179708e-01    -8.710308052566179e-01   
4.060000000000000e+09    4.832639793093418e-01    -8.725136748763367e-01   -9.578382091666413e-05   3.381682596028957e-06    -3.073156949705312e-05   -8.270335872173199e-05   4.851660598917916e-01    -8.709498670691832e-01   
4.061000000000000e+09    4.825582799030764e-01    -8.730207044482698e-01   -2.014594130084742e-05   4.004738125888390e-05    -1.380696526161323e-04   -7.197324855013797e-05   4.848881229473797e-01    -8.711481608618303e-01   
4.062000000000000e+09    4.813611517927490e-01    -8.739572007044077e-01   1.687730884246413e-04    2.335896760031783e-05    -5.318333758516481e-05   -8.760381507109706e-05   4.847930266528172e-01    -8.709096433805938e-01   
4.063000000000000e+09    4.806049650998334e-01    -8.748347985178455e-01   5.846258768923225e-05    5.915978526944822e-05    6.058645209286421e-05    3.355283630850047e-05    4.843682995273332e-01    -8.709168643509553e-01   
4.064000000000000e+09    4.799295200828388e-01    -8.753529677459730e-01   -6.501320749955531e-05   -2.878630293614720e-05   5.522505982073998e-05    6.336460195735480e-05    4.843177897780374e-01    -8.706446621251748e-01   
4.065000000000000e+09    4.791347467234621e-01    -8.763838182165471e-01   -7.335263233440746e-05   -1.094764227979049e-04   -5.427706585780078e-05   -3.144502133647529e-05   4.840279514251718e-01    -8.704989409349191e-01   
4.066000000000000e+09    4.785346958083667e-01    -8.770208472163279e-01   -1.824424671719867e-04   -3.112889082823714e-05   1.217023767186314e-08    -1.216366789405053e-04   4.831737848659032e-01    -8.705148672668261e-01   
4.067000000000000e+09    4.775033243038331e-01    -8.776496367109476e-01   4.280140980160254e-05    -6.448371351995636e-05   9.317804051066983e-05    -1.393662548758806e-05   4.825292353219222e-01    -8.698936314279457e-01   
4.068000000000000e+09    4.769597694001492e-01    -8.783596812366535e-01   1.268056472249199e-04    -3.828047247410517e-05   -1.644308496472383e-05   1.481628212137740e-04    4.821456560334407e-01    -8.696733446014080e-01   
4.069000000000000e+09    4.763101478106636e-01    -8.795740341073707e-01   1.056133174346496e-04    3.569341561429124e-06    -1.452073248265732e-04   1.438777548797168e-04    4.816674043108461e-01    -8.694655606183823e-01   
4.070000000000000e+09    4.752182455124392e-01    -8.800534693355888e-01   -1.756847070620105e-05   3.781565445869690e-05    8.355437840980161e-05    -7.832749060202074e-05   4.807742415005741e-01    -8.689158568174989e-01   
4.071000000000000e+09    4.750617144931669e-01    -8.809284437378399e-01   1.327656107941921e-04    -1.246933076441760e-04   1.783630429471238e-05    -1.632647045861116e-04   4.799490795672556e-01    -8.689124123957961e-01   
4.072000000000000e+09    4.739411534732511e-01    -8.812710513469163e-01   8.069416370221094e-05    -2.611314356547971e-05   -1.248166993662697e-04   -2.078588472736555e-05   4.792816684684846e-01    -8.684619646279562e-01   
4.073000000000000e+09    4.730212347359565e-01    -8.820966681361256e-01   -1.026097431499392e-04   -9.007116349071721e-06   -1.261797346750217e-04   1.447280818082771e-04    4.780844853304698e-01    -8.682731422214622e-01   
4.074000000000000e+09    4.726010193116141e-01    -8.829653578939889e-01   4.199855842169680e-05    1.462459823450930e-04    -7.763346353511077e-05   -5.474394769589603e-05   4.771237438102414e-01    -8.678439833378403e-01   
4.075000000000000e+09    4.716209384605069e-01    -8.836655866297016e-01   -5.755946180410737e-05   -6.103393257228128e-05   -8.999720692686731e-05   4.846687618374149e-05    4.757912429930428e-01    -8.672719209112212e-01   
4.076000000000000e+09    4.709208741007405e-01    -8.844067491467367e-01   5.024030692361649e-05    -8.010446278440776e-05   -1.039317752150479e-04   -1.353340997180165e-04   4.746652753190618e-01    -8.673276800268163e-01   
4.077000000000000e+09    4.701292028864451e-01    -8.849577825119120e-01   1.633629339575777e-04    4.412270516276226e-05    3.012237168882618e-05    2.163059595407609e-05    4.732623766042564e-01    -8.671795662124953e-01   
4.078000000000000e+09    4.693049790648985e-01    -8.860058042452270e-01   1.840685834921621e-05    -3.457901032053894e-05   1.584947128035810e-04    -1.241488478472335e-04   4.719270180002426e-01    -8.668057386615732e-01   
4.079000000000000e+09    4.687431781017954e-01    -8.867638543392191e-01   -1.759656025369936e-04   1.912906180760220e-04    5.136290885530149e-05    3.796799908035425e-07    4.703252025032639e-01    -8.669846660145222e-01   
4.080000000000000e+09    4.677879985462027e-01    -8.870443864240958e-01   -4.185762216023471e-05   3.132924294828114e-05    -1.654804251128458e-04   2.782807103987717e-05    4.689889075943691e-01    -8.669913924334264e-01   
4.081000000000000e+09    4.673106537327331e-01    -8.880556362074600e-01   -9.602991808497050e-05   -6.083651205677147e-05   4.247297463968287e-05    5.106828150044395e-05    4.670013275844559e-01    -8.668364143135169e-01   
4.082000000000000e+09    4.666176748835534e-01    -8.882183825079272e-01   1.088923131918039e-05    8.620383600391837e-05    1.171270793807600e-04    5.289954980256967e-05    4.654376724557154e-01    -8.664305362098378e-01   
4.083000000000000e+09    4.660880847001571e-01    -8.892811707920273e-01   -1.621201090461145e-05   3.969326578502642e-05    -1.465169013460145e-04   6.227853699811530e-05    4.635493046841245e-01    -8.668244307523749e-01   
4.084000000000000e+09    4.649671152159796e-01    -8.901100281629731e-01   9.545681275725043e-05    -3.493311785504132e-05   8.181135337572716e-05    1.522260036198402e-05    4.621402771154701e-01    -8.673063946056329e-01   
