[Version] 2.0
! Rohde & Schwarz Vector Network Analyzer
! Rohde-Schwarz,ZNL20-2Port,1323001220200009,1.71.1.10-23.02.1.238
! 
! Port Assignments:
! Nominal Port -> Actual Test Port
! --------------------------------
!   1 -> 1
!   2 -> 2

! Created: GMT+2 2025-01-16 20:24:29

# Hz S RI R 50

[Number of Ports] 2
[Two-Port Data Order] 21_12
[Number of Frequencies] 16001

[Network Data] 
! freq[Hz]               S11[Re]                  S11[Im]                  S21[Re]                  S21[Im]                  S12[Re]                  S12[Im]                  S22[Re]                  S22[Im]                  
4.000000000000000e+09    5.520466907800649e-01    -8.356617915893849e-01   1.211424247976709e-04    9.353753400445332e-05    5.050856230203778e-05    1.241482521867560e-04    5.432566802596287e-01    -8.141043996082973e-01   
4.001000000000000e+09    5.510257065466739e-01    -8.366993735693055e-01   7.702915413513528e-05    1.670854736152018e-04    5.614415559224304e-05    -1.143616741569615e-04   5.411136207888794e-01    -8.152959087344385e-01   
4.002000000000000e+09    5.493207264357772e-01    -8.373670681434886e-01   -1.735246766898717e-05   -1.991865323520941e-04   1.036131076924519e-05    2.834886749997651e-05    5.387975577134032e-01    -8.161364295696373e-01   
4.003000000000000e+09    5.481633745021551e-01    -8.382742271843013e-01   -9.752826389713993e-05   8.674605222924660e-05    8.177386257241178e-05    1.547509775158682e-04    5.368157265684343e-01    -8.170994094959545e-01   
4.004000000000000e+09    5.475600918389609e-01    -8.391851018072399e-01   9.047928809707340e-05    2.868825693937863e-05    -6.691942429026391e-05   1.176648019571954e-05    5.347995675330506e-01    -8.184608271620279e-01   
4.005000000000000e+09    5.460331232989688e-01    -8.401613175482853e-01   3.597926749995708e-04    5.159430338008522e-05    6.736069632246836e-05    -4.103284305427251e-05   5.329219557538064e-01    -8.196214135610330e-01   
4.006000000000000e+09    5.448431347707847e-01    -8.409145832877861e-01   8.299970822770152e-05    -2.371148787311254e-05   -1.473595580674847e-05   9.405864223933276e-05    5.309260404888124e-01    -8.210331316631632e-01   
4.007000000000000e+09    5.435889562097351e-01    -8.415853090499991e-01   -5.932196771496514e-05   -4.801587773224838e-05   1.322142245194783e-04    9.050410193198571e-07    5.289927794805080e-01    -8.223000117122746e-01   
4.008000000000000e+09    5.426070061941557e-01    -8.426056921678889e-01   6.079499813889935e-05    -1.966461212371600e-04   -1.326423017831053e-04   1.499391730363484e-04    5.271660115469865e-01    -8.237226580650070e-01   
4.009000000000000e+09    5.418709054608674e-01    -8.431442028303398e-01   6.332733443402012e-05    -1.249967144707521e-04   1.437200650240703e-05    1.079619498450281e-04    5.252427772253768e-01    -8.244919667627056e-01   
4.010000000000000e+09    5.401293608874954e-01    -8.440299672937909e-01   6.121751270348261e-05    8.266554097907060e-05    5.728737203064346e-05    -4.309514737274884e-05   5.235525656207248e-01    -8.263096539586910e-01   
4.011000000000000e+09    5.392526300110896e-01    -8.447634502625740e-01   1.889332702776982e-04    3.017491187248289e-04    2.354747758279035e-05    7.779622719563477e-05    5.213814970559318e-01    -8.273904424060443e-01   
4.012000000000000e+09    5.380041279298993e-01    -8.452633663001585e-01   1.104644836271311e-04    -1.665135123249024e-04   -1.794749255432045e-04   -4.797489398713653e-05   5.200438473548823e-01    -8.289844621374893e-01   
4.013000000000000e+09    5.371558126044021e-01    -8.462947626895350e-01   -2.243900269430851e-04   -5.766986153096424e-05   1.475970985366858e-05    -3.701416236065953e-05   5.182454512927268e-01    -8.301497300430138e-01   
4.014000000000000e+09    5.356038179157995e-01    -8.469168375788673e-01   8.679601408151223e-06    4.151932856127760e-05    -2.852719987805155e-05   2.261833649889597e-04    5.166470513756364e-01    -8.318659486780218e-01   
4.015000000000000e+09    5.342759297453303e-01    -8.475748280961604e-01   1.812423445559853e-05    -1.969065702370417e-05   -1.200079263097456e-05   1.176768004140741e-04    5.148913656143572e-01    -8.331900583903649e-01   
4.016000000000000e+09    5.333104121464041e-01    -8.484449023557505e-01   -5.741443264635146e-06   -7.898333305582925e-05   -1.008829046033765e-06   8.234771622359839e-05    5.133660975325783e-01    -8.346529947647511e-01   
4.017000000000000e+09    5.322640568378746e-01    -8.485074184391996e-01   -1.353321301288557e-04   8.247663590473126e-05    -8.347231444682579e-05   -3.093127529740755e-05   5.120292664332181e-01    -8.360710396716055e-01   
4.018000000000000e+09    5.312659826084853e-01    -8.492819015188637e-01   1.302506265281384e-05    -1.395801032019014e-05   -2.380299996000877e-05   4.022996971706524e-05    5.105454623484831e-01    -8.371741530070049e-01   
4.019000000000000e+09    5.300115500433600e-01    -8.497961502944107e-01   -2.273485415201140e-05   -1.231698127867801e-04   -1.091471088244598e-04   1.907007371385741e-04    5.092811553042432e-01    -8.384760339201748e-01   
4.020000000000000e+09    5.288366528631807e-01    -8.504511706373430e-01   -1.284577972110334e-04   -6.415907696273194e-05   6.763370348630619e-06    1.639880787444007e-04    5.082328517955290e-01    -8.400936768896884e-01   
4.021000000000000e+09    5.277333321554767e-01    -8.508759046665211e-01   -1.631680850907958e-04   6.319928057736423e-05    1.103916304565442e-05    -1.131986781060181e-05   5.067716225045688e-01    -8.408514190347580e-01   
4.022000000000000e+09    5.264587626673396e-01    -8.514618274186841e-01   -1.727142280234262e-04   -1.335194033554351e-04   6.158691195990987e-05    1.860217582479240e-05    5.058325982720935e-01    -8.423469058007819e-01   
4.023000000000000e+09    5.254166921958473e-01    -8.518030718536688e-01   1.516218023130391e-04    -5.627912340514927e-05   -6.331014898237493e-05   4.870871300391267e-05    5.043381527527140e-01    -8.438312869528078e-01   
4.024000000000000e+09    5.242182382695809e-01    -8.521166612430630e-01   2.809972417279372e-05    2.172390940106176e-04    1.891096396535219e-05    9.622770980168634e-06    5.036159697617995e-01    -8.446248503895710e-01   
4.025000000000000e+09    5.233632458701956e-01    -8.528861283024906e-01   3.867691981270125e-05    1.824775982718183e-04    -7.716788890034186e-05   -7.262156930126155e-05   5.024802423541128e-01    -8.461679832747303e-01   
4.026000000000000e+09    5.220109655718635e-01    -8.532523241237303e-01   8.147786272810798e-05    1.971945484076630e-04    1.710388100283342e-05    -6.599218063168836e-05   5.013899085041851e-01    -8.472856378543024e-01   
4.027000000000000e+09    5.209843984648365e-01    -8.534350433474867e-01   -6.065182249797827e-05   1.579844827635758e-04    -2.054997762090709e-04   1.215271350383491e-04    5.002214910367673e-01    -8.482497781134323e-01   
4.028000000000000e+09    5.196752972982840e-01    -8.538637957485868e-01   -1.302641847210039e-04   -9.494658800055518e-05   4.990858002576325e-05    -2.691781250735009e-05   4.995018623682779e-01    -8.495964192992498e-01   
4.029000000000000e+09    5.187188966720324e-01    -8.545352217532425e-01   1.965530865009446e-05    -6.556268594203338e-05   1.081755531846075e-04    6.128756904367650e-05    4.984882639801618e-01    -8.505068648435334e-01   
4.030000000000000e+09    5.174621839975998e-01    -8.547158477592601e-01   -7.994129466602273e-05   -7.658265260103146e-05   -1.171571470361994e-04   -5.875087792233788e-05   4.979478795675916e-01    -8.514933380755689e-01   
4.031000000000000e+09    5.161848228610582e-01    -8.554083165184230e-01   -1.474450784091482e-04   2.144687289780919e-04    1.844255534248699e-04    -7.798072895268410e-05   4.971630430341419e-01    -8.523005294238921e-01   
4.032000000000000e+09    5.151144921085221e-01    -8.555978199583744e-01   8.805198090258724e-05    1.577758585208448e-04    8.159787390779224e-05    5.854201541832014e-06    4.963214836288440e-01    -8.535136020316091e-01   
4.033000000000000e+09    5.137688290014167e-01    -8.557528228700875e-01   5.644118548408399e-05    2.020243381606563e-05    4.721660013144502e-05    -1.931865002162948e-04   4.953044328757377e-01    -8.543195219811152e-01   
4.034000000000000e+09    5.125426501239586e-01    -8.564329257101650e-01   1.614690447437025e-05    -1.054819098231527e-04   -1.751004933837391e-04   5.472783134277350e-05    4.946681606466368e-01    -8.553279040190389e-01   
4.035000000000000e+09    5.110997356791525e-01    -8.566215589550039e-01   -5.627717313397432e-05   1.245545403047135e-05    8.518051381727813e-05    6.786686177150956e-05    4.943720669698721e-01    -8.561358712661052e-01   
4.036000000000000e+09    5.100014868550693e-01    -8.570658972499714e-01   -1.324458649625346e-05   5.560145047600705e-05    -1.132918174798862e-05   7.299717529245177e-05    4.936352239527260e-01    -8.571809545354437e-01   
4.037000000000000e+09    5.085790259266917e-01    -8.575065766270712e-01   -1.254707200752489e-04   -1.754061227613805e-04   1.166097855341578e-04    8.514488337619433e-05    4.929944261198520e-01    -8.578012008663859e-01   
4.038000000000000e+09    5.075634236151931e-01    -8.579008164726586e-01   -3.534127493838085e-05   1.633928670447485e-04    -1.438980442480680e-04   2.264804584213733e-05    4.923821480927003e-01    -8.587800699411902e-01   
4.039000000000000e+09    5.061015312350478e-01    -8.583708171790015e-01   9.225624611925435e-05    3.170714569269331e-06    3.081230322652112e-05    1.675194896552577e-04    4.914261724937091e-01    -8.594699337249684e-01   
4.040000000000000e+09    5.049068716396489e-01    -8.588252935284275e-01   1.149825072432977e-04    2.462815295259393e-04    -1.216566992573208e-04   -2.057495266338282e-04   4.911153395532545e-01    -8.604734404925223e-01   
4.041000000000000e+09    5.035558874717709e-01    -8.592747927123738e-01   -2.312717595461163e-04   2.266064504546957e-04    4.936698189843605e-05    -1.135975055923489e-04   4.906905647413383e-01    -8.612498194609528e-01   
4.042000000000000e+09    5.024352177496589e-01    -8.599736484718072e-01   -1.490501307018008e-04   4.953096275856334e-05    5.604565333297856e-05    5.423023052712909e-05    4.904358876264734e-01    -8.619316561318270e-01   
4.043000000000000e+09    5.010840288362687e-01    -8.604148181034588e-01   4.592922796377355e-05    8.636845249047996e-05    4.977473153854312e-05    -1.367305645658198e-04   4.898050562849603e-01    -8.627349251148985e-01   
4.044000000000000e+09    4.997255527322576e-01    -8.608472280156031e-01   -1.253282759440213e-04   -6.539785177030548e-05   4.139798810971354e-05    -8.874181049039711e-06   4.894104944820409e-01    -8.634904210308557e-01   
4.045000000000000e+09    4.986056249847575e-01    -8.613249008186608e-01   -3.943206827234063e-05   -1.664991270500273e-04   9.323072866912381e-05    8.370898064030230e-05    4.887429765517675e-01    -8.641227826722373e-01   
4.046000000000000e+09    4.972187652941852e-01    -8.620444933290738e-01   -6.918773421114193e-05   -5.331307090050341e-05   -4.601023438910526e-05   -1.157670648392038e-04   4.885175711207138e-01    -8.650651912705062e-01   
4.047000000000000e+09    4.964556687138506e-01    -8.629975295638276e-01   -2.123783075632495e-05   -7.669902226103305e-06   1.208660671185461e-04    3.574798212792229e-05    4.880966835723545e-01    -8.655283488405381e-01   
4.048000000000000e+09    4.951010164604804e-01    -8.636441428870717e-01   4.921385027437300e-05    6.595806036036935e-05    3.817855875872000e-05    -1.320927113143766e-04   4.878083555775845e-01    -8.662067669668496e-01   
4.049000000000000e+09    4.940610592982468e-01    -8.643015485030028e-01   1.297285016929772e-04    1.266997258089606e-05    -5.095555490042275e-05   -7.468570729491382e-05   4.876996329688889e-01    -8.667875309217627e-01   
4.050000000000000e+09    4.930571464923751e-01    -8.646629529892930e-01   4.517817149088607e-05    1.312392400327265e-04    1.765545128617189e-05    1.925252907592543e-04    4.874585646908941e-01    -8.675320526772186e-01   
4.051000000000000e+09    4.920894942124589e-01    -8.657879011351373e-01   1.098491065938544e-04    4.274307718010368e-06    1.021619289839817e-04    1.194756461967309e-04    4.868180201368800e-01    -8.679999024288092e-01   
4.052000000000000e+09    4.908849371100022e-01    -8.665502002493406e-01   8.165312055850008e-06    -1.202053243245232e-04   6.258223243925945e-05    -1.749648749593554e-05   4.866986888763372e-01    -8.686153779318231e-01   
4.053000000000000e+09    4.898876672052302e-01    -8.672402323575181e-01   -4.426622886338442e-06   3.873483514200080e-05    7.296052210594563e-05    -1.291090214323038e-04   4.866784779259600e-01    -8.690945814692106e-01   
4.054000000000000e+09    4.889150545214699e-01    -8.678086271867588e-01   -1.051075621806985e-05   -6.707566201796747e-05   -7.302192282915664e-05   2.822401536073670e-05    4.864872989073845e-01    -8.692208328709776e-01   
4.055000000000000e+09    4.879527960297576e-01    -8.685899949361942e-01   -4.271920673306851e-05   -3.320684352627104e-05   3.675673525442622e-05    -1.432058177815559e-04   4.862920580998034e-01    -8.698976734748884e-01   
4.056000000000000e+09    4.868542681909016e-01    -8.692884068054033e-01   -1.022401715636551e-04   -8.330073944564877e-05   3.371202240242320e-05    -6.323188786127164e-05   4.862306558211425e-01    -8.703029526873876e-01   
4.057000000000000e+09    4.859951200377108e-01    -8.700757436978790e-01   1.106752564876749e-05    -7.497489668648269e-05   -4.100217855016048e-05   -5.415927721126496e-05   4.862163638848535e-01    -8.703925463996235e-01   
4.058000000000000e+09    4.847850289161721e-01    -8.708481449414310e-01   -1.996230822894427e-04   1.406563468581522e-04    5.509560235638841e-05    -1.208274280882134e-04   4.857077482771363e-01    -8.704844061324595e-01   
4.059000000000000e+09    4.840143339259637e-01    -8.716102489328637e-01   8.587848002531646e-05    -3.332909078726469e-05   1.058247207791787e-04    -1.111077646681460e-04   4.854637980706699e-01    -8.709072277655389e-01   
4.060000000000000e+09    4.831832565122786e-01    -8.723528329532350e-01   1.336246846944487e-04    -1.126015189048689e-04   -1.172282075203045e-04   1.398136227847792e-04    4.857643401928359e-01    -8.708706913320514e-01   
4.061000000000000e+09    4.824160566459171e-01    -8.732145073543105e-01   1.320045581566194e-05    1.142108761385205e-04    -2.754488339520553e-05   6.321232584759320e-06    4.851631693092120e-01    -8.709403765573157e-01   
4.062000000000000e+09    4.815429581541384e-01    -8.739556041395519e-01   3.865940776011164e-05    5.738775182984609e-05    -6.997102116652876e-05   -8.402015903103554e-05   4.849730075780148e-01    -8.706241266903552e-01   
4.063000000000000e+09    4.808131923412181e-01    -8.748089164018334e-01   -1.124445176479146e-04   -5.737857667762101e-05   -4.808433017482329e-05   6.652564839300868e-05    4.847985713649930e-01    -8.706797932994023e-01   
4.064000000000000e+09    4.800481617797144e-01    -8.750586102063840e-01   -3.399893834317261e-05   -4.880859274034014e-05   -8.563336499590400e-05   7.873789694097599e-05    4.846008618449586e-01    -8.704411026511972e-01   
4.065000000000000e+09    4.793451296177765e-01    -8.763555767665459e-01   -2.662603023265001e-04   6.780613026960490e-05    8.024274688637222e-05    1.215702318755981e-05    4.840975856016842e-01    -8.703556967340984e-01   
4.066000000000000e+09    4.783796921347225e-01    -8.771728084473426e-01   -3.241153608123706e-05   -1.590273466677878e-05   1.407533177713878e-04    1.735264647942742e-04    4.837811321267437e-01    -8.700414496389651e-01   
4.067000000000000e+09    4.776804976219825e-01    -8.779017855435315e-01   -1.085524232079989e-04   -7.296689434888665e-05   3.278585601462757e-05    2.932050778600064e-05    4.830678575968514e-01    -8.697897265639651e-01   
4.068000000000000e+09    4.768751443130674e-01    -8.783957482347964e-01   5.776369061091336e-05    -4.196818153885462e-05   6.812574892108644e-05    -7.470913672483379e-05   4.826413169725876e-01    -8.694121248359359e-01   
4.069000000000000e+09    4.764486270133886e-01    -8.795795152978979e-01   5.415070939057152e-05    1.916607963854700e-04    -8.030146079559489e-06   7.124622564232083e-05    4.821212975726736e-01    -8.694554169398243e-01   
4.070000000000000e+09    4.754851306223103e-01    -8.798215823569135e-01   -3.713956846934869e-05   1.979034010687759e-04    -1.189585144387128e-04   -7.171012730465833e-05   4.809866428804019e-01    -8.686594332753651e-01   
4.071000000000000e+09    4.748574284798528e-01    -8.808478405657781e-01   -1.423883285308916e-04   5.844918031433008e-05    -5.886741539854816e-05   -1.357090511102493e-04   4.803022636878158e-01    -8.687847701605526e-01   
4.072000000000000e+09    4.736775025876615e-01    -8.815097550573431e-01   -8.088125731340902e-05   1.964554521012345e-04    9.210622237515131e-05    1.362275521981630e-06    4.798505778152736e-01    -8.682825133588808e-01   
4.073000000000000e+09    4.732786498585453e-01    -8.820081724020667e-01   -6.947683583103080e-05   -1.437314427100743e-04   -7.053097280342275e-05   -2.252117227810809e-05   4.783982049819503e-01    -8.680435792782230e-01   
4.074000000000000e+09    4.724712103651494e-01    -8.827982287703087e-01   -3.349116988321314e-05   -3.219860887365900e-05   8.256470888937166e-05    5.073194740364237e-05    4.774605803495160e-01    -8.677454214594132e-01   
4.075000000000000e+09    4.722444031469400e-01    -8.838641307058345e-01   -4.778073342945787e-05   1.001931956520218e-04    6.601316121432670e-05    -3.794429410584976e-05   4.762546500308693e-01    -8.674294595773883e-01   
4.076000000000000e+09    4.711004935057171e-01    -8.843334469124760e-01   1.017846635081828e-04    -4.168045705324417e-05   -1.834497448564972e-05   3.728845810774499e-05    4.749481822001090e-01    -8.672953566168147e-01   
4.077000000000000e+09    4.700149983578286e-01    -8.852695269009274e-01   -2.610571848950068e-05   -5.912582528658876e-05   5.249055667720757e-06    -5.123306142163278e-05   4.736508315331839e-01    -8.667422469901476e-01   
4.078000000000000e+09    4.696361498206679e-01    -8.860658283986038e-01   2.061022960531813e-05    1.138837197268295e-04    5.407628130456341e-05    2.751934305432251e-05    4.722563295851743e-01    -8.667421529142175e-01   
4.079000000000000e+09    4.686366967194497e-01    -8.870018274624609e-01   -7.303623397309889e-05   -6.462553562568242e-05   7.148156904454887e-05    -6.293254820349318e-05   4.706514593725170e-01    -8.666611861664367e-01   
4.080000000000000e+09    4.683953626932483e-01    -8.874861172506281e-01   2.264471090399677e-04    -1.424108117732937e-05   3.461870159453802e-05    1.549289625270861e-05    4.691105070083080e-01    -8.665912131472711e-01   
4.081000000000000e+09    4.674762091010759e-01    -8.881717035381601e-01   -1.239050977517624e-04   4.906954945942627e-05    -4.052307359497981e-05   7.752757220274937e-05    4.675743947743224e-01    -8.664963446273739e-01   
4.082000000000000e+09    4.665454831449722e-01    -8.884905697562774e-01   1.395905707122910e-05    -4.895499352977117e-05   6.368293044347149e-05    -1.176288329563900e-04   4.655252870012893e-01    -8.664264884365654e-01   
4.083000000000000e+09    4.660509900182286e-01    -8.892260470240692e-01   1.805813546395586e-05    3.282647043823313e-05    5.346297475738466e-05    -2.727514035667162e-05   4.639247129412945e-01    -8.667636215698029e-01   
4.084000000000000e+09    4.652959705110266e-01    -8.900357400021657e-01   -2.526902616494561e-05   -7.679900825360146e-05   1.052820911518033e-04    2.628923798854895e-05    4.621140427153875e-01    -8.668169463303020e-01   
