[Version] 2.0
! Rohde & Schwarz Vector Network Analyzer
! Rohde-Schwarz,ZNL20-2Port,1323001220200009,1.71.1.10-23.02.1.238
! 
! Port Assignments:
! Nominal Port -> Actual Test Port
! --------------------------------
!   1 -> 1
!   2 -> 2

! Created: GMT+2 2025-01-16 20:24:54

# Hz S RI R 50

[Number of Ports] 2
[Two-Port Data Order] 21_12
[Number of Frequencies] 16001

[Network Data] 
! freq[Hz]               S11[Re]                  S11[Im]                  S21[Re]                  S21[Im]                  S12[Re]                  S12[Im]                  S22[Re]                  S22[Im]                  
4.000000000000000e+09    5.520619006524710e-01    -8.359364739532176e-01   -1.016065587247747e-04   1.559443660472421e-04    -3.793247666952339e-05   1.897475712070836e-05    5.431300861041208e-01    -8.138637714938846e-01   
4.001000000000000e+09    5.508543605486997e-01    -8.364062130028823e-01   4.830826890090856e-05    -8.348811863225345e-05   -4.903482112899723e-05   -9.736050298588075e-05   5.409275652122472e-01    -8.152963368953705e-01   
4.002000000000000e+09    5.498795013040805e-01    -8.370713747952513e-01   1.154012860895793e-05    -1.997658446213759e-05   1.153900427233771e-04    6.590798034682700e-05    5.389785444374556e-01    -8.162923269173222e-01   
4.003000000000000e+09    5.486611061355302e-01    -8.380175701656969e-01   -1.321278071021000e-04   -9.776349830872953e-05   -1.419226303927574e-04   2.192424199150467e-05    5.369266651295027e-01    -8.173844308062397e-01   
4.004000000000000e+09    5.474537723440308e-01    -8.388677733065246e-01   1.525962042772927e-04    4.337952542753459e-05    -1.642402067369501e-04   -9.550500694004522e-05   5.349886649155269e-01    -8.188755952936833e-01   
4.005000000000000e+09    5.463490262013556e-01    -8.399883752409397e-01   4.161847206795649e-05    2.109229599361279e-04    -1.119527961270708e-04   2.738514036793088e-04    5.329517751925198e-01    -8.196210769743564e-01   
4.006000000000000e+09    5.452166706196437e-01    -8.408664928642705e-01   -5.186917923082417e-05   5.834823233459543e-05    1.208352481505184e-04    1.972548224406014e-04    5.309377770432797e-01    -8.209946966880260e-01   
4.007000000000000e+09    5.436829761864767e-01    -8.414337103806374e-01   -2.217024982550039e-05   -1.441239095369342e-05   1.211740367458024e-04    9.198968672484211e-06    5.292174379908841e-01    -8.222105590140369e-01   
4.008000000000000e+09    5.429648087141036e-01    -8.424197042364817e-01   1.616156707264327e-04    1.396918158264800e-04    3.766105827932433e-05    -2.688651049062208e-05   5.274164318675203e-01    -8.234861718662360e-01   
4.009000000000000e+09    5.416171164521842e-01    -8.434084858157378e-01   2.075861553680995e-04    7.059225697934848e-05    -1.756095831233029e-04   -4.884375406196296e-05   5.253692957510088e-01    -8.244544392913425e-01   
4.010000000000000e+09    5.402612286439240e-01    -8.441370690862036e-01   1.032593458482146e-04    -2.321524523850340e-04   3.858300217970451e-05    -3.030674092899779e-05   5.233850683802840e-01    -8.261233859808645e-01   
4.011000000000000e+09    5.393590023746834e-01    -8.446824622263077e-01   -3.025840128309807e-05   8.329770013920821e-05    1.172354534270404e-04    1.844752745943315e-05    5.216032455273126e-01    -8.275221400544934e-01   
4.012000000000000e+09    5.378372414043883e-01    -8.456078114223263e-01   -1.523233686785091e-04   2.056057795423718e-04    -1.949571105611297e-04   1.760250783900992e-05    5.199289563907175e-01    -8.286288720785099e-01   
4.013000000000000e+09    5.369446622724471e-01    -8.460956958548002e-01   3.304784564504585e-06    1.008773298344822e-04    -6.067164271438170e-05   8.123259874029773e-06    5.185297759311929e-01    -8.304319747686284e-01   
4.014000000000000e+09    5.357900952034521e-01    -8.468365619026127e-01   -2.434557297859926e-05   -4.382490663520868e-05   -6.202268873498125e-05   7.128659491114701e-05    5.164762629549272e-01    -8.317493302337724e-01   
4.015000000000000e+09    5.345173684814121e-01    -8.475584764344900e-01   1.581058356701586e-05    9.361858608971959e-05    -9.917273579374058e-05   -8.864157065167104e-05   5.153412728833107e-01    -8.329008407091137e-01   
4.016000000000000e+09    5.336426651354313e-01    -8.480899289451105e-01   6.421874434159192e-05    1.101663482168628e-06    4.403418142237446e-05    1.116892485743817e-05    5.134111163275190e-01    -8.345547824729687e-01   
4.017000000000000e+09    5.321818642904024e-01    -8.487035989676023e-01   -8.849289489993091e-05   -1.202936139157576e-05   3.376559532413882e-04    2.449482502784762e-05    5.122403649031725e-01    -8.358273689285567e-01   
4.018000000000000e+09    5.312689071209084e-01    -8.492683738851522e-01   2.081705256611753e-05    -1.999732765442036e-04   1.771310788487838e-04    -5.509060176877527e-05   5.107260234311938e-01    -8.370898572252392e-01   
4.019000000000000e+09    5.300457177739659e-01    -8.495222829633899e-01   1.121411006944105e-06    -1.270066616402201e-04   -8.872819087845879e-05   -2.061032134337473e-04   5.091797018181131e-01    -8.384887741440147e-01   
4.020000000000000e+09    5.288694052850249e-01    -8.504295883373176e-01   -3.565581595858983e-05   -4.875972167798737e-05   -3.996035831363179e-05   -1.257302368145860e-04   5.081390593991089e-01    -8.399049407607909e-01   
4.021000000000000e+09    5.280002090690339e-01    -8.507605366155981e-01   1.738045993840685e-04    -9.228419451769087e-05   1.838459423818419e-05    6.278388386503320e-06    5.071396705785413e-01    -8.411223580703265e-01   
4.022000000000000e+09    5.265748154157277e-01    -8.516053586948701e-01   -2.083537573857757e-04   3.282036477137860e-05    -2.055403151732008e-04   -3.513165407161779e-05   5.058285810317433e-01    -8.424109115206831e-01   
4.023000000000000e+09    5.255800617792411e-01    -8.518921845393848e-01   2.359615836113807e-04    2.543599399263470e-05    4.218210392181803e-05    -6.407460074113598e-05   5.044370246276053e-01    -8.434374815414063e-01   
4.024000000000000e+09    5.244165922449399e-01    -8.523548883096949e-01   -6.305572581231098e-05   1.382341115143487e-04    1.154468622678510e-04    8.456183664685292e-05    5.035138339693552e-01    -8.447446908104187e-01   
4.025000000000000e+09    5.230345707493990e-01    -8.525820524267432e-01   1.466860569950153e-04    -6.561209857895997e-05   -2.571405264281938e-04   9.802471215284308e-06    5.026325270125048e-01    -8.458603553684967e-01   
4.026000000000000e+09    5.218803600895008e-01    -8.528172038502440e-01   -7.656030835992634e-05   -1.408415690064660e-04   -1.064689778153067e-04   -8.050734721511538e-05   5.012154758983776e-01    -8.468812713672427e-01   
4.027000000000000e+09    5.206577894438025e-01    -8.533378812216312e-01   3.026741408563484e-05    6.232547684323537e-05    -8.772046040149993e-05   1.720107107363758e-04    5.007517204505253e-01    -8.483948262526834e-01   
4.028000000000000e+09    5.197423387432978e-01    -8.538243675647754e-01   -4.086148310851589e-05   9.731394384408729e-05    9.781507399987167e-05    2.995013316812205e-05    4.996536462336759e-01    -8.492029052743398e-01   
4.029000000000000e+09    5.185313846200142e-01    -8.544154156288852e-01   -1.223916242038406e-04   1.245038499661912e-04    9.884900349378909e-05    1.373646931656302e-04    4.987184073286197e-01    -8.502541869125950e-01   
4.030000000000000e+09    5.173544581823105e-01    -8.546137809747694e-01   -5.209122617890354e-05   -2.427561727687209e-04   1.463457394084512e-06    -1.655524008489493e-05   4.981457407630105e-01    -8.515492040504936e-01   
4.031000000000000e+09    5.163568574220381e-01    -8.550025730270149e-01   -1.808932811292233e-04   -2.749242389153047e-05   -4.338515592750777e-07   2.082127499621448e-04    4.972471058697929e-01    -8.523605162585232e-01   
4.032000000000000e+09    5.147756129063075e-01    -8.553348905529001e-01   1.483526646995277e-04    -1.034915069520498e-04   -6.281776848244474e-05   1.679098312439589e-04    4.964918462668806e-01    -8.533482181083495e-01   
4.033000000000000e+09    5.138654280428956e-01    -8.558123370677745e-01   -8.420285578439936e-05   1.798686872585222e-04    5.296263099128779e-05    -6.571803644635599e-05   4.956461813696206e-01    -8.542520131008371e-01   
4.034000000000000e+09    5.124561177869439e-01    -8.562083707019458e-01   -1.128024153341985e-04   6.818793207459896e-05    -9.816210486458189e-05   1.987582947694980e-04    4.947864302878978e-01    -8.553548342142263e-01   
4.035000000000000e+09    5.114214300687941e-01    -8.568333033935347e-01   8.420145234481098e-05    -4.761114113040396e-05   6.503669763703310e-05    -1.205488326693236e-04   4.944630811623950e-01    -8.559566241251753e-01   
4.036000000000000e+09    5.102107353950579e-01    -8.569986812139858e-01   -9.105110061931955e-05   5.932773267162222e-05    2.213507607715449e-05    7.625263117498045e-05    4.937783217942108e-01    -8.568234854346986e-01   
4.037000000000000e+09    5.087257928315676e-01    -8.575118452215577e-01   8.237896615109765e-06    4.996441979092430e-05    8.454410364559876e-06    -8.350649133080452e-05   4.930913289717042e-01    -8.579188191645252e-01   
4.038000000000000e+09    5.073350382430225e-01    -8.578358894570145e-01   9.858499243706229e-05    -4.967033849310517e-05   -3.996482282254561e-05   4.022748090144752e-05    4.924634897451481e-01    -8.588675448577389e-01   
4.039000000000000e+09    5.062732168791592e-01    -8.584750059442051e-01   3.931645164108313e-05    -6.920241732962745e-05   -4.261359258655340e-05   5.287198937384467e-05    4.917826117799309e-01    -8.597851263426771e-01   
4.040000000000000e+09    5.050542167552573e-01    -8.586880129815520e-01   3.521547371903024e-05    1.375238846582427e-04    9.023469011971992e-06    -1.119985118297981e-04   4.912579699228968e-01    -8.600556102034730e-01   
4.041000000000000e+09    5.035639351637388e-01    -8.590517259841906e-01   -8.732928136678189e-05   1.661229702503284e-04    1.068504396750378e-04    1.305492176919719e-04    4.909512393223947e-01    -8.611694403110788e-01   
4.042000000000000e+09    5.024352928436260e-01    -8.600287515728909e-01   -4.889872194458078e-06   5.332289845894510e-05    -1.886407590429095e-05   9.838862250867123e-05    4.904366932679197e-01    -8.619423509896523e-01   
4.043000000000000e+09    5.012109052405099e-01    -8.604029102735307e-01   2.569968113095176e-05    3.361199114883368e-05    -6.002073307180337e-05   -4.760431183456183e-05   4.898756064930270e-01    -8.626146576449262e-01   
4.044000000000000e+09    4.998793321509471e-01    -8.609115536196249e-01   1.224720433979546e-05    3.280151549485497e-05    -5.587226241140609e-05   9.471642097923423e-06    4.896939000165664e-01    -8.633723292106597e-01   
4.045000000000000e+09    4.988434690120835e-01    -8.613615510628134e-01   2.117243527990432e-05    -1.024351930804779e-04   1.739294261680861e-04    7.484642020968851e-05    4.891728887185464e-01    -8.640109559775837e-01   
4.046000000000000e+09    4.974774129229560e-01    -8.621887703735317e-01   -8.218971085048478e-05   3.222699192347005e-05    -9.008960184654019e-05   1.194031154732556e-04    4.887647237689794e-01    -8.647159386080521e-01   
4.047000000000000e+09    4.962634112586702e-01    -8.627401940117136e-01   -1.164512439617329e-04   -7.143348723447761e-05   -8.146277315519088e-05   -8.493077014131857e-05   4.881772121471343e-01    -8.652856511992612e-01   
4.048000000000000e+09    4.950873904426641e-01    -8.632047817457827e-01   -6.651592241541408e-05   -5.385738055577361e-06   9.465641561702210e-06    -5.270712445458764e-05   4.881354686989583e-01    -8.660656165014642e-01   
4.049000000000000e+09    4.939434165804269e-01    -8.642873195798373e-01   -1.109600432869235e-05   -1.572432686561967e-04   -5.658682754491407e-05   2.683046173958666e-04    4.877242115928837e-01    -8.668127548135837e-01   
4.050000000000000e+09    4.929972883619841e-01    -8.647278091116258e-01   -4.039953381008650e-05   -6.453384434390847e-05   5.324086409427083e-05    3.394525732920766e-05    4.873492288895309e-01    -8.672058555815206e-01   
4.051000000000000e+09    4.919985731709992e-01    -8.656594923901162e-01   -4.383148393582779e-05   -1.087152347135344e-04   1.653647142803668e-05    -1.746702096270457e-04   4.870693470792954e-01    -8.673928811128579e-01   
4.052000000000000e+09    4.911749065817314e-01    -8.665659578131623e-01   1.227166349961954e-04    1.355651795345693e-05    7.580276312924728e-05    4.166972115685409e-05    4.868128562611222e-01    -8.683375302580062e-01   
4.053000000000000e+09    4.898355368773914e-01    -8.669729051857001e-01   1.561601316515934e-04    6.260518100855188e-05    -1.040469522404780e-04   4.739456297013374e-05    4.869282590562037e-01    -8.689570506396775e-01   
4.054000000000000e+09    4.888750897504502e-01    -8.677953170245485e-01   -7.529916869573688e-05   8.120424634998324e-05    -1.025512670093580e-04   1.226084280890513e-04    4.867939844709624e-01    -8.693735244032933e-01   
4.055000000000000e+09    4.881890096754991e-01    -8.684596804460468e-01   2.904444910230512e-05    1.730392798017974e-05    1.385707752942654e-04    -1.110593721295592e-04   4.865970242341284e-01    -8.696855328923129e-01   
4.056000000000000e+09    4.868283549936178e-01    -8.692560128637294e-01   -3.154630371250100e-05   -1.679568449634564e-04   1.326588342731794e-04    1.048095823060407e-04    4.863707290196791e-01    -8.698180705149211e-01   
4.057000000000000e+09    4.861345011820061e-01    -8.701163533744127e-01   1.681017863774735e-04    1.569839525087042e-04    -1.843675300356409e-04   1.933861399799023e-04    4.861085196650957e-01    -8.702710452097568e-01   
4.058000000000000e+09    4.850544297333429e-01    -8.706387352097565e-01   -1.245375555652502e-04   9.111214358709683e-05    -1.277785970209905e-04   1.045056449947344e-05    4.860880406779996e-01    -8.704487768336877e-01   
4.059000000000000e+09    4.842899744324135e-01    -8.718077387585589e-01   -3.988465670781708e-05   3.325204136706635e-05    8.780158933864256e-06    7.185737394139791e-05    4.860171851192968e-01    -8.706796983690864e-01   
4.060000000000000e+09    4.832359703628746e-01    -8.723834827334417e-01   -1.083273713748363e-04   -9.166878298116552e-05   1.414638241314671e-04    5.490434123916784e-05    4.857709936091040e-01    -8.705965508895781e-01   
4.061000000000000e+09    4.825610888928858e-01    -8.733341941593418e-01   8.424209278342237e-05    1.699688850795408e-04    -6.500436375370542e-05   -6.452737202820780e-05   4.856796756681465e-01    -8.708104450943984e-01   
4.062000000000000e+09    4.816745090698801e-01    -8.738897176341717e-01   5.807788626208630e-05    -2.353546586382773e-05   -6.064206634923687e-05   -1.231942503391293e-04   4.851136197404762e-01    -8.708393268083274e-01   
4.063000000000000e+09    4.810303232410761e-01    -8.746742214718100e-01   1.281141437389443e-04    -9.645128259155162e-05   -2.655124495929234e-05   -1.893168246898193e-05   4.847178840534496e-01    -8.706185657698614e-01   
4.064000000000000e+09    4.802066704560016e-01    -8.752529724749495e-01   -9.161979589566214e-05   -1.335704026202597e-04   4.041368951902386e-06    7.811813353501288e-05    4.846081666507487e-01    -8.703828476875856e-01   
4.065000000000000e+09    4.792283069005087e-01    -8.761655664930590e-01   -9.555792340786245e-06   -1.563762124297863e-04   9.918453220390247e-05    -4.586341762560309e-05   4.842156129742131e-01    -8.701689536728094e-01   
4.066000000000000e+09    4.787619939740779e-01    -8.770461871159958e-01   -1.005741899080265e-04   1.589756383875069e-04    -1.129603216963586e-04   -4.937237821875718e-05   4.838517796239991e-01    -8.698631695371759e-01   
4.067000000000000e+09    4.777380251212341e-01    -8.778225065838757e-01   3.854091774685448e-05    1.823927633352985e-04    1.927410332617450e-05    -1.521041852771883e-04   4.834503240119745e-01    -8.698226351661147e-01   
4.068000000000000e+09    4.770076465222858e-01    -8.785205363986653e-01   -4.350728271114727e-06   1.360781558789764e-05    -5.366809157601785e-05   -1.622455131145582e-04   4.828940180906020e-01    -8.693680442569236e-01   
4.069000000000000e+09    4.763078502577806e-01    -8.791407458643332e-01   1.169109681724588e-05    1.940132522672697e-05    -8.097550765181118e-05   -6.716871248223870e-06   4.818472877871756e-01    -8.692588728807731e-01   
4.070000000000000e+09    4.757918011091595e-01    -8.800710033633318e-01   5.009719343197534e-05    -2.137165778268101e-05   -5.730778003600298e-05   -6.053769407797454e-05   4.810980713397163e-01    -8.688937073889953e-01   
4.071000000000000e+09    4.750029800385799e-01    -8.807347479535576e-01   -8.035574589758731e-05   -9.408308138584369e-05   -1.066956443310997e-04   -1.457205482994469e-04   4.804822226291988e-01    -8.688948394013031e-01   
4.072000000000000e+09    4.741766593771408e-01    -8.814842065057005e-01   -1.510596597964279e-04   -3.079582277241439e-05   1.050804114344595e-04    5.954412324722284e-05    4.796178245459719e-01    -8.680157085851230e-01   
4.073000000000000e+09    4.734300099080129e-01    -8.819142533655444e-01   -7.260689724809870e-06   -3.203533832271988e-06   7.680961597084993e-05    -2.203096953466103e-05   4.784598285017638e-01    -8.679547002264597e-01   
4.074000000000000e+09    4.725827000147776e-01    -8.828989127634064e-01   -1.099394545060173e-04   7.084104183827122e-05    9.871852983570486e-06    -4.559418126453378e-05   4.773654078803002e-01    -8.677785330931166e-01   
4.075000000000000e+09    4.720919754639989e-01    -8.838510605896802e-01   1.003173236378470e-05    2.830090265067193e-05    1.025662711886443e-04    4.942467892276033e-06    4.763837011588630e-01    -8.673059453114166e-01   
4.076000000000000e+09    4.712010470771199e-01    -8.843805623718828e-01   -4.997197370283198e-05   -1.202024133043059e-04   -1.835888388025304e-04   -6.134995332335610e-05   4.752021375609299e-01    -8.671464178739019e-01   
4.077000000000000e+09    4.706821887100009e-01    -8.850611088492472e-01   -1.562834669513423e-05   -1.325470739682706e-04   3.719157641060875e-05    -3.296064366751937e-05   4.739990964704717e-01    -8.669057849919641e-01   
4.078000000000000e+09    4.694427962773426e-01    -8.857659983470366e-01   -1.334068695582025e-04   8.837044939931710e-05    -2.943178403629559e-05   -5.955813046862959e-05   4.723661619443390e-01    -8.667715277369280e-01   
4.079000000000000e+09    4.691660153963897e-01    -8.866145012387937e-01   -9.309110796334140e-05   -9.148780045960529e-06   8.241035248594318e-07    1.779657792937822e-04    4.707476656813239e-01    -8.666906074147481e-01   
4.080000000000000e+09    4.682650583513331e-01    -8.871671449670573e-01   -7.859772673386412e-05   -1.757648311684637e-06   -1.026470505692176e-04   3.648134931175878e-06    4.692302820351877e-01    -8.666491580460075e-01   
4.081000000000000e+09    4.673371170228942e-01    -8.880818341072487e-01   -1.233816587350397e-04   2.493602538380270e-04    -4.543801410742985e-05   -1.143588935131908e-05   4.675233728849566e-01    -8.667118823547416e-01   
4.082000000000000e+09    4.667986750112155e-01    -8.882900491297759e-01   -1.251541326083221e-04   -3.100603855284279e-06   1.003583272726258e-04    3.351373803337807e-05    4.658800761306316e-01    -8.664716264400933e-01   
4.083000000000000e+09    4.658104603210192e-01    -8.891456413457164e-01   -1.321737185723550e-04   -1.371826967535980e-04   1.789179716927747e-06    -1.377775528986470e-05   4.641415914833962e-01    -8.667228612551093e-01   
4.084000000000000e+09    4.650930990798179e-01    -8.899033134785330e-01   1.614183064711692e-05    2.748012488348223e-05    -1.438728837159430e-05   5.307085520366911e-05    4.621731561041541e-01    -8.669923667695949e-01   
