[Version] 2.0
! Rohde & Schwarz Vector Network Analyzer
! Rohde-Schwarz,ZNL20-2Port,1323001220200009,1.71.1.10-23.02.1.238
! 
! Port Assignments:
! Nominal Port -> Actual Test Port
! --------------------------------
!   1 -> 1
!   2 -> 2

! Created: GMT+2 2025-01-16 20:25:16

# Hz S RI R 50

[Number of Ports] 2
[Two-Port Data Order] 21_12
[Number of Frequencies] 16001

[Network Data] 
! freq[Hz]               S11[Re]                  S11[Im]                  S21[Re]                  S21[Im]                  S12[Re]                  S12[Im]                  S22[Re]                  S22[Im]                  
4.000000000000000e+09    5.519768026746740e-01    -8.355123580053175e-01   6.305961574050250e-05    8.137212897415419e-06    -8.202612016191974e-05   -9.276615388648140e-06   5.431469058188209e-01    -8.139474180357391e-01   
4.001000000000000e+09    5.506726720996362e-01    -8.362642037207770e-01   2.151132713485909e-04    -1.408103303779362e-04   2.608467840447737e-05    1.345326797090816e-04    5.412260053972248e-01    -8.157049322862218e-01   
4.002000000000000e+09    5.497315115334293e-01    -8.375616601129788e-01   3.325939611153956e-05    4.531857065489547e-05    1.286830251305652e-04    -8.007499384009389e-05   5.386387736446363e-01    -8.161750747875143e-01   
4.003000000000000e+09    5.486263245526487e-01    -8.381398612697071e-01   8.520544433387881e-05    3.497346538668166e-05    3.369996743077436e-04    -3.130584574708571e-05   5.368012281422416e-01    -8.174610080575635e-01   
4.004000000000000e+09    5.474689838947859e-01    -8.389700484412732e-01   -3.738755564541652e-05   -2.470946516400161e-05   -1.896517776945976e-04   1.273310897963464e-04    5.348529632522647e-01    -8.187335171775323e-01   
4.005000000000000e+09    5.463010831716540e-01    -8.402390154207862e-01   8.259401568366169e-06    -1.439193468298026e-06   -1.309766172034081e-04   -4.446306969356564e-05   5.329456085069951e-01    -8.197044463957763e-01   
4.006000000000000e+09    5.453029252149121e-01    -8.405357997530343e-01   -1.278621780990643e-04   -8.526662877587454e-05   -1.865470548523735e-04   1.182245342165984e-04    5.307868216471747e-01    -8.208576795776985e-01   
4.007000000000000e+09    5.439983326653525e-01    -8.417003558794051e-01   1.654537552578665e-05    -1.538098761474221e-04   -1.172259358675515e-05   -1.318321861400369e-04   5.291234295573257e-01    -8.222090378949677e-01   
4.008000000000000e+09    5.425343822865311e-01    -8.427712192049240e-01   2.375088218614603e-06    -6.861308562876417e-06   -9.283819683646424e-06   1.287888866444209e-04    5.272970650521221e-01    -8.235080567559518e-01   
4.009000000000000e+09    5.417708382551398e-01    -8.432462439456216e-01   -6.896596513472572e-05   -1.886266444759868e-04   1.351981304649324e-04    -8.910747479281672e-05   5.251450347434123e-01    -8.247373697491046e-01   
4.010000000000000e+09    5.402411859530285e-01    -8.441316651040189e-01   -3.772886336249607e-06   -4.908551039947820e-05   9.144527501246442e-05    -1.363438055291004e-04   5.233677727422307e-01    -8.264431334536658e-01   
4.011000000000000e+09    5.391013891253940e-01    -8.449007993090855e-01   -1.765568701197978e-05   9.606327482565693e-05    -1.287646031725533e-04   -2.689703092152456e-05   5.217490644327034e-01    -8.275578581791233e-01   
4.012000000000000e+09    5.378892746777719e-01    -8.458301988175406e-01   9.358767895152553e-05    3.090025461051622e-05    2.254474234448729e-04    9.449121886426795e-05    5.200599502195580e-01    -8.291422079972294e-01   
4.013000000000000e+09    5.366923551154874e-01    -8.461630080529313e-01   -4.089195395413570e-05   7.587589675937700e-05    1.050898734969381e-05    2.520189321737665e-04    5.184505697007271e-01    -8.304116225189063e-01   
4.014000000000000e+09    5.356430460883911e-01    -8.469239064760309e-01   -5.942781921777118e-05   2.955104627629550e-04    -1.283546122234150e-04   3.181447560967317e-06    5.167341451484373e-01    -8.314517257500534e-01   
4.015000000000000e+09    5.347285324014051e-01    -8.476313112480681e-01   1.050450962655377e-04    1.585121082894549e-04    1.749660312078658e-04    -1.892613744537831e-04   5.151405927396174e-01    -8.332491406107393e-01   
4.016000000000000e+09    5.335368117386688e-01    -8.483793259524860e-01   -1.856891381413091e-04   -5.581298723781411e-05   3.767952411462953e-05    2.694767475771232e-05    5.136769476257645e-01    -8.342696134507042e-01   
4.017000000000000e+09    5.326343593190491e-01    -8.486142817873418e-01   2.895234322504574e-06    4.378506346239062e-05    2.831258392753576e-05    1.087155408596374e-04    5.121140650926994e-01    -8.358353620342850e-01   
4.018000000000000e+09    5.311117325108853e-01    -8.493686069586051e-01   9.919811800979381e-05    1.432101675220904e-04    1.428476079503261e-04    1.035041603204885e-04    5.105726657382063e-01    -8.372145500604585e-01   
4.019000000000000e+09    5.300103148977017e-01    -8.498413632972340e-01   -1.297280887953190e-04   7.427056312013790e-05    1.171970802932190e-04    -1.784529335178495e-05   5.095576276681600e-01    -8.386759632302617e-01   
4.020000000000000e+09    5.288986879017075e-01    -8.504493001148994e-01   -4.522297846987805e-05   5.381113362720867e-05    1.294649663529490e-04    1.608958604243095e-04    5.080385336063838e-01    -8.396206322946368e-01   
4.021000000000000e+09    5.279021447676985e-01    -8.509271213427690e-01   -2.927541595954610e-04   -4.581983455882496e-05   -1.596292128218332e-05   -5.316853933274442e-05   5.066471147228783e-01    -8.410615286882872e-01   
4.022000000000000e+09    5.265378361594483e-01    -8.514993953628288e-01   1.145040338124483e-04    -6.392981454658062e-05   -1.009473193421249e-04   9.917961322269050e-05    5.057775699228557e-01    -8.423570014108607e-01   
4.023000000000000e+09    5.256727163189737e-01    -8.520386263113985e-01   9.178171862698937e-05    -1.731405289949002e-05   1.295560710137782e-04    -3.991111259122813e-05   5.044611988071687e-01    -8.436031494906200e-01   
4.024000000000000e+09    5.242241188520191e-01    -8.524942895210001e-01   -2.491198179456603e-04   5.835049252008191e-05    7.701794750769813e-05    1.907429627234714e-04    5.034265941430465e-01    -8.450483085260807e-01   
4.025000000000000e+09    5.234108196832130e-01    -8.525541102245985e-01   1.413809388212983e-04    -4.403947219151641e-05   1.025772485745281e-04    1.016950060703661e-04    5.024370008540116e-01    -8.459969642670633e-01   
4.026000000000000e+09    5.221914593380014e-01    -8.531168386104430e-01   3.248278165308876e-05    -1.474242100193506e-04   -1.019439759912092e-05   -2.188244616781233e-04   5.012636538415982e-01    -8.474591833484135e-01   
4.027000000000000e+09    5.210622814116671e-01    -8.533391356641271e-01   1.541183965408712e-05    -2.364635866298838e-05   8.232138880058051e-06    -6.754181291470115e-05   5.003879835009492e-01    -8.481315855138389e-01   
4.028000000000000e+09    5.198061181821590e-01    -8.542896766091370e-01   -1.952236162397764e-06   1.769226109083085e-04    1.067291450332698e-04    2.767665555369751e-06    4.996181520044788e-01    -8.492672997396585e-01   
4.029000000000000e+09    5.187379299373172e-01    -8.543408936339552e-01   -3.985773071792832e-05   7.884975645825432e-05    2.781225798714269e-05    7.618216265141076e-05    4.986081027814040e-01    -8.503158879356740e-01   
4.030000000000000e+09    5.173987516816480e-01    -8.547239170473668e-01   -5.374745448459848e-06   4.642059418649634e-05    -2.011813499179971e-04   -9.419068401958032e-05   4.977090012873124e-01    -8.515566265141910e-01   
4.031000000000000e+09    5.162582427980077e-01    -8.551643111360481e-01   2.030550506976728e-04    -1.310925724349648e-05   8.357870953788963e-05    -4.662877010494764e-05   4.974331292616072e-01    -8.523126881956973e-01   
4.032000000000000e+09    5.152142792235528e-01    -8.555385922889662e-01   5.926794571267667e-05    1.282553556823608e-04    1.096957776677639e-04    2.155438294031903e-04    4.963709027393935e-01    -8.534941444688511e-01   
4.033000000000000e+09    5.138819296188012e-01    -8.556181126504475e-01   -5.330849601254400e-05   -5.863706342666933e-05   8.569242027803680e-05    -2.708785501493365e-04   4.953374166057962e-01    -8.542633583731016e-01   
4.034000000000000e+09    5.124180182683995e-01    -8.561330900314718e-01   -4.587710291231143e-05   6.791737388282525e-05    -2.291146034478679e-06   8.270886578704290e-05    4.950447854162778e-01    -8.554077928788648e-01   
4.035000000000000e+09    5.111851131610141e-01    -8.564862034241340e-01   6.259669912067038e-05    8.138612186262228e-07    1.067101057415746e-04    2.525622342408608e-06    4.941235905491184e-01    -8.564297797837496e-01   
4.036000000000000e+09    5.100876631985888e-01    -8.570323312444244e-01   -7.166848926093920e-05   1.481428138115632e-04    1.553747396356803e-04    -4.942863050316064e-05   4.937566972959362e-01    -8.569953021644329e-01   
4.037000000000000e+09    5.086636492525403e-01    -8.573442207279727e-01   8.021765742662972e-05    -2.372206713841144e-05   -5.035032268999172e-05   -7.794969224256028e-05   4.931128365842247e-01    -8.578365248039381e-01   
4.038000000000000e+09    5.074564193950194e-01    -8.578601292040396e-01   1.464195287021169e-05    9.329200947284909e-05    3.616870737365355e-05    2.048097177110741e-04    4.923175368019389e-01    -8.587271577206994e-01   
4.039000000000000e+09    5.062998053756210e-01    -8.581925553698534e-01   3.891004040535290e-05    3.042009139594641e-05    -8.400666480053788e-05   -2.663389053272006e-05   4.920235335419406e-01    -8.597957905111276e-01   
4.040000000000000e+09    5.052022114004054e-01    -8.587377583415713e-01   2.728311680640177e-04    -4.375943244671265e-05   2.035899427411566e-04    -1.936024656588417e-04   4.911447891474359e-01    -8.602248968819092e-01   
4.041000000000000e+09    5.037187975931722e-01    -8.592730751905768e-01   -1.832331206881165e-04   1.925908181124954e-04    1.324361727096093e-04    2.425481445557081e-04    4.907989087526161e-01    -8.612062731978350e-01   
4.042000000000000e+09    5.024753873344067e-01    -8.596604269907869e-01   -5.247076063760073e-05   7.914689511806146e-05    -7.376048175399646e-05   -4.926426258995419e-05   4.903621886591806e-01    -8.620040155910511e-01   
4.043000000000000e+09    5.010975002563749e-01    -8.602479891582154e-01   6.726570449370683e-05    -5.940564190449097e-06   -1.198285760359897e-04   -3.740086536824770e-05   4.898823168657071e-01    -8.625089294123848e-01   
4.044000000000000e+09    5.001362572826604e-01    -8.608669612707205e-01   -1.122400590580576e-04   5.705251945552880e-05    9.860581864993474e-05    -5.259156751929130e-05   4.894466854378771e-01    -8.635076373089670e-01   
4.045000000000000e+09    4.987836576961403e-01    -8.614268215692489e-01   -3.440015369446971e-05   2.122020821733925e-05    7.787510466785084e-05    -4.669834818653304e-05   4.889633386827132e-01    -8.640983775379768e-01   
4.046000000000000e+09    4.974834167340579e-01    -8.620098516040177e-01   -8.264670502677461e-05   -6.255227224028023e-05   -1.718573713923842e-04   5.496513816809107e-05    4.887707793163485e-01    -8.647579240767836e-01   
4.047000000000000e+09    4.964484734782650e-01    -8.629194188097364e-01   -1.252996407997079e-04   -1.559586876761703e-04   1.044056693515016e-04    -4.814677706894074e-05   4.882006357221453e-01    -8.652179517773740e-01   
4.048000000000000e+09    4.950537482441780e-01    -8.636125859823830e-01   1.689336661992521e-05    5.807064988411024e-05    5.522039090684171e-05    -3.900787679146603e-06   4.878821125649032e-01    -8.662438123495192e-01   
4.049000000000000e+09    4.939190914520354e-01    -8.640895151053493e-01   -4.673796369807925e-05   -1.602277745775824e-04   -6.739739987176149e-05   1.225177981592391e-04    4.879452131992038e-01    -8.666791828137312e-01   
4.050000000000000e+09    4.930720679205766e-01    -8.649229483816762e-01   -1.090222145108148e-04   -1.067444951241504e-04   -2.996762205980518e-05   1.704289341219741e-05    4.873426490161417e-01    -8.673622796741263e-01   
4.051000000000000e+09    4.920321712666004e-01    -8.655891066603922e-01   -2.772459960304483e-04   2.579996612164461e-05    -4.415022989849112e-05   -5.373556316322644e-05   4.870453466105901e-01    -8.680823974527903e-01   
4.052000000000000e+09    4.906628631758656e-01    -8.662544270541734e-01   -8.265452194356752e-05   -1.435282627768044e-05   7.497555892507093e-05    -8.160835482273045e-05   4.867845747257405e-01    -8.683680304762456e-01   
4.053000000000000e+09    4.898551189188996e-01    -8.668454305671105e-01   -9.640327230164226e-05   -7.316174106891901e-05   3.410843772069480e-05    5.573198476729584e-05    4.868958433715136e-01    -8.690651452122589e-01   
4.054000000000000e+09    4.888202657882748e-01    -8.677540794881642e-01   1.631578083147135e-05    5.531837073336727e-05    -3.174811982301195e-05   1.078177558722163e-05    4.866919402539531e-01    -8.693601194669336e-01   
4.055000000000000e+09    4.877165603862358e-01    -8.684932866349182e-01   -1.082168389427556e-04   4.606628195243094e-05    -1.398564093103269e-05   3.403682733418238e-05    4.864499921337865e-01    -8.697194142893288e-01   
4.056000000000000e+09    4.868956988102828e-01    -8.693679941044379e-01   -1.695615177569867e-04   1.552877214261809e-04    -1.840469533569469e-04   7.509627376191071e-06    4.860061033344533e-01    -8.697988225389549e-01   
4.057000000000000e+09    4.860809669934633e-01    -8.699277683538291e-01   2.027333081404895e-04    2.307622886496526e-05    6.885749372617420e-05    5.782118702646567e-05    4.860824797990737e-01    -8.701119712649940e-01   
4.058000000000000e+09    4.851516754420344e-01    -8.709596765650350e-01   1.860818551200489e-05    -2.013750708752034e-06   -2.007910215777628e-04   1.158128506891989e-04    4.860053687231254e-01    -8.703290967558331e-01   
4.059000000000000e+09    4.842410891141887e-01    -8.717021230466105e-01   1.668358958805509e-04    -1.348470787216271e-04   -6.294189971849606e-05   1.359019102334613e-04    4.856818915428874e-01    -8.705956769134270e-01   
4.060000000000000e+09    4.836216981255523e-01    -8.722504278458730e-01   8.221403749726442e-05    6.428958545410174e-05    -9.260694914757187e-06   4.161360448789400e-05    4.855219360473025e-01    -8.706847683547836e-01   
4.061000000000000e+09    4.823441130571302e-01    -8.732017734172876e-01   2.405738650022139e-04    1.116908065009145e-04    1.776705293258672e-04    3.907671756111135e-05    4.856592716344313e-01    -8.708242213506827e-01   
4.062000000000000e+09    4.816869026800558e-01    -8.738752643600798e-01   1.822536718870855e-04    1.309094497083005e-04    -2.054813117495201e-04   -4.115020384436662e-05   4.853422047203614e-01    -8.707271109245676e-01   
4.063000000000000e+09    4.808448927032600e-01    -8.747265241864505e-01   -7.662632409750317e-05   5.628613116674780e-05    -2.044736399312204e-04   5.068187349939698e-05    4.849588701702143e-01    -8.705568410279398e-01   
4.064000000000000e+09    4.799889504926039e-01    -8.751263734087189e-01   -7.900347211068971e-05   6.957827668346423e-05    9.385959766065482e-05    -1.084345460019479e-04   4.846146370978298e-01    -8.703839743640799e-01   
4.065000000000000e+09    4.792006698603285e-01    -8.762180474745147e-01   -4.941993363985709e-05   -2.255588667269288e-05   1.410062129413096e-05    -8.177695040670959e-05   4.841785209871915e-01    -8.703250247819239e-01   
4.066000000000000e+09    4.785599070591741e-01    -8.770735667973317e-01   -8.739531424624606e-05   1.025555249260742e-04    9.636957834754826e-05    -1.266030458494812e-04   4.837964026751887e-01    -8.701261977503371e-01   
4.067000000000000e+09    4.779013938414030e-01    -8.778384445093750e-01   8.833701871846975e-05    2.104277486923960e-04    1.435436109334648e-04    -2.088023881446575e-04   4.832093747436370e-01    -8.700063389488668e-01   
4.068000000000000e+09    4.769704864914133e-01    -8.784309229028694e-01   6.231370818662738e-05    2.125171595490176e-04    4.897401948305455e-05    -4.952597308112905e-05   4.827976957545208e-01    -8.694048053509439e-01   
4.069000000000000e+09    4.763154098978319e-01    -8.792801813343981e-01   -5.157318168103999e-05   -3.971841148624497e-05   1.061733651025095e-04    1.832102692467437e-04    4.819381829024164e-01    -8.693258177201003e-01   
4.070000000000000e+09    4.754354652917626e-01    -8.799746200737132e-01   -6.758884229336387e-05   3.235033636645413e-05    -3.674517070382647e-05   -2.668278437671923e-05   4.812474482636565e-01    -8.687281188702205e-01   
4.071000000000000e+09    4.749150637492239e-01    -8.806269580192079e-01   -7.113355648073879e-05   5.634034439506540e-05    2.279457497947726e-05    -1.111235598213841e-04   4.804101717771334e-01    -8.685759158516551e-01   
4.072000000000000e+09    4.740911192829032e-01    -8.813896926612920e-01   -1.159850582883631e-04   -2.754946648450490e-05   -1.069844702579022e-04   1.170128179015270e-04    4.793839818269207e-01    -8.682772195201003e-01   
4.073000000000000e+09    4.733783916532458e-01    -8.820776680571044e-01   -5.335438912441916e-05   -6.962765957111764e-05   -2.022796284439795e-04   -1.587526838396034e-04   4.785705342237090e-01    -8.679370390447879e-01   
4.074000000000000e+09    4.723991913054441e-01    -8.828432491005658e-01   -1.747546993069743e-04   5.102789331275190e-05    3.939701329619062e-05    -3.918878656508836e-05   4.773969412653885e-01    -8.677077018403512e-01   
4.075000000000000e+09    4.721327296475846e-01    -8.837402536400575e-01   -2.393033544484528e-05   5.292984336232921e-05    -5.466334032469203e-06   1.426316094142711e-04    4.763458360758090e-01    -8.673117966287022e-01   
4.076000000000000e+09    4.709217283520891e-01    -8.846660910226538e-01   8.294346217231467e-05    8.821129915890582e-05    7.437286335350975e-05    1.761112519493685e-05    4.751316638774646e-01    -8.672523913194177e-01   
4.077000000000000e+09    4.705878942210929e-01    -8.848234864099586e-01   3.551034656806235e-06    -1.102671032148997e-04   -7.507341728005418e-06   4.803610347458795e-06    4.737843739561628e-01    -8.668019436344563e-01   
4.078000000000000e+09    4.698093846594276e-01    -8.862399199317321e-01   8.225489098132488e-05    -1.897931021134435e-05   -7.058442813089636e-05   6.377577326183274e-05    4.722413070008524e-01    -8.667137332852975e-01   
4.079000000000000e+09    4.689737712981618e-01    -8.867070098517493e-01   8.213349584337078e-05    -6.199940696280661e-05   1.454574210320423e-04    9.701123588851774e-05    4.709558734471814e-01    -8.667297266641997e-01   
4.080000000000000e+09    4.679508199694034e-01    -8.876011311583054e-01   7.825012995885579e-05    4.785119510753963e-06    1.129030305096624e-04    -1.090444434559731e-04   4.690957797566537e-01    -8.663952381274024e-01   
4.081000000000000e+09    4.674429564443524e-01    -8.877543127298561e-01   -7.234203856709120e-05   -5.140981582945809e-05   8.137111110854210e-05    2.156625001373237e-05    4.675762413267983e-01    -8.668699080592014e-01   
4.082000000000000e+09    4.672444166280298e-01    -8.887208396126876e-01   -2.380451368943819e-05   -1.223050711086865e-04   3.437309336162657e-05    -1.156440672694877e-04   4.656384263480712e-01    -8.664425418042072e-01   
4.083000000000000e+09    4.659119030628942e-01    -8.893292888699453e-01   -3.317912873016154e-05   1.291692453878443e-04    1.021196578567462e-04    6.250255614883391e-05    4.640941129426229e-01    -8.665516317857084e-01   
4.084000000000000e+09    4.649488438340814e-01    -8.899622393905798e-01   2.350562081441848e-05    1.845134854116337e-04    -8.484770759585725e-06   -1.816920428781229e-04   4.621100549582563e-01    -8.670578157094365e-01   
