[Version] 2.0
! Rohde & Schwarz Vector Network Analyzer
! Rohde-Schwarz,ZNL20-2Port,1323001220200009,1.71.1.10-23.02.1.238
! 
! Port Assignments:
! Nominal Port -> Actual Test Port
! --------------------------------
!   1 -> 1
!   2 -> 2

! Created: GMT+2 2025-01-16 20:25:42

# Hz S RI R 50

[Number of Ports] 2
[Two-Port Data Order] 21_12
[Number of Frequencies] 16001

[Network Data] 
! freq[Hz]               S11[Re]                  S11[Im]                  S21[Re]                  S21[Im]                  S12[Re]                  S12[Im]                  S22[Re]                  S22[Im]                  
4.000000000000000e+09    5.521509603629714e-01    -8.356966247816459e-01   9.275500584824466e-05    4.371883927910837e-05    -1.100881924714002e-04   6.998951457675384e-05    5.426374980081962e-01    -8.144779337926267e-01   
4.001000000000000e+09    5.509570838840638e-01    -8.364409269836043e-01   -1.492774813239203e-04   -2.813545097953187e-04   1.462007496380318e-04    -1.127124585161032e-04   5.407783468584259e-01    -8.154500945568045e-01   
4.002000000000000e+09    5.495726236354673e-01    -8.372602592345881e-01   7.325603831984059e-05    -7.370169057460945e-05   7.987554977966636e-05    -2.749928554214587e-04   5.386429441675674e-01    -8.164742950281486e-01   
4.003000000000000e+09    5.485035598542226e-01    -8.381498502778505e-01   7.591526914924604e-05    8.495994404994969e-05    9.213881381189669e-05    -4.448189670740499e-05   5.367786758806378e-01    -8.174868016013787e-01   
4.004000000000000e+09    5.473292407993431e-01    -8.388776859472289e-01   -1.129195014121514e-04   -1.583013659218518e-04   2.007819703066759e-04    -1.313168177954043e-05   5.348610252889991e-01    -8.191634213218045e-01   
4.005000000000000e+09    5.459736659557394e-01    -8.399792607072024e-01   2.570214350431057e-04    5.774904684658604e-05    -7.901869905822490e-06   -5.123485774890467e-05   5.329183738354392e-01    -8.196962699170491e-01   
4.006000000000000e+09    5.452260076142057e-01    -8.407137772251115e-01   -2.439410910377913e-04   -8.347681542077811e-05   -6.094726084739456e-06   -1.072577264047549e-04   5.307548325304821e-01    -8.212927914451970e-01   
4.007000000000000e+09    5.441113026385344e-01    -8.415346031689980e-01   -2.114864786636776e-04   -7.427691701860730e-06   -1.379466874281126e-04   -5.877293613772684e-05   5.286824704955759e-01    -8.223123575608084e-01   
4.008000000000000e+09    5.426009336033414e-01    -8.429051490404428e-01   -3.264366941641632e-04   8.671364051512309e-05    -9.431976695361283e-05   5.627168792044761e-05    5.270545823339566e-01    -8.238448645999834e-01   
4.009000000000000e+09    5.414127181071419e-01    -8.427974706197126e-01   -1.020363545110585e-04   5.031584059237948e-05    -1.098688060516462e-04   -1.139754282982961e-04   5.252548108483184e-01    -8.249212576945602e-01   
4.010000000000000e+09    5.409981269611807e-01    -8.442715158602354e-01   -6.835337880252270e-05   1.109288643318726e-05    1.675909107387023e-04    -1.398020774330820e-05   5.234939342266167e-01    -8.262539053076848e-01   
4.011000000000000e+09    5.393311375192845e-01    -8.448686083203309e-01   -6.643319526952893e-05   3.627502849906336e-05    1.753448450475693e-05    -1.053939194130784e-04   5.214784943721976e-01    -8.275559973369042e-01   
4.012000000000000e+09    5.378262529428742e-01    -8.454166418013312e-01   1.013816636393170e-04    5.029261540363825e-05    -9.382280759736174e-05   8.296782960820281e-05    5.194658580672132e-01    -8.289730085330038e-01   
4.013000000000000e+09    5.366858765886705e-01    -8.464114995958826e-01   -2.045316067003938e-04   -8.002908633170067e-05   3.976021591671888e-05    7.566004761366223e-05    5.182483436783516e-01    -8.305986482495145e-01   
4.014000000000000e+09    5.359001859651646e-01    -8.469112287875515e-01   -1.825454529559434e-05   2.237832478241395e-05    6.019340440754253e-06    1.610701045254263e-04    5.165904318144177e-01    -8.318675631666976e-01   
4.015000000000000e+09    5.343985699384006e-01    -8.474959238069341e-01   1.634737283711882e-04    3.420912259837729e-05    -5.494413959619560e-05   6.213245856383841e-05    5.150763100667050e-01    -8.333790422955474e-01   
4.016000000000000e+09    5.332084853088602e-01    -8.483086116743939e-01   -4.303195496552965e-05   -7.387339267595186e-05   -3.253160018590342e-05   -4.838019273283554e-05   5.136298215264824e-01    -8.348174634387586e-01   
4.017000000000000e+09    5.326379373623138e-01    -8.488705152892992e-01   -8.426375702305967e-05   2.167621141640289e-05    -6.509889884671768e-05   -1.585822540874850e-04   5.120002202065507e-01    -8.357642382560188e-01   
4.018000000000000e+09    5.311320425825640e-01    -8.494216747376496e-01   3.385277099202673e-05    8.439607307078060e-05    4.586700796538321e-05    5.928165333781928e-05    5.105217649391127e-01    -8.372923112221304e-01   
4.019000000000000e+09    5.299977798021536e-01    -8.496355523884460e-01   -1.207969108179753e-05   -3.203789176826611e-05   8.220533488513371e-05    3.138067383014298e-05    5.092343435056087e-01    -8.389469619839413e-01   
4.020000000000000e+09    5.288631770057864e-01    -8.506328158325495e-01   -1.524473805545257e-05   -1.893023458521448e-05   1.029983179826697e-04    -5.668801759111538e-05   5.079597617282381e-01    -8.399729345247353e-01   
4.021000000000000e+09    5.276056370385038e-01    -8.508404870590247e-01   -6.206285131125209e-05   -5.654841601931472e-05   4.247466269371336e-05    -6.504799538171996e-05   5.063833564608846e-01    -8.412698687591659e-01   
4.022000000000000e+09    5.263940223363693e-01    -8.515966588826752e-01   8.299644323849888e-06    1.364692657366864e-05    -2.307416811744009e-04   1.041571287337427e-04    5.055312033047130e-01    -8.426115778647918e-01   
4.023000000000000e+09    5.257600375057078e-01    -8.523085234764201e-01   -1.197213512336299e-04   2.315801274194331e-04    9.396074594935009e-05    4.761182668865148e-05    5.042044042061360e-01    -8.438545815862389e-01   
4.024000000000000e+09    5.243550869470301e-01    -8.522024484773985e-01   5.873803887103145e-06    -3.624380381364413e-05   -1.189458813977162e-04   7.041022330675752e-05    5.031601911118279e-01    -8.446566626776357e-01   
4.025000000000000e+09    5.231430920556369e-01    -8.527153973172001e-01   -1.163790973802252e-04   -9.495824923656546e-05   -5.214229990918924e-05   -1.079103468488762e-04   5.028223704961765e-01    -8.461923063418730e-01   
4.026000000000000e+09    5.221704801681457e-01    -8.531178209091572e-01   -6.941142458140189e-05   -2.457054767307700e-04   -8.646322914597729e-05   1.783559253211413e-04    5.013454763995072e-01    -8.473053491666225e-01   
4.027000000000000e+09    5.206277109712942e-01    -8.535358592835601e-01   -1.882194004551413e-04   1.330137707902608e-04    -5.701581812594570e-05   7.407384596640426e-06    5.004515301622300e-01    -8.482417776332357e-01   
4.028000000000000e+09    5.195336955780534e-01    -8.541257104517690e-01   1.540332101895411e-04    -1.578756107609253e-04   8.441001900671444e-05    -1.999652938461813e-04   4.993486013457346e-01    -8.493699103058988e-01   
4.029000000000000e+09    5.185195002341003e-01    -8.545760767401346e-01   -1.052658692248412e-04   5.745814197994896e-05    5.636103054135966e-06    1.218603142181676e-04    4.983995703160349e-01    -8.504276091769605e-01   
4.030000000000000e+09    5.173842740409498e-01    -8.546034162895600e-01   5.041637883321410e-05    7.717025136819234e-05    1.070595015434494e-04    1.371438363297946e-04    4.978708672388239e-01    -8.516313710983341e-01   
4.031000000000000e+09    5.162563481711636e-01    -8.552010977416921e-01   8.984329405778583e-05    7.002044423618393e-05    1.310784251664156e-04    -2.667129651387859e-05   4.973052284163763e-01    -8.523941416703656e-01   
4.032000000000000e+09    5.147338451713915e-01    -8.554137316532454e-01   -1.927893430435214e-04   -1.318467597816023e-04   1.502501917272604e-06    -1.435425798220682e-04   4.963425461697158e-01    -8.535200696888423e-01   
4.033000000000000e+09    5.135768017168597e-01    -8.558023513220878e-01   -7.756358374852142e-05   -1.150634394287435e-04   -6.763032074062272e-05   -1.834966232829721e-04   4.957626227262907e-01    -8.543701565909936e-01   
4.034000000000000e+09    5.123307083925844e-01    -8.561511642389253e-01   1.580517732330615e-04    -1.059707861664837e-05   -1.501538077594344e-06   -2.798192951475744e-05   4.948938564590885e-01    -8.553396850483672e-01   
4.035000000000000e+09    5.110150769924994e-01    -8.566951502671861e-01   1.244828292524756e-04    -1.835954147079439e-04   1.155414795969383e-04    -1.613104861980324e-04   4.944408459030328e-01    -8.560735050455186e-01   
4.036000000000000e+09    5.099882684819383e-01    -8.569649171705881e-01   -4.453904179599633e-05   -1.070956446268943e-04   6.305253206645188e-05    -6.594178763932766e-05   4.936713524938462e-01    -8.571874205560689e-01   
4.037000000000000e+09    5.085209650912600e-01    -8.576410147473361e-01   -8.817061764799145e-05   1.484021750703616e-04    9.960093668985885e-05    1.053551780680379e-05    4.930597344563666e-01    -8.577319647158536e-01   
4.038000000000000e+09    5.073279483699527e-01    -8.577805744373882e-01   -1.809649487380275e-04   -9.213997709609978e-05   -1.365359847345459e-04   9.336169883966097e-06    4.923212305164728e-01    -8.587667413431347e-01   
4.039000000000000e+09    5.060676211664505e-01    -8.583947848430440e-01   -1.010888073295359e-04   3.594666685905648e-05    -2.481809603398311e-04   4.083385495316983e-05    4.918364773948888e-01    -8.595371201156924e-01   
4.040000000000000e+09    5.049207018232873e-01    -8.587861788483794e-01   -3.427392854572211e-05   6.522003771724896e-05    -5.083135171329062e-06   -4.010038391357142e-05   4.911976561107930e-01    -8.602777164218043e-01   
4.041000000000000e+09    5.034351383825943e-01    -8.592338748069834e-01   1.532585626709308e-05    1.956908758517738e-04    -7.482356495229964e-07   -1.469086008518557e-05   4.906638632335336e-01    -8.611897234516853e-01   
4.042000000000000e+09    5.024160296293980e-01    -8.597249549878254e-01   1.003663410786679e-05    7.186723518955089e-05    2.131770223420455e-05    3.373679467020873e-05    4.903444700812181e-01    -8.618534882537522e-01   
4.043000000000000e+09    5.011584201383653e-01    -8.602564005795189e-01   3.607137695698506e-05    1.252943501845591e-04    -1.005027742260335e-04   -2.609496650579479e-05   4.898292026638532e-01    -8.626910051078497e-01   
4.044000000000000e+09    4.998306089160490e-01    -8.608265493611117e-01   -9.595047899951693e-05   1.031452373615039e-04    2.072378213648759e-04    -7.998683140101450e-05   4.892551307752965e-01    -8.637937342373134e-01   
4.045000000000000e+09    4.986038190516293e-01    -8.615328401377351e-01   1.581750564874992e-05    -2.141597020638659e-04   4.203603012974273e-05    4.944151637735770e-05    4.889093518771955e-01    -8.641642599921626e-01   
4.046000000000000e+09    4.975034539264812e-01    -8.621846100046808e-01   3.285358743696738e-05    -7.818853235982157e-05   3.793136122967423e-05    4.102331288489757e-05    4.884991424398543e-01    -8.649179583901506e-01   
4.047000000000000e+09    4.964287246946548e-01    -8.629979429096409e-01   5.299284875500969e-06    -7.196434828243201e-05   1.635649067402836e-05    -8.989738089502758e-05   4.880923365497339e-01    -8.654360197660668e-01   
4.048000000000000e+09    4.950286615061478e-01    -8.635023039900807e-01   -7.790067682754988e-05   -3.472993711251213e-05   -1.915440914601024e-05   6.234712902143910e-05    4.878623535618797e-01    -8.658926555037312e-01   
4.049000000000000e+09    4.939424066762770e-01    -8.642940603182675e-01   5.930374494594638e-05    -1.243953217389372e-04   1.537868331845843e-06    -6.946941074906898e-05   4.876326370765337e-01    -8.668569452315903e-01   
4.050000000000000e+09    4.931227937668202e-01    -8.648183170321204e-01   -1.602245429213327e-04   -1.566876221682667e-05   5.917977662698590e-05    -1.982117101846737e-04   4.874017567190151e-01    -8.673879660925137e-01   
4.051000000000000e+09    4.920660302533942e-01    -8.656780892630160e-01   2.724846310628997e-05    -1.761030976923494e-04   -8.576918143141759e-05   -3.422393488934371e-05   4.871268191986491e-01    -8.678593345703679e-01   
4.052000000000000e+09    4.908900312295487e-01    -8.665130025690219e-01   2.448498794555625e-05    7.157476375786250e-05    -6.490896613985440e-06   1.094021578064929e-04    4.868045301709844e-01    -8.683716173617483e-01   
4.053000000000000e+09    4.897112389014200e-01    -8.671436615455245e-01   -5.140638623568136e-05   1.483064727448801e-04    -1.675112010482217e-05   -6.534734814241759e-05   4.868903070739929e-01    -8.687687229580426e-01   
4.054000000000000e+09    4.888232535989812e-01    -8.678781526848657e-01   1.178264578083036e-04    -8.904862645108722e-05   5.837896505820268e-06    9.789704547963814e-05    4.863750944384986e-01    -8.693356483908314e-01   
4.055000000000000e+09    4.878814012377210e-01    -8.684832380162077e-01   -1.560953969756717e-04   -2.086687401194818e-05   7.775196667114757e-05    -3.521634172570249e-05   4.862226433289529e-01    -8.696862352916304e-01   
4.056000000000000e+09    4.868579901209017e-01    -8.695691585653870e-01   -1.161608890530797e-04   1.279901546967857e-04    5.951747121933452e-05    -2.036209528539219e-06   4.861303814491780e-01    -8.699466297257332e-01   
4.057000000000000e+09    4.860931741873635e-01    -8.701516285164184e-01   -6.933205107883489e-05   1.460974058514298e-04    8.998413264984818e-05    -1.604635204812245e-04   4.859685558923189e-01    -8.703662259764173e-01   
4.058000000000000e+09    4.848833177276775e-01    -8.705582955923916e-01   -4.963978281839349e-05   -2.694236720784291e-05   3.207961984638346e-05    5.993810175070065e-05    4.855279595949195e-01    -8.705375420706912e-01   
4.059000000000000e+09    4.839815623328670e-01    -8.715723856277301e-01   -9.840832257430660e-05   5.118176307741434e-05    1.971713917334082e-05    3.826353547586574e-05    4.856544888331582e-01    -8.708373210101946e-01   
4.060000000000000e+09    4.834002356968780e-01    -8.725445427419786e-01   -1.644484567426070e-04   -8.428696171437265e-05   1.204316268522677e-04    2.629402015600523e-07    4.854198102765804e-01    -8.706059858038359e-01   
4.061000000000000e+09    4.824476787830593e-01    -8.730242266116517e-01   -1.822384796372611e-04   8.358096782473070e-05    -1.457935266262746e-06   -2.412741898625711e-05   4.852425050698220e-01    -8.706958133493840e-01   
4.062000000000000e+09    4.816862373799371e-01    -8.738978956074506e-01   -5.876215356252929e-05   -4.899100771945790e-05   -2.749956814415294e-05   -8.158041619277244e-05   4.853580432186876e-01    -8.706885238314939e-01   
4.063000000000000e+09    4.808500711072247e-01    -8.747026080055298e-01   -6.305381704355125e-05   8.330464274579445e-05    2.995585221609718e-05    3.882062393596730e-05    4.847773095713696e-01    -8.705877036954021e-01   
4.064000000000000e+09    4.800680133185696e-01    -8.755142252011670e-01   -1.151985310677958e-04   4.042460590813137e-05    4.737893722023776e-05    7.556095822920832e-05    4.845477249446967e-01    -8.704437005848361e-01   
4.065000000000000e+09    4.794251973764285e-01    -8.761776493641251e-01   4.033984611619940e-05    2.535170085876088e-05    -4.607677011219384e-05   -9.174672673048732e-05   4.839882006452630e-01    -8.703899059602515e-01   
4.066000000000000e+09    4.785690386956746e-01    -8.770811472882684e-01   1.197119437614285e-04    4.510098169618007e-05    -1.549185065732168e-05   -7.269249148340015e-05   4.837537439997907e-01    -8.699183187932477e-01   
4.067000000000000e+09    4.776437979275888e-01    -8.779041745782992e-01   -9.378103648603073e-06   -1.391151701293315e-06   6.192936321499891e-05    9.227101535428985e-06    4.831064027228982e-01    -8.697155309123232e-01   
4.068000000000000e+09    4.769955974986252e-01    -8.786143378587703e-01   5.795257226195521e-05    8.422472272196437e-05    -3.878452692413731e-05   -7.214873097133497e-06   4.824768471967927e-01    -8.695213808784255e-01   
4.069000000000000e+09    4.763220264756742e-01    -8.794333708742716e-01   8.015942067462441e-05    -2.164710942273781e-05   -2.687171341599446e-05   1.244912450103394e-04    4.818580700999532e-01    -8.690647984257998e-01   
4.070000000000000e+09    4.756526042731631e-01    -8.798382043165096e-01   1.851958521547226e-04    2.388207970653710e-04    2.884658974263338e-05    -6.679615241652656e-05   4.810479171043510e-01    -8.689122469216768e-01   
4.071000000000000e+09    4.747864377944928e-01    -8.809120463974880e-01   -5.894145739641021e-05   3.159113902837671e-05    4.351930076316807e-05    -1.019762349058741e-04   4.802136077250774e-01    -8.686126667780182e-01   
4.072000000000000e+09    4.741400745552420e-01    -8.813406077994718e-01   -8.470990044728807e-05   -1.574705506001191e-05   7.952050402838937e-06    1.030279822330120e-05    4.795141376749341e-01    -8.683116827666061e-01   
4.073000000000000e+09    4.729920054553501e-01    -8.818336055080103e-01   1.513544532504924e-04    3.699091581189818e-05    -4.489213754735140e-05   5.362277420973171e-05    4.782529246818565e-01    -8.681576129103203e-01   
4.074000000000000e+09    4.725699664164824e-01    -8.828165904355313e-01   -1.057054243254845e-04   8.491454701482597e-05    -4.042862877805522e-05   2.937923318604109e-05    4.772180899557760e-01    -8.677185121016573e-01   
4.075000000000000e+09    4.719398269343332e-01    -8.838164520564156e-01   1.149532567525161e-04    1.382523864884642e-04    1.493664747548469e-04    8.402180115875018e-05    4.760330407258998e-01    -8.674807875329683e-01   
4.076000000000000e+09    4.709833029916905e-01    -8.844322027755674e-01   1.360807506164409e-04    2.758255311343518e-05    -1.475131601593914e-04   5.492651164542511e-05    4.747836665728791e-01    -8.670320296882543e-01   
4.077000000000000e+09    4.703290624527937e-01    -8.850566755962147e-01   6.145073189113285e-05    8.009018140002495e-05    3.317253929591239e-05    -1.311752324862958e-05   4.736955971756726e-01    -8.667513236676705e-01   
4.078000000000000e+09    4.696661738093710e-01    -8.858675832095717e-01   -7.555475093524865e-05   -9.185196578422940e-05   -4.902387460914008e-05   4.622182463171469e-05    4.721122584886550e-01    -8.668693850513749e-01   
4.079000000000000e+09    4.689509868688695e-01    -8.866577189099722e-01   -6.528399823119302e-05   2.318163906890805e-05    1.446374826104056e-04    3.335455383770071e-05    4.707494206864118e-01    -8.667446747477591e-01   
4.080000000000000e+09    4.679431395220153e-01    -8.872863464262356e-01   -1.051616160520144e-04   -5.177907300636126e-05   -3.637509883895236e-05   3.000462910317907e-05    4.691848886852331e-01    -8.668084480840191e-01   
4.081000000000000e+09    4.672028273129716e-01    -8.883159922195737e-01   2.922430251849673e-05    1.270177796216000e-04    -2.407833618342359e-05   -3.801311889120080e-05   4.675042354505892e-01    -8.666980379303150e-01   
4.082000000000000e+09    4.666987690236668e-01    -8.884391362822550e-01   -9.168644306648616e-05   -5.862042106479018e-05   1.295407847449185e-04    2.026014601350399e-05    4.655978542028710e-01    -8.666898888070910e-01   
4.083000000000000e+09    4.658325596314338e-01    -8.895511585796185e-01   -1.352578529820107e-04   3.555689753697881e-05    -1.153390222727600e-04   -5.970153959177408e-06   4.641378901038614e-01    -8.667273299201007e-01   
4.084000000000000e+09    4.650125674288571e-01    -8.900468307877307e-01   -1.717460192229908e-04   1.473945885138288e-04    2.012756537676408e-05    -9.406542512443198e-05   4.622447128164612e-01    -8.670344905373523e-01   
