[Version] 2.0
! Rohde & Schwarz Vector Network Analyzer
! Rohde-Schwarz,ZNL20-2Port,1323001220200009,1.71.1.10-23.02.1.238
! 
! Port Assignments:
! Nominal Port -> Actual Test Port
! --------------------------------
!   1 -> 1
!   2 -> 2

! Created: GMT+2 2025-01-16 20:26:03

# Hz S RI R 50

[Number of Ports] 2
[Two-Port Data Order] 21_12
[Number of Frequencies] 16001

[Network Data] 
! freq[Hz]               S11[Re]                  S11[Im]                  S21[Re]                  S21[Im]                  S12[Re]                  S12[Im]                  S22[Re]                  S22[Im]                  
4.000000000000000e+09    5.518510249444860e-01    -8.358065494801853e-01   8.759241565645115e-05    2.079740394643216e-05    -3.595007925884589e-05   -1.087047956112553e-04   5.429479177811189e-01    -8.140605470717580e-01   
4.001000000000000e+09    5.508214603737369e-01    -8.366611250504006e-01   -4.614963841723284e-05   -1.412049978468700e-04   -4.455876352452846e-06   -6.875133629914955e-05   5.410155487392968e-01    -8.153280041162080e-01   
4.002000000000000e+09    5.497536518511296e-01    -8.370689781531877e-01   9.300628404083144e-06    1.023983538421468e-06    -1.642915887798957e-05   -7.376308380394048e-05   5.388914290550434e-01    -8.161558753377993e-01   
4.003000000000000e+09    5.484886837363829e-01    -8.383092244249386e-01   -9.227950685403696e-05   4.199397964937245e-06    8.741941997967213e-05    9.417382511494799e-06    5.367364378589259e-01    -8.174385711850414e-01   
4.004000000000000e+09    5.473806101716755e-01    -8.391348892460166e-01   1.648533151403662e-05    -1.123117508562541e-04   -1.139515470828951e-04   9.467297209160538e-05    5.348065829579703e-01    -8.186730513628651e-01   
4.005000000000000e+09    5.459993913767349e-01    -8.399968922012752e-01   1.506146302307493e-04    1.020612814883186e-04    -1.740656377431252e-04   1.931374025579129e-05    5.328845462631809e-01    -8.198015736285309e-01   
4.006000000000000e+09    5.450019488002605e-01    -8.404704682280218e-01   -7.603227360269088e-05   6.068290948527510e-05    -1.054393542943392e-04   3.282517749300160e-04    5.306631856332881e-01    -8.208652441896687e-01   
4.007000000000000e+09    5.439758619537854e-01    -8.414093158437909e-01   -1.118715221608575e-04   6.274838498751182e-05    1.071523523356563e-04    -1.217298447560991e-04   5.291661297927557e-01    -8.220485877237310e-01   
4.008000000000000e+09    5.425763083491517e-01    -8.429156830718633e-01   -6.457330022049670e-05   -8.018427805502751e-05   2.840836737075551e-04    -2.847446156112399e-05   5.270048705047692e-01    -8.236593673670788e-01   
4.009000000000000e+09    5.414403484645604e-01    -8.432861282241531e-01   -9.279382999492703e-06   -6.780480834788017e-05   -2.032135814827425e-05   -3.494740524895674e-06   5.253841708379825e-01    -8.244813830456168e-01   
4.010000000000000e+09    5.403754063121877e-01    -8.440771150855775e-01   1.256738719823622e-04    -1.586604218127390e-04   1.680640111304397e-05    1.340853699586295e-04    5.231398113830079e-01    -8.262413809195887e-01   
4.011000000000000e+09    5.393216560970895e-01    -8.451522971747581e-01   8.011746773781762e-06    -1.108628863404808e-04   -4.962578432505008e-05   -9.172233072544889e-06   5.217366449069639e-01    -8.275701213543778e-01   
4.012000000000000e+09    5.378533401113677e-01    -8.457210380787737e-01   -1.448938431399859e-05   -2.715174056306538e-06   -3.365708840225294e-05   1.950665662765774e-04    5.199270085211485e-01    -8.290177857047394e-01   
4.013000000000000e+09    5.366381562259901e-01    -8.462317492467600e-01   9.988566035963210e-05    -3.329568196688937e-05   1.819519240140657e-05    -3.253790178004089e-04   5.183826922969527e-01    -8.303172845732589e-01   
4.014000000000000e+09    5.354493578514194e-01    -8.469555811073773e-01   -9.811483738520254e-05   -5.126522321556983e-05   7.495012273386233e-05    1.166006700236418e-04    5.165154354423902e-01    -8.316056737102838e-01   
4.015000000000000e+09    5.344667600871389e-01    -8.473975644507934e-01   8.844773305014750e-05    1.623114484959270e-04    -5.996900666031271e-06   -1.222084274048228e-04   5.148482358063616e-01    -8.330445673386304e-01   
4.016000000000000e+09    5.335382555556596e-01    -8.481458511204444e-01   -5.413012385904254e-05   -6.629686948583109e-05   -3.433986363017569e-05   2.252359728130253e-04    5.133685502247538e-01    -8.346428833705237e-01   
4.017000000000000e+09    5.321640211560049e-01    -8.486870017714617e-01   -1.384432703110896e-06   -1.296171717891040e-04   6.868294477013238e-05    2.401070514431624e-05    5.119712400144470e-01    -8.358438549179447e-01   
4.018000000000000e+09    5.308428433176413e-01    -8.494510914298177e-01   7.549666158124637e-05    -6.120705082473857e-05   1.328178275539739e-04    4.134523781671754e-05    5.107433909136818e-01    -8.369443300496738e-01   
4.019000000000000e+09    5.299618524623781e-01    -8.499801729117907e-01   -3.045517911300596e-06   -5.946464607875602e-05   -4.292195660789513e-05   -2.087976299212838e-04   5.095276915174288e-01    -8.386919063505236e-01   
4.020000000000000e+09    5.288413487980846e-01    -8.508462506919846e-01   9.051858799834495e-06    -2.410584523626665e-04   -1.131808369009992e-05   1.145685510743063e-04    5.076975632181169e-01    -8.399001712630899e-01   
4.021000000000000e+09    5.272676430136471e-01    -8.504836619211686e-01   4.360525036315362e-05    -1.255806693278914e-04   2.552630796229971e-05    -4.601860039123908e-05   5.068920544289871e-01    -8.408965815533638e-01   
4.022000000000000e+09    5.264397421543665e-01    -8.515206657367941e-01   -1.226748273463609e-04   -1.633764369451543e-04   -1.356524145208942e-04   6.162587497717744e-05    5.057141467699998e-01    -8.422561011381902e-01   
4.023000000000000e+09    5.254164474969716e-01    -8.519862473684147e-01   -1.139914544833722e-04   -2.473239651094908e-04   -4.785809836285365e-06   1.003770620503089e-04    5.043636717254508e-01    -8.435391125056032e-01   
4.024000000000000e+09    5.243018737802703e-01    -8.522485567576521e-01   -1.593761226327180e-05   4.486478996045979e-06    -1.269538637658869e-04   3.983216520015280e-06    5.032513767009856e-01    -8.448872508754481e-01   
4.025000000000000e+09    5.230354938023816e-01    -8.526996582052055e-01   -8.698728858655649e-05   1.235010102876836e-04    -3.484403962289097e-05   -2.737444680626641e-05   5.024156558095279e-01    -8.459377761132570e-01   
4.026000000000000e+09    5.220669913413452e-01    -8.532482307086757e-01   -1.614629391628471e-04   3.260204369665099e-05    -1.861973858983738e-04   7.162608768742998e-05    5.015101322394913e-01    -8.471938081295555e-01   
4.027000000000000e+09    5.209986192571249e-01    -8.534842015279110e-01   -2.708411442973351e-04   -6.978609036969140e-05   -2.004135284143599e-06   9.023756593396661e-05    5.001709019005648e-01    -8.482489516902634e-01   
4.028000000000000e+09    5.197456096574306e-01    -8.538876033182140e-01   2.839868166608792e-04    2.740013507216687e-04    1.542761926276113e-05    -1.408100712446923e-05   4.994650168578040e-01    -8.493485405565269e-01   
4.029000000000000e+09    5.187282082514612e-01    -8.545589342648235e-01   -2.500269225039612e-05   -1.463678610624597e-04   3.026060655197682e-04    -1.419603996444630e-06   4.985702633093558e-01    -8.504030216848794e-01   
4.030000000000000e+09    5.173467203257637e-01    -8.546328414170824e-01   4.255283416353496e-05    4.435947398742516e-05    -2.993627507039547e-05   -9.548054832211799e-05   4.980602216100222e-01    -8.513498061128718e-01   
4.031000000000000e+09    5.164356795134164e-01    -8.550065764530242e-01   -3.057544355476062e-07   -1.463285664834618e-07   5.952084513542245e-05    1.404444989074098e-05    4.970528523731615e-01    -8.523096738546951e-01   
4.032000000000000e+09    5.150611000179289e-01    -8.555589074174385e-01   -4.581494856901707e-05   4.300123891912437e-05    2.628047308943051e-06    -3.335132470076299e-05   4.961762400143643e-01    -8.535011824172121e-01   
4.033000000000000e+09    5.136137128115603e-01    -8.556062373449074e-01   6.464802167218330e-05    -7.119338965763405e-06   -7.481999893745834e-05   5.024056988808333e-05    4.956502913863944e-01    -8.540761609101252e-01   
4.034000000000000e+09    5.123302846203774e-01    -8.563472635117628e-01   2.590254385347649e-04    -7.563100069279971e-05   3.641667612442760e-05    5.443649153538913e-05    4.949828251700336e-01    -8.552039201506108e-01   
4.035000000000000e+09    5.111602137367509e-01    -8.567086595654471e-01   8.910254682435359e-05    1.983756863697977e-04    -8.268312320689654e-05   -1.260583601121237e-04   4.943992479041555e-01    -8.562044915517051e-01   
4.036000000000000e+09    5.101761108057855e-01    -8.569443583066667e-01   -1.472435499218209e-04   2.749862550686927e-05    -2.235071621773116e-04   -2.734305457937334e-04   4.933392501278493e-01    -8.571274876043515e-01   
4.037000000000000e+09    5.088500523954506e-01    -8.574493053313901e-01   2.215062337584930e-04    1.107131168378857e-04    -8.462106462582217e-05   1.471801950363590e-04    4.929762389626594e-01    -8.578223061740318e-01   
4.038000000000000e+09    5.074114666916654e-01    -8.579208142751239e-01   -2.082053254145992e-05   -7.869733571105468e-05   -1.019745329280641e-04   5.524002053585802e-06    4.925373136274094e-01    -8.586928701283946e-01   
4.039000000000000e+09    5.061282730325197e-01    -8.582616700865954e-01   4.609358794600110e-05    -1.183474632468837e-04   -2.296330234922971e-05   6.503063856431725e-05    4.920343999358571e-01    -8.596571315307621e-01   
4.040000000000000e+09    5.048228907318557e-01    -8.589273200730936e-01   1.704909778965008e-04    -5.021614401681642e-05   -1.536781158002545e-05   7.593035753957183e-05    4.912516047465691e-01    -8.604319339075750e-01   
4.041000000000000e+09    5.035694728023038e-01    -8.592574923863963e-01   -4.809687942244372e-05   2.041954617498445e-04    -4.324341582519131e-06   -2.573096920154033e-05   4.907735517637039e-01    -8.613223669139818e-01   
4.042000000000000e+09    5.022527506884030e-01    -8.598365523051548e-01   1.942244727807046e-04    9.915679833826313e-05    5.707371725592297e-05    1.459049009188786e-04    4.903820617766726e-01    -8.620113583252722e-01   
4.043000000000000e+09    5.011322148979650e-01    -8.604545412056462e-01   4.535935598278667e-05    3.152531261992015e-05    -9.490543572745806e-05   -4.304533455540075e-05   4.898345821853958e-01    -8.626918369582016e-01   
4.044000000000000e+09    4.998668814960652e-01    -8.610459373656686e-01   1.187007426996818e-05    1.451951448220993e-05    2.008160585809359e-04    9.244937603154726e-05    4.894596988242876e-01    -8.634383505052761e-01   
4.045000000000000e+09    4.986856322570707e-01    -8.613479159839401e-01   -6.647088124513134e-05   4.858760861736574e-05    -1.470028012123529e-04   3.802036118692029e-05    4.889343781118237e-01    -8.639712660130587e-01   
4.046000000000000e+09    4.973743262554623e-01    -8.622356423833770e-01   1.050818127837932e-04    -4.586747743869290e-05   -7.774201692391527e-05   -1.316198514048525e-04   4.887496568282492e-01    -8.649795373875686e-01   
4.047000000000000e+09    4.963385307909936e-01    -8.629168361208218e-01   -5.309459189915486e-05   -4.686989784723607e-05   -6.847629601610787e-06   -1.400662568593441e-04   4.882367376754880e-01    -8.652745021244698e-01   
4.048000000000000e+09    4.950435227184307e-01    -8.633249222432016e-01   1.185911851624843e-05    1.550504042285300e-04    1.310024963465846e-04    5.777080222512422e-05    4.880349201031153e-01    -8.662453020054756e-01   
4.049000000000000e+09    4.937069578317649e-01    -8.640323850274410e-01   1.179779319442618e-04    -6.452975169521357e-05   -1.256005385804234e-04   9.943619326927583e-05    4.876006276118356e-01    -8.669758200509032e-01   
4.050000000000000e+09    4.929128796437272e-01    -8.648442154418607e-01   1.439770302616709e-04    6.305874718894020e-05    4.277583050934117e-06    -4.075084301986573e-05   4.873428873667187e-01    -8.673684088074953e-01   
4.051000000000000e+09    4.919137527068951e-01    -8.654729457570183e-01   1.048356125147268e-05    8.180615886757582e-05    -1.304090169512148e-04   1.275941835846526e-04    4.872254840067455e-01    -8.679706988960915e-01   
4.052000000000000e+09    4.908832292843868e-01    -8.663491524939287e-01   -6.208390203939899e-05   2.252390785171454e-05    3.738234084134634e-05    2.083925764080169e-06    4.870262941957715e-01    -8.683528076372636e-01   
4.053000000000000e+09    4.899369896359442e-01    -8.668240563152472e-01   -3.800629541156475e-05   -1.260364422699731e-04   1.211988263400941e-04    -8.259841472646264e-05   4.868799297288341e-01    -8.688386662043587e-01   
4.054000000000000e+09    4.889193018777538e-01    -8.678777558531788e-01   5.265310099656166e-05    1.387066014269223e-04    -2.690024728936633e-05   -7.014247422002316e-05   4.865381473570111e-01    -8.695503391430667e-01   
4.055000000000000e+09    4.878426960075643e-01    -8.684038565855593e-01   -2.277776255198033e-05   -9.095534220937246e-05   -5.952575306328188e-05   1.543434668932417e-04    4.864218878991442e-01    -8.697538165984602e-01   
4.056000000000000e+09    4.870264454440140e-01    -8.693816565744344e-01   1.641557521071147e-04    1.191072863709056e-04    2.046968013754857e-05    5.954270152363464e-05    4.863450075357358e-01    -8.700443041398821e-01   
4.057000000000000e+09    4.858765254279453e-01    -8.700639143658910e-01   1.450943226837046e-04    -9.951742016726685e-06   4.091032839330180e-05    2.217181167249961e-05    4.859745196872326e-01    -8.702097448224844e-01   
4.058000000000000e+09    4.849178207976890e-01    -8.706969540633934e-01   -2.278568671253065e-05   -2.990591802359669e-05   1.555393331107736e-05    9.839945353104085e-05    4.860054127079477e-01    -8.701977479518118e-01   
4.059000000000000e+09    4.841369393110113e-01    -8.717060533657464e-01   1.252320390311348e-04    3.564957940969535e-05    1.001860884574441e-04    1.256029342733864e-04    4.858186635175643e-01    -8.707526077736391e-01   
4.060000000000000e+09    4.833161287220762e-01    -8.721977113755380e-01   3.246853726021403e-05    4.314103338876457e-05    2.584548592919323e-05    2.711122670785097e-06    4.856751431615846e-01    -8.705309953328870e-01   
4.061000000000000e+09    4.823376802872099e-01    -8.730814906696271e-01   1.769624117035689e-04    6.386679526537723e-05    -2.828932774948085e-06   -1.815472282397010e-04   4.854268531005864e-01    -8.707821121188790e-01   
4.062000000000000e+09    4.816309085447974e-01    -8.740144819797422e-01   3.147223779354101e-05    1.528207171347679e-04    2.160699838104583e-06    7.482454855929102e-05    4.852590546860337e-01    -8.706005824812431e-01   
4.063000000000000e+09    4.808512912921936e-01    -8.749546272468947e-01   -6.029147234530603e-05   7.409077788136734e-05    2.527234594382173e-04    1.127559249182891e-04    4.848181296204520e-01    -8.708486185248064e-01   
4.064000000000000e+09    4.798480655259763e-01    -8.752476084822087e-01   -6.295456682345180e-05   -1.184593849246396e-04   -5.225844157479828e-05   7.562172576954995e-05    4.848391126714116e-01    -8.704385067237853e-01   
4.065000000000000e+09    4.791158635320709e-01    -8.760285597355694e-01   1.202755232516053e-04    -4.166105605363403e-05   6.473033505976537e-05    1.421110605953334e-05    4.843579345905976e-01    -8.700388242059393e-01   
4.066000000000000e+09    4.785744423364045e-01    -8.772584778690871e-01   -4.855264449130585e-05   2.591544579173632e-05    3.695393496245747e-05    -2.735837277986570e-06   4.835733596178063e-01    -8.703478892895194e-01   
4.067000000000000e+09    4.776602702840244e-01    -8.778096941255669e-01   -2.090175257192527e-04   -1.445265855932623e-06   -3.789384928658262e-05   3.098488344200312e-05    4.832139256719950e-01    -8.697592303830293e-01   
4.068000000000000e+09    4.769384387260699e-01    -8.783153845464451e-01   -2.744243885235489e-07   7.014738399764868e-05    -2.375929211927566e-05   -1.078520398960898e-05   4.828541000822713e-01    -8.694303167671029e-01   
4.069000000000000e+09    4.760899297051610e-01    -8.793450530964152e-01   -7.519769700773674e-05   -1.128413914245063e-04   4.991120679112893e-05    7.264784368436403e-05    4.820296085544408e-01    -8.691134053149208e-01   
4.070000000000000e+09    4.755835257044112e-01    -8.800674576140103e-01   2.159008907732502e-05    -8.440305405126628e-05   -7.056106994739857e-05   4.657080642579012e-05    4.811154601241829e-01    -8.688886411870828e-01   
4.071000000000000e+09    4.749451297667626e-01    -8.807227553891797e-01   -2.111517896460402e-05   -1.004814528009019e-04   -2.995073366610231e-05   2.939955733027031e-05    4.806788691313883e-01    -8.684896378974898e-01   
4.072000000000000e+09    4.740991396577454e-01    -8.814424912679417e-01   1.223111132204668e-05    7.040324700468268e-05    -3.661430108135649e-05   1.140142789471398e-04    4.796786099268241e-01    -8.685244755848660e-01   
4.073000000000000e+09    4.732869605763754e-01    -8.820986886791019e-01   -1.297644794743692e-05   9.469345588077110e-05    -6.388900040747288e-05   -2.405221051143441e-05   4.785454828378766e-01    -8.678657989441904e-01   
4.074000000000000e+09    4.722135223566860e-01    -8.829236630609386e-01   -1.868750335853089e-05   -1.266111697443771e-04   -1.209331688456976e-04   -5.725857164781742e-05   4.773904166553500e-01    -8.676935300605314e-01   
4.075000000000000e+09    4.718816901353043e-01    -8.838453177201504e-01   -4.789098557250375e-05   -2.199440995726648e-05   1.394107074698503e-04    2.815038101987646e-05    4.763007990704524e-01    -8.673849051101772e-01   
4.076000000000000e+09    4.712328903280036e-01    -8.844743861834762e-01   1.112030275049470e-04    -1.132722518970657e-05   -1.669539037055382e-04   -7.129678043261475e-05   4.749823363739238e-01    -8.670236833387805e-01   
4.077000000000000e+09    4.702797080936138e-01    -8.851704884633129e-01   8.222278145429349e-05    -1.456315609078559e-05   -5.572432461718780e-05   -5.465549829994178e-05   4.737498875473404e-01    -8.666095202881693e-01   
4.078000000000000e+09    4.695663697182186e-01    -8.860183837236369e-01   -6.620409107438896e-05   -2.285018158823198e-04   -1.277153087397673e-04   1.031087696558353e-05    4.722328826235666e-01    -8.667235692417979e-01   
4.079000000000000e+09    4.688586406094639e-01    -8.869143858043338e-01   -9.806491469428404e-05   -1.625874874814679e-04   1.559603253053976e-04    1.939744072688659e-05    4.708723307412279e-01    -8.665361609037527e-01   
4.080000000000000e+09    4.678555987764837e-01    -8.869769777568509e-01   5.501928868505795e-05    1.442010645775772e-05    4.835020398823837e-05    4.782675889871719e-05    4.692044554662645e-01    -8.666285995386120e-01   
4.081000000000000e+09    4.673573960094436e-01    -8.881967487885922e-01   -1.005408780164994e-04   4.581193593527111e-05    7.130449389151587e-05    -4.382552713558168e-05   4.674166564967404e-01    -8.666865950166996e-01   
4.082000000000000e+09    4.665793061536152e-01    -8.886520577469135e-01   8.167919582197786e-05    -4.385329007143465e-05   5.833792649580332e-05    3.392018279284090e-05    4.659243140835287e-01    -8.664440335215642e-01   
4.083000000000000e+09    4.658896893202456e-01    -8.894076189856706e-01   -2.654032950516248e-04   1.352249087192994e-04    2.407008469557379e-05    3.029961554891275e-05    4.642081757268366e-01    -8.668267593539083e-01   
4.084000000000000e+09    4.650159106529030e-01    -8.900185675779716e-01   -8.308053688559777e-05   4.369710871723207e-05    -8.062698877758147e-05   -9.650962382710859e-06   4.623464809916661e-01    -8.669758511167213e-01   
