[Version] 2.0
! Rohde & Schwarz Vector Network Analyzer
! Rohde-Schwarz,ZNL20-2Port,1323001220200009,1.71.1.10-23.02.1.238
! 
! Port Assignments:
! Nominal Port -> Actual Test Port
! --------------------------------
!   1 -> 1
!   2 -> 2

! Created: GMT+2 2025-01-16 20:26:27

# Hz S RI R 50

[Number of Ports] 2
[Two-Port Data Order] 21_12
[Number of Frequencies] 16001

[Network Data] 
! freq[Hz]               S11[Re]                  S11[Im]                  S21[Re]                  S21[Im]                  S12[Re]                  S12[Im]                  S22[Re]                  S22[Im]                  
4.000000000000000e+09    5.521388251449314e-01    -8.356051299017061e-01   1.919641575806558e-04    2.577723055202780e-04    -1.452039077294876e-04   -3.641577030046328e-05   5.429441345465582e-01    -8.144805746189430e-01   
4.001000000000000e+09    5.508656766860677e-01    -8.368442269368399e-01   -1.027987584054286e-04   -1.639835904719169e-04   -2.740696601623177e-05   1.086391087930245e-04    5.407781323843122e-01    -8.154674885633769e-01   
4.002000000000000e+09    5.500002089365963e-01    -8.372018085556632e-01   1.422115837987141e-05    7.579930841319145e-05    -1.009049770351692e-04   1.206137524559401e-05    5.389113517970143e-01    -8.162852156800560e-01   
4.003000000000000e+09    5.485129548906944e-01    -8.380148667216332e-01   -7.241665802954724e-05   -2.019364491264475e-05   1.318888227534637e-04    -1.088279755284653e-04   5.370109973662943e-01    -8.175741167976517e-01   
4.004000000000000e+09    5.476186216579353e-01    -8.392919080861134e-01   -8.270286688781747e-06   5.675077765955915e-05    -2.511819768236678e-05   -1.455752665532399e-04   5.349410337807100e-01    -8.187914135625034e-01   
4.005000000000000e+09    5.464111248246236e-01    -8.400571500073951e-01   1.334030994563944e-04    7.500347289419489e-05    -2.323414874261275e-06   1.627760592763821e-04    5.328365488618927e-01    -8.196099083715300e-01   
4.006000000000000e+09    5.453131109133617e-01    -8.405378548391003e-01   -1.521724662054279e-04   4.293175299228292e-05    -4.230202490908857e-05   -5.503082836599024e-05   5.308312357891545e-01    -8.210017341082295e-01   
4.007000000000000e+09    5.439303128910483e-01    -8.414724517878891e-01   6.396233615020174e-05    -5.142995051240094e-05   -8.586724521501649e-05   1.561253058525533e-05    5.291385112203502e-01    -8.221189007968381e-01   
4.008000000000000e+09    5.430163105716926e-01    -8.424593146577183e-01   1.536350224302973e-04    -1.462676092572202e-04   -9.409986344991905e-05   -1.956816112370204e-04   5.277726264446443e-01    -8.234908430112533e-01   
4.009000000000000e+09    5.417643533172581e-01    -8.431408845147587e-01   -5.319028750302700e-05   -4.376594412608476e-05   -1.297693018088163e-06   -1.204592266184662e-04   5.255177565072126e-01    -8.248414319256838e-01   
4.010000000000000e+09    5.404680458941558e-01    -8.442163073173653e-01   8.328013851384870e-05    6.674986624387143e-05    7.191652160857699e-05    -1.127390325723679e-04   5.234071162792898e-01    -8.260720288320312e-01   
4.011000000000000e+09    5.392749377827245e-01    -8.450282394129440e-01   6.772520181230346e-05    2.248110884729291e-04    -5.916503970648014e-05   1.700342935686273e-04    5.215452309234044e-01    -8.275380784017377e-01   
4.012000000000000e+09    5.383558256271576e-01    -8.456971483469946e-01   -4.903596143600103e-05   2.012052205390417e-04    -1.064612347875430e-04   1.564515950813244e-04    5.197662014588699e-01    -8.290513105676606e-01   
4.013000000000000e+09    5.366781931574464e-01    -8.463763950985733e-01   -1.487261001950902e-04   1.000868108800052e-04    -6.826652787655652e-06   5.427765819563111e-05    5.185550343017474e-01    -8.302212944015995e-01   
4.014000000000000e+09    5.357965514531534e-01    -8.468936050738481e-01   7.872508378662904e-06    3.173065083687658e-05    -2.947714421968704e-07   1.019533202127928e-04    5.167108173648058e-01    -8.319104074446043e-01   
4.015000000000000e+09    5.346619483989691e-01    -8.476713706311138e-01   4.622093408459265e-05    3.150417506444974e-04    -6.021128556358431e-05   -1.156108404261664e-04   5.151390005325764e-01    -8.330053090552546e-01   
4.016000000000000e+09    5.335510123833396e-01    -8.481472300124212e-01   1.023057697079547e-05    7.142210300634264e-05    -7.579300217689306e-05   -6.883394339960766e-05   5.135929437072037e-01    -8.346303474714147e-01   
4.017000000000000e+09    5.323389223964148e-01    -8.489279432078344e-01   -1.116972147277140e-04   -1.729006689376372e-05   1.390694214252498e-04    -1.193053803094124e-04   5.121875350178157e-01    -8.359596590860167e-01   
4.018000000000000e+09    5.311943788713517e-01    -8.495932359672190e-01   4.194956656458083e-05    2.442272784304651e-04    1.137860736706210e-04    -1.976171739704631e-04   5.104594027626249e-01    -8.376244326041619e-01   
4.019000000000000e+09    5.301496875851740e-01    -8.494471403816773e-01   -1.710466443119558e-04   1.657032781983450e-04    7.638456123638834e-05    5.433416290101356e-05    5.094414378079950e-01    -8.384535129551083e-01   
4.020000000000000e+09    5.290175283188823e-01    -8.502950861872410e-01   -1.198317015297846e-04   -1.184806650165645e-04   7.995378202690945e-05    2.131981443372677e-05    5.081467843219750e-01    -8.398076964179843e-01   
4.021000000000000e+09    5.280170550605302e-01    -8.507140981972507e-01   1.055746582554503e-04    -2.330742631624081e-05   -7.379569206744242e-05   2.710562990697276e-04    5.066031127573670e-01    -8.411734475997776e-01   
4.022000000000000e+09    5.267210321933817e-01    -8.515223658619406e-01   1.538308102487753e-04    -2.612132801851441e-04   5.833402096171723e-05    3.847901242852334e-05    5.057840534818303e-01    -8.422324458352809e-01   
4.023000000000000e+09    5.257117499655954e-01    -8.519318285326929e-01   8.564679228718790e-06    -1.021664190746342e-05   1.078758607650942e-04    1.293609739746901e-04    5.045307749534169e-01    -8.436146106252070e-01   
4.024000000000000e+09    5.242504978371538e-01    -8.524676500790551e-01   2.343718647884717e-05    4.321551108811296e-05    -7.451852584371728e-05   8.950789317200814e-05    5.035561327077307e-01    -8.447360730776454e-01   
4.025000000000000e+09    5.231373681971254e-01    -8.525669345819412e-01   3.209820208066170e-05    7.170646146210114e-05    -1.137491316475069e-04   8.110570265436975e-05    5.027490198500865e-01    -8.462197241769799e-01   
4.026000000000000e+09    5.223004590931517e-01    -8.533074475745244e-01   -4.782899255600262e-05   7.368611928598591e-05    -9.801911891739644e-05   5.806830929721117e-05    5.014019315286775e-01    -8.473098738490017e-01   
4.027000000000000e+09    5.210385807109096e-01    -8.536423044798735e-01   1.339352080664615e-04    5.296092857975597e-06    -4.651942931725128e-05   1.405551757214591e-04    5.007085331716495e-01    -8.480834699550657e-01   
4.028000000000000e+09    5.198164888400109e-01    -8.537750057852657e-01   -1.338456741391516e-04   1.561432507441641e-04    5.711883603183950e-05    -3.399102880801462e-05   4.996613269273557e-01    -8.494822126735241e-01   
4.029000000000000e+09    5.187956418315798e-01    -8.543111263448067e-01   -1.133784806824374e-04   1.848536602685466e-05    3.887540032605529e-05    1.139309671143390e-04    4.987592724913215e-01    -8.502522600260947e-01   
4.030000000000000e+09    5.173711476203314e-01    -8.547895110925257e-01   6.275386943077412e-05    4.607326823497298e-06    2.623874402367024e-05    1.900685269468917e-05    4.979716804879321e-01    -8.514707342728228e-01   
4.031000000000000e+09    5.161681515751876e-01    -8.551968468957937e-01   1.152668995749032e-04    8.625932247811748e-05    1.822705110289350e-04    1.526217633010457e-05    4.974970312218052e-01    -8.522166540739836e-01   
4.032000000000000e+09    5.149165653549925e-01    -8.554213044735192e-01   -1.324987191926264e-04   -1.732040473657208e-04   -1.581025918411621e-04   5.873598004588834e-05    4.965744177186009e-01    -8.535967386776018e-01   
4.033000000000000e+09    5.136679949150893e-01    -8.557670358908401e-01   -2.538380487380084e-05   3.929216661134229e-05    -4.135216048583790e-05   -1.104087020749378e-04   4.956354784386556e-01    -8.541952822713247e-01   
4.034000000000000e+09    5.124728528962954e-01    -8.560715341563518e-01   1.060860819113383e-04    -5.691945267610254e-05   6.926841874170486e-05    2.994084181513378e-05    4.948380823232767e-01    -8.553397011402052e-01   
4.035000000000000e+09    5.113145803905625e-01    -8.566867521066884e-01   1.028445555348027e-04    -6.732238427801900e-05   -1.495242879221365e-06   -1.556857746887229e-05   4.943148657191968e-01    -8.560648010411347e-01   
4.036000000000000e+09    5.101694433901017e-01    -8.570253465153226e-01   -7.370455934204251e-06   2.356830280505850e-05    1.281463306233243e-04    1.386218787074325e-04    4.937849449109669e-01    -8.570786426695703e-01   
4.037000000000000e+09    5.085844037196874e-01    -8.573926627148070e-01   1.722306006345009e-05    2.154937065402845e-05    7.605140345354467e-05    1.082295494070082e-04    4.931038720864244e-01    -8.577304473932156e-01   
4.038000000000000e+09    5.077154448379257e-01    -8.578245764457328e-01   -5.594542107627567e-05   4.678298340580091e-08    4.452122659276019e-05    4.731108637272708e-05    4.926565835781594e-01    -8.587427634840172e-01   
4.039000000000000e+09    5.061699175810036e-01    -8.582808131751694e-01   -8.687492191018201e-05   -7.853996733910616e-05   -6.374408381050405e-05   7.306735336754817e-07    4.919863977154125e-01    -8.594455283486054e-01   
4.040000000000000e+09    5.049955181669381e-01    -8.587536755381666e-01   8.093863349406670e-05    2.277518552767403e-04    7.350597900307854e-05    1.813163161250222e-05    4.916180061371186e-01    -8.601691491917122e-01   
4.041000000000000e+09    5.035697359495991e-01    -8.592926408013420e-01   -2.517033983847160e-04   -1.235138582819054e-04   -1.183856527584179e-05   -8.137431161638441e-05   4.909466360677074e-01    -8.608843215482372e-01   
4.042000000000000e+09    5.022945958964421e-01    -8.598065150833982e-01   -1.983921566316076e-05   -7.736113202183096e-06   -8.675827343057890e-05   9.674409938610555e-05    4.906589762986521e-01    -8.620457400023368e-01   
4.043000000000000e+09    5.011243656608029e-01    -8.603977734668924e-01   -2.669916456187067e-05   1.044520189519409e-04    -1.844192746496672e-04   -7.933704375131182e-05   4.897755611821238e-01    -8.626836300996962e-01   
4.044000000000000e+09    4.996753766165166e-01    -8.608511100823079e-01   6.561288284446022e-05    1.197968290320607e-04    2.062375768485609e-04    3.278152668641425e-05    4.898467839890455e-01    -8.633137873358770e-01   
4.045000000000000e+09    4.989060419169267e-01    -8.614591405583489e-01   4.815390260614842e-05    6.763123329768619e-05    1.184552029697569e-05    -5.509095350002023e-05   4.890970792992442e-01    -8.641826927851973e-01   
4.046000000000000e+09    4.974728107162849e-01    -8.622252570702027e-01   -3.131379946804421e-06   3.592024154713608e-05    -1.600078621622296e-04   8.781492436980425e-06    4.888593425834530e-01    -8.648079784056137e-01   
4.047000000000000e+09    4.961544597167762e-01    -8.628795409799795e-01   -9.948767953033071e-05   -2.711477413292990e-05   3.059478133157022e-05    1.111724898134263e-04    4.882962862377113e-01    -8.652635875835377e-01   
4.048000000000000e+09    4.950981147201665e-01    -8.634653711849568e-01   -1.232543047823519e-04   1.110675065149855e-04    4.895365546858015e-05    -1.092337678393317e-06   4.881075186831031e-01    -8.662116492964897e-01   
4.049000000000000e+09    4.939901352865230e-01    -8.642808456734553e-01   -1.321516750909450e-05   -2.882881253625019e-05   -2.391239319604957e-04   2.159630692698272e-04    4.875647861770829e-01    -8.667407872536695e-01   
4.050000000000000e+09    4.928953423437224e-01    -8.649532084573245e-01   1.936474526174140e-05    -3.690138643240017e-05   -6.012974333998073e-05   8.264654481960388e-06    4.875147266614754e-01    -8.672623164814310e-01   
4.051000000000000e+09    4.920778542322537e-01    -8.657443841357153e-01   2.647025431512704e-06    -7.022348042257746e-05   -4.223711299351495e-05   1.697854463724100e-05    4.874224626014211e-01    -8.678544387547290e-01   
4.052000000000000e+09    4.908121187528828e-01    -8.663563758662944e-01   -3.963311885903551e-05   -1.134470398798683e-04   4.780854227196065e-05    1.414415293184250e-04    4.870433823918874e-01    -8.683345796744767e-01   
4.053000000000000e+09    4.896301328041731e-01    -8.670998939180645e-01   2.674783016439780e-05    1.590471297719121e-04    -4.024370396347097e-06   -1.008657519014023e-05   4.870460733579728e-01    -8.689641801204825e-01   
4.054000000000000e+09    4.888704109712794e-01    -8.676386737353045e-01   -3.644470015330759e-08   -7.055660188769473e-05   -6.355510644620160e-06   8.466814553857776e-06    4.867614182652441e-01    -8.692955608374455e-01   
4.055000000000000e+09    4.880664766632931e-01    -8.686536053990626e-01   -1.496271205604258e-04   8.163365112414006e-06    -2.887860584028569e-05   4.612718927327086e-05    4.866875598900428e-01    -8.693312392311102e-01   
4.056000000000000e+09    4.870101506953708e-01    -8.695202816606804e-01   3.780569556815254e-05    9.693997691132156e-05    3.721603260528884e-05    -4.433778518082390e-05   4.863572498675141e-01    -8.696779622158928e-01   
4.057000000000000e+09    4.858120664152080e-01    -8.700683673318489e-01   -1.303829706338264e-06   2.028322343503100e-05    -8.448329427899891e-05   7.347701423756435e-05    4.861337452624040e-01    -8.704102090870515e-01   
4.058000000000000e+09    4.846274997477629e-01    -8.709380458734900e-01   -1.734870690718625e-05   -2.971754222308566e-05   3.159280178574751e-05    -2.912174536754245e-06   4.859076668487549e-01    -8.706533225848011e-01   
4.059000000000000e+09    4.842828599057505e-01    -8.716313736707884e-01   1.715447008380844e-04    1.245904717553463e-04    1.979842948198666e-06    1.132261357933238e-04    4.859141641248598e-01    -8.707176239072488e-01   
4.060000000000000e+09    4.833771403026744e-01    -8.727329150790659e-01   -6.674867266956268e-05   1.261140659713965e-04    1.118941616426046e-04    -5.418418702968683e-05   4.859525472909664e-01    -8.706544991959008e-01   
4.061000000000000e+09    4.824777802404518e-01    -8.732219300223411e-01   -8.890032721296987e-05   2.182691516391164e-04    -6.673065582424263e-05   -1.559259382781065e-04   4.856833676556257e-01    -8.707418829216611e-01   
4.062000000000000e+09    4.814539670493665e-01    -8.738572677489105e-01   -3.485668901041408e-05   -9.503075367785434e-05   -1.054529243382560e-04   -1.245179413809233e-04   4.853488668718134e-01    -8.705017867349004e-01   
4.063000000000000e+09    4.809066377926516e-01    -8.746465439801312e-01   -1.343537001161051e-04   3.276317191885997e-05    3.251412767530384e-05    2.314183832342300e-04    4.847380615302522e-01    -8.708503143658402e-01   
4.064000000000000e+09    4.800276935599404e-01    -8.755287987716087e-01   -1.281355571790574e-05   -2.329880029462394e-04   6.075852895264168e-05    -2.503787329111674e-04   4.847981222149768e-01    -8.704461312350749e-01   
4.065000000000000e+09    4.791583473366752e-01    -8.761942625922561e-01   2.887859198162435e-05    6.922206454737903e-05    5.324942239411925e-05    7.227000697272174e-06    4.843776359187117e-01    -8.702506693238243e-01   
4.066000000000000e+09    4.787577087589244e-01    -8.771407506443029e-01   1.101769802128934e-05    1.400019224062190e-04    2.085438365344976e-04    -1.490830494267203e-04   4.841434707773289e-01    -8.701912409665205e-01   
4.067000000000000e+09    4.777494971092855e-01    -8.777424081598966e-01   -1.709668333434613e-04   2.156077776233588e-05    5.016976670661557e-05    -5.741310186677545e-05   4.832129410675474e-01    -8.696887187737351e-01   
4.068000000000000e+09    4.770864729405673e-01    -8.785105780954362e-01   -1.114005187520606e-04   1.717244638085310e-04    9.038275858402195e-05    -5.053929116157595e-05   4.828984120163221e-01    -8.694916392520053e-01   
4.069000000000000e+09    4.761558312895953e-01    -8.795042007783470e-01   2.147156834893216e-05    -3.986975378344234e-05   -6.391953807492473e-05   1.247930077252512e-05    4.823243601584301e-01    -8.691812812482527e-01   
4.070000000000000e+09    4.755240754395818e-01    -8.799651468499675e-01   6.315775789407850e-05    1.212146621302442e-04    -3.260224410431410e-05   -7.764103837975262e-05   4.811606208714468e-01    -8.689843309852620e-01   
4.071000000000000e+09    4.751789223025973e-01    -8.805448314186390e-01   -5.551475601811315e-05   -1.806326506868450e-05   -8.214618467395462e-05   -8.815764848544491e-05   4.804089262755932e-01    -8.686226132220058e-01   
4.072000000000000e+09    4.740091267682089e-01    -8.812217113610917e-01   -1.924800403502484e-04   8.777409372412211e-05    1.682419627176701e-05    -6.092534655976747e-05   4.795598766787966e-01    -8.680093270613303e-01   
4.073000000000000e+09    4.734794856755889e-01    -8.819202377066258e-01   -1.128638478981793e-05   1.392321918412089e-05    -3.569665526978526e-05   -2.622865639726782e-05   4.785210916406702e-01    -8.681435196270859e-01   
4.074000000000000e+09    4.722936192910577e-01    -8.829453174781917e-01   -1.112981061776376e-04   1.568124620588630e-05    -4.670815241376606e-05   1.446423891058270e-04    4.773826025215634e-01    -8.678969987573594e-01   
4.075000000000000e+09    4.716814946863098e-01    -8.836088778670175e-01   -1.076444572236247e-04   1.278582797922084e-04    9.703206904884782e-05    1.423719075681749e-04    4.763415226985702e-01    -8.673919329139055e-01   
4.076000000000000e+09    4.711885875930359e-01    -8.843103345307902e-01   1.229649637750621e-04    3.221641558448500e-05    -4.242641075032634e-06   -1.690547046947705e-04   4.752499875852482e-01    -8.669923303891195e-01   
4.077000000000000e+09    4.703409885467750e-01    -8.852641935719379e-01   -1.499146125781949e-04   -3.003433379596497e-04   -1.928609924449329e-04   -5.981572847931700e-05   4.736732917008925e-01    -8.667931798382605e-01   
4.078000000000000e+09    4.697439189662780e-01    -8.858167266374910e-01   -1.101002678494299e-04   -1.692347513777651e-04   7.062085906326914e-05    -4.315686547943448e-05   4.726008683709856e-01    -8.666896825997269e-01   
4.079000000000000e+09    4.692111720815900e-01    -8.866018778082542e-01   -2.013687706469201e-04   1.604256658191870e-04    -9.377534972831861e-06   -3.769841367664551e-05   4.707027902422293e-01    -8.666286356074263e-01   
4.080000000000000e+09    4.681283895066402e-01    -8.873786507361423e-01   -9.407614326516232e-06   -1.455278234740282e-05   -7.830252244451138e-05   5.614011759126578e-05    4.693770859234616e-01    -8.664266034298556e-01   
4.081000000000000e+09    4.674422125423124e-01    -8.884346825312519e-01   -2.564163945665307e-05   4.719186395058296e-06    -7.297223814490881e-05   -1.977922159086312e-04   4.675994839092528e-01    -8.665257768842832e-01   
4.082000000000000e+09    4.668568212071243e-01    -8.883023212372556e-01   9.299762165046383e-05    9.854999946726269e-05    -1.059089519066203e-04   -6.048786573532982e-05   4.660115473466999e-01    -8.667264724754413e-01   
4.083000000000000e+09    4.661377980475833e-01    -8.890967157218918e-01   -1.379797009421165e-04   5.535147880309368e-05    5.781319151410384e-05    -1.825094437291360e-04   4.642053879356405e-01    -8.667919696552571e-01   
4.084000000000000e+09    4.652275274990713e-01    -8.901713797846547e-01   1.640290961608941e-04    -6.712889487362245e-05   1.094463776703404e-04    1.908528305018418e-04    4.623771616329939e-01    -8.669457019666241e-01   
