[Version] 2.0
! Rohde & Schwarz Vector Network Analyzer
! Rohde-Schwarz,ZNL20-2Port,1323001220200009,1.71.1.10-23.02.1.238
! 
! Port Assignments:
! Nominal Port -> Actual Test Port
! --------------------------------
!   1 -> 1
!   2 -> 2

! Created: GMT+2 2025-01-16 20:26:51

# Hz S RI R 50

[Number of Ports] 2
[Two-Port Data Order] 21_12
[Number of Frequencies] 16001

[Network Data] 
! freq[Hz]               S11[Re]                  S11[Im]                  S21[Re]                  S21[Im]                  S12[Re]                  S12[Im]                  S22[Re]                  S22[Im]                  
4.000000000000000e+09    5.519285200525091e-01    -8.354427607356882e-01   1.534943780284188e-05    1.290443358541245e-04    -1.476284245367675e-04   -2.060139788125950e-05   5.433443866456112e-01    -8.142458494744309e-01   
4.001000000000000e+09    5.505686962016381e-01    -8.362313497119901e-01   1.433377073540659e-04    -1.338059350435688e-05   3.686703145602238e-05    -1.635424249094133e-04   5.413562968358879e-01    -8.152470429381720e-01   
4.002000000000000e+09    5.501506997428260e-01    -8.373087853672310e-01   -1.590188433079166e-04   -6.482484397550017e-05   1.182061940588802e-05    -6.753973037834949e-05   5.392322290968594e-01    -8.164715536067937e-01   
4.003000000000000e+09    5.489159775760558e-01    -8.382332631741306e-01   9.864481217610606e-05    -4.118005682705966e-05   4.591660474519102e-05    5.840127475810761e-05    5.371381217128980e-01    -8.173621814651429e-01   
4.004000000000000e+09    5.476254992918322e-01    -8.385991937647675e-01   -6.057494957349774e-05   5.174336232811149e-05    8.459780722155094e-05    4.587868040449135e-05    5.353223554236585e-01    -8.184083058363296e-01   
4.005000000000000e+09    5.461530819351803e-01    -8.400092654235026e-01   -1.577945639503691e-05   1.091701367745548e-04    -7.680995815355998e-05   3.593108518417828e-05    5.332926177421814e-01    -8.197335995730332e-01   
4.006000000000000e+09    5.450153518238552e-01    -8.407427160237569e-01   -1.321226308967081e-04   1.554261207469720e-04    -1.215642448371809e-04   7.285798708351601e-05    5.309522383681904e-01    -8.207385548766852e-01   
4.007000000000000e+09    5.442151943037425e-01    -8.411977476646230e-01   -8.572759250619903e-05   7.116274535046251e-05    1.280902141322805e-05    4.723875171254680e-05    5.291549187880202e-01    -8.221471494167976e-01   
4.008000000000000e+09    5.429866290069836e-01    -8.424126339314951e-01   -2.451627429673885e-04   1.150213889270572e-04    -9.396346424952025e-05   1.282358351301533e-04    5.275837623328653e-01    -8.234000475612994e-01   
4.009000000000000e+09    5.416718045637482e-01    -8.431862135322621e-01   9.504652892990745e-05    -4.723071756829922e-05   -1.240767928818415e-04   -9.347021264005317e-05   5.253663887197618e-01    -8.246073470563656e-01   
4.010000000000000e+09    5.404201617830051e-01    -8.438528110056318e-01   1.850210721024792e-05    6.861992072067201e-05    3.764558657361505e-05    -5.739930935324616e-05   5.237329595189896e-01    -8.265251426944530e-01   
4.011000000000000e+09    5.392945428984262e-01    -8.447422416698178e-01   -1.803618378915552e-04   -5.403700684570599e-05   -3.437149369108075e-05   8.994535228820084e-05    5.215709745426916e-01    -8.275402164476439e-01   
4.012000000000000e+09    5.381006963485637e-01    -8.455372735400131e-01   6.517225474489330e-05    3.791527642337095e-05    -2.305865117681032e-05   1.269132989909788e-04    5.200747236907237e-01    -8.291060482350686e-01   
4.013000000000000e+09    5.368901729662285e-01    -8.461785349037588e-01   -3.821319329499315e-05   -1.209849493598781e-04   -9.187905614458354e-05   -5.761828670956371e-05   5.186803768382475e-01    -8.302927716105031e-01   
4.014000000000000e+09    5.356933443210247e-01    -8.465933397748724e-01   1.537856532037992e-04    6.032081385141651e-05    -1.338324714652112e-04   -7.103715517983452e-05   5.171090104021497e-01    -8.316693326577914e-01   
4.015000000000000e+09    5.344810186376046e-01    -8.472604507499724e-01   -9.834849798775371e-05   9.132104706022384e-05    1.003335413445922e-04    -3.894568405163387e-05   5.154053303432302e-01    -8.332316744959246e-01   
4.016000000000000e+09    5.335389973939010e-01    -8.481180193927651e-01   -2.077396197735239e-04   -1.592935235743232e-06   3.806193638965239e-05    1.834240455811633e-05    5.136726315903155e-01    -8.344637836487027e-01   
4.017000000000000e+09    5.322466568774538e-01    -8.488867431519110e-01   -4.953395993249879e-05   5.298363276202072e-05    7.940577921341641e-05    -2.210092876696696e-05   5.123287339624029e-01    -8.358809515493754e-01   
4.018000000000000e+09    5.311442543571607e-01    -8.494575542185285e-01   -1.588424223646191e-04   -2.820459347460177e-05   1.367444369282577e-04    -9.816935148918595e-06   5.109710689385276e-01    -8.372308398900540e-01   
4.019000000000000e+09    5.303853334402269e-01    -8.498502256057451e-01   4.413856371456692e-05    -7.152319231219168e-05   8.640141229397797e-05    1.606941427742959e-04    5.094491107870682e-01    -8.385530106594091e-01   
4.020000000000000e+09    5.289578261338468e-01    -8.504897167291909e-01   -8.453302647559368e-05   -1.011573283480658e-04   1.434960712077750e-05    1.349815750912012e-04    5.081623892543939e-01    -8.397924258786805e-01   
4.021000000000000e+09    5.278084750876356e-01    -8.507666311792920e-01   -1.669352720451291e-04   -1.503566734625094e-04   1.119999109609639e-07    -1.850353330040031e-05   5.069131822521892e-01    -8.412085456329216e-01   
4.022000000000000e+09    5.268353357567699e-01    -8.513834414051090e-01   -3.851279538079539e-05   6.021222887942361e-05    8.891087185200997e-05    1.367064914204415e-04    5.055901152134795e-01    -8.423511254100138e-01   
4.023000000000000e+09    5.258171151445410e-01    -8.517907931062644e-01   7.750486099716662e-05    4.240281362348007e-05    -2.849400358954246e-05   1.344883932912839e-04    5.047354061555547e-01    -8.431904745221370e-01   
4.024000000000000e+09    5.243457783381332e-01    -8.521981481621543e-01   9.481769949311546e-07    8.278148538097408e-06    -1.768568987860880e-04   1.909368686688627e-04    5.036244738999821e-01    -8.447922258955652e-01   
4.025000000000000e+09    5.233015662263650e-01    -8.526386962555127e-01   -1.995966640125855e-04   -7.255938528205730e-05   1.005395779086816e-04    1.345314053517471e-06    5.026003096444827e-01    -8.457803442884578e-01   
4.026000000000000e+09    5.221986961616386e-01    -8.531935340018859e-01   -4.461373095001145e-05   -5.484988478139832e-05   -6.041848175220454e-05   1.127351499201478e-04    5.017578224042615e-01    -8.471295316025688e-01   
4.027000000000000e+09    5.211169539996736e-01    -8.535319588900574e-01   1.110739018376624e-04    -4.631356019240900e-05   -1.524708565281383e-04   4.225029063182599e-05    5.007999185965089e-01    -8.481007571801448e-01   
4.028000000000000e+09    5.197364412665494e-01    -8.539330193405299e-01   1.113834766403213e-04    9.037422042440551e-05    4.699312379718016e-06    -2.391152816137972e-05   4.995976688072515e-01    -8.495384348040173e-01   
4.029000000000000e+09    5.188988301429491e-01    -8.543057576986232e-01   -8.177244391411853e-05   1.249102566031756e-04    -1.551396836694938e-04   2.249920285744937e-05    4.993249678628952e-01    -8.499726401834410e-01   
4.030000000000000e+09    5.175045780087252e-01    -8.544018881797274e-01   1.634860866245561e-05    -2.565543057142542e-04   6.307196896360748e-05    5.321635401437334e-06    4.981112680729033e-01    -8.517471678765474e-01   
4.031000000000000e+09    5.162061930030413e-01    -8.551612272114152e-01   8.124194926147936e-05    1.190518592793524e-04    -1.465750295364672e-04   3.801455649821729e-05    4.974429381889063e-01    -8.525460065350455e-01   
4.032000000000000e+09    5.149272560620142e-01    -8.554754821480692e-01   8.418441788245553e-06    7.326295829060430e-05    -8.680589231291345e-05   -3.934618034419449e-05   4.968825057154080e-01    -8.533758638066827e-01   
4.033000000000000e+09    5.138035492248788e-01    -8.554160960697071e-01   -3.289318842479689e-05   3.618669779309044e-04    5.680848250739972e-07    -1.292970835066985e-04   4.958777404179126e-01    -8.540534776330920e-01   
4.034000000000000e+09    5.127590681846175e-01    -8.562088183249242e-01   3.407153293430397e-05    1.398682022321290e-04    -1.117976411418919e-04   5.239701878988448e-05    4.952961598292640e-01    -8.553237518284287e-01   
4.035000000000000e+09    5.111489602923978e-01    -8.565004118984203e-01   -1.274631803314660e-04   -7.851714420752337e-05   -4.355161808115465e-05   -8.846960322019378e-06   4.949769694203349e-01    -8.559971563173954e-01   
4.036000000000000e+09    5.098826846841029e-01    -8.568315644988057e-01   5.935309617394488e-05    1.103761434307734e-04    7.422011270192271e-05    -8.111979337296989e-05   4.940376302365880e-01    -8.568170461718185e-01   
4.037000000000000e+09    5.088342982188730e-01    -8.574729900395899e-01   1.870655573283351e-04    -4.021437409154929e-05   4.280103957128453e-05    -1.303459255860580e-04   4.931854216570887e-01    -8.576226951309677e-01   
4.038000000000000e+09    5.075887310544341e-01    -8.576204374502261e-01   1.092800652356517e-04    -2.230051667070642e-04   3.730521878955490e-05    1.340182957169138e-04    4.929053820545658e-01    -8.587849339896892e-01   
4.039000000000000e+09    5.063362499406877e-01    -8.582219153148991e-01   5.295132393741666e-05    -1.905120070411100e-05   9.270587455349665e-05    6.057121605506400e-05    4.922907621989115e-01    -8.596519939569868e-01   
4.040000000000000e+09    5.050424349935959e-01    -8.586806599256476e-01   -1.168750877148611e-04   1.050975679651447e-05    4.634138907148889e-05    5.314167980444211e-05    4.915257155725912e-01    -8.602896918995634e-01   
4.041000000000000e+09    5.036813129213545e-01    -8.592349468943812e-01   -2.368379580026347e-05   2.033523509680115e-04    -1.164648048753804e-05   -1.080543894010807e-04   4.910777199142284e-01    -8.612713160868010e-01   
4.042000000000000e+09    5.024030664073801e-01    -8.596518036429807e-01   1.891268877201008e-04    -9.308542312203980e-05   -1.716800777504595e-04   -1.642042311159701e-04   4.908249205278999e-01    -8.618282889157509e-01   
4.043000000000000e+09    5.011405589182074e-01    -8.603406051834441e-01   1.346986173952331e-04    1.171355720626998e-05    7.725130309067868e-05    2.923009235631562e-05    4.904220225711082e-01    -8.625464888080642e-01   
4.044000000000000e+09    4.998073992240857e-01    -8.609663363260126e-01   -6.675549844985625e-05   -2.012459418979989e-05   1.116096638622922e-04    -8.490068813738071e-05   4.898342655938731e-01    -8.634180913146281e-01   
4.045000000000000e+09    4.987856025477999e-01    -8.614034121140642e-01   2.961375895259324e-05    2.745855545670597e-04    -7.642682638599857e-05   1.329008652878527e-04    4.893872278751149e-01    -8.639194531834610e-01   
4.046000000000000e+09    4.973369503394101e-01    -8.620792886371734e-01   7.901186707745205e-05    -2.891598523019742e-06   9.501945609875942e-05    5.829190780293608e-05    4.890065956489598e-01    -8.645341305238609e-01   
4.047000000000000e+09    4.964336064082753e-01    -8.628612028626907e-01   7.646876221503574e-05    1.757912481543445e-04    8.909414305500031e-05    -4.558952659236413e-05   4.886911451220222e-01    -8.654307346303384e-01   
4.048000000000000e+09    4.953000879782459e-01    -8.633449593510106e-01   2.063860938656445e-04    8.040167568361330e-05    3.725703313709030e-05    7.451679901002880e-05    4.883042331479273e-01    -8.663293449917020e-01   
4.049000000000000e+09    4.941876823470365e-01    -8.641905841650576e-01   -8.499779263706437e-05   -2.281695282120361e-05   3.274712441632405e-05    8.735266360256928e-05    4.878076805318990e-01    -8.666214584390476e-01   
4.050000000000000e+09    4.930204202263765e-01    -8.646896927665643e-01   -1.595703510973652e-04   6.876477784306106e-05    4.302867053441438e-06    6.331538659786578e-05    4.877073418056544e-01    -8.673173338690098e-01   
4.051000000000000e+09    4.922778730335522e-01    -8.655568056892030e-01   9.716647006890474e-05    -1.216245777005951e-05   -2.097916645022822e-06   4.351251611095406e-05    4.873737293134868e-01    -8.676483928538442e-01   
4.052000000000000e+09    4.910463121947215e-01    -8.663416195676937e-01   3.482333440247082e-05    -9.675783792758291e-05   1.280477490741828e-04    1.531081479460976e-04    4.872219603915738e-01    -8.684546504795445e-01   
4.053000000000000e+09    4.898355305991421e-01    -8.670654511963766e-01   -5.868919749485570e-05   3.228794764424196e-05    9.960297215807847e-05    -1.650006384028546e-04   4.869072731618436e-01    -8.689317453845136e-01   
4.054000000000000e+09    4.890799565739152e-01    -8.675589713240793e-01   -8.963293840532641e-05   7.845531206565196e-05    1.814477422781699e-04    8.510196967885431e-06    4.868512129532590e-01    -8.691715784502491e-01   
4.055000000000000e+09    4.882184740442413e-01    -8.684890451948000e-01   -2.185303068847986e-04   8.544007588917328e-05    9.054371795051554e-05    1.208368279578176e-04    4.867449825479805e-01    -8.696887062399608e-01   
4.056000000000000e+09    4.868013416391752e-01    -8.692371606093713e-01   -1.419613919474503e-04   7.642760513235143e-06    4.186141530977779e-05    1.130387688563903e-04    4.864717378609216e-01    -8.698713924872127e-01   
4.057000000000000e+09    4.863625501028032e-01    -8.699931406195154e-01   -5.064667647995070e-06   3.072525801609582e-06    9.838116917840962e-05    -9.789562787844918e-05   4.865405807229016e-01    -8.703556129892290e-01   
4.058000000000000e+09    4.850389361795334e-01    -8.706870472847794e-01   -4.539353839404316e-05   1.076327883420717e-05    -4.476148343287766e-05   2.776819793075412e-05    4.861640157970751e-01    -8.703449922155841e-01   
4.059000000000000e+09    4.842340414407189e-01    -8.715288179750098e-01   1.969343159384796e-04    -3.940481434780776e-06   8.214488885542171e-05    -5.012743061884616e-05   4.861576010136781e-01    -8.706315271188492e-01   
4.060000000000000e+09    4.834107088948507e-01    -8.722675882864444e-01   -2.462685764840808e-05   1.110588484883639e-04    5.870536888355735e-05    1.087814425300372e-04    4.857751819489244e-01    -8.705583814047569e-01   
4.061000000000000e+09    4.824299738425876e-01    -8.730898369654198e-01   -2.778787446862028e-05   -5.950275654398336e-05   -2.732798242429464e-05   -1.058531308861481e-04   4.856558250963894e-01    -8.705735149203792e-01   
4.062000000000000e+09    4.814397430387912e-01    -8.738319469760715e-01   5.590341801396553e-05    2.160676505526097e-05    -7.827480885609277e-05   -9.026586489011160e-05   4.856849493697969e-01    -8.705187054022698e-01   
4.063000000000000e+09    4.809011225627268e-01    -8.745957944788688e-01   6.067499460861850e-05    -2.004786848307682e-04   -1.624238750962647e-05   1.051519144977340e-04    4.849179624651339e-01    -8.705366683486802e-01   
4.064000000000000e+09    4.803676701928599e-01    -8.753953323255271e-01   -1.154440850950804e-04   2.343915634061714e-05    8.565531161724447e-05    1.331184522579946e-05    4.846967737515589e-01    -8.704381539058442e-01   
4.065000000000000e+09    4.794036236914618e-01    -8.763313703189524e-01   7.052091407606984e-05    1.609592877880675e-04    -2.005800419359408e-05   -3.861579962147015e-05   4.847136118120489e-01    -8.703113284941713e-01   
4.066000000000000e+09    4.787166051677822e-01    -8.768454485592716e-01   1.404728628451534e-04    3.210812543166440e-05    3.728976396426238e-05    -9.159015178094453e-06   4.841903947784886e-01    -8.700547482485618e-01   
4.067000000000000e+09    4.779605025281734e-01    -8.775877157817308e-01   2.993915702447180e-05    4.702174344496830e-05    -8.044584450106944e-05   5.085328613578550e-05    4.833813673310501e-01    -8.698375833751508e-01   
4.068000000000000e+09    4.775058680903457e-01    -8.783571137145916e-01   2.424076151023905e-05    -2.986829298923662e-05   -4.449386774792927e-05   7.424783803912187e-07    4.831624607286588e-01    -8.692749925868031e-01   
4.069000000000000e+09    4.764173842874449e-01    -8.794347252961037e-01   -9.387184634011715e-06   -3.632681724935705e-05   -5.742238616649363e-05   -6.714893629474772e-05   4.822861215460970e-01    -8.691137458042720e-01   
4.070000000000000e+09    4.756240210072247e-01    -8.798594768848771e-01   7.736713722012639e-05    2.857042669005652e-05    1.132904169704410e-04    -9.355645960033958e-06   4.815114704758115e-01    -8.686701407827498e-01   
4.071000000000000e+09    4.754382067871076e-01    -8.807898282418867e-01   2.590202595542327e-05    -7.389072509855783e-05   7.164896249631295e-05    -1.242509274010770e-04   4.804329698755858e-01    -8.686782019592730e-01   
4.072000000000000e+09    4.742079612300237e-01    -8.812050583985030e-01   -1.373190497718104e-04   3.792548555576788e-05    -6.969287821720421e-05   4.206051320900107e-05    4.796779427151981e-01    -8.683132394377860e-01   
4.073000000000000e+09    4.735901556848441e-01    -8.818320564794618e-01   9.181907878777656e-05    -4.171407468160593e-05   -9.520305044589252e-05   1.025592247244922e-04    4.788545604946958e-01    -8.679915944062219e-01   
4.074000000000000e+09    4.726809802443169e-01    -8.827148126158362e-01   -4.528918838863538e-05   -1.779225301516360e-04   -7.380518232855376e-05   8.894623725569245e-06    4.776500331479640e-01    -8.677952233471781e-01   
4.075000000000000e+09    4.718534748400900e-01    -8.839145531552862e-01   -1.660188900210089e-06   8.320320195340633e-05    -1.105808049117410e-05   3.027520395522061e-05    4.764646599430965e-01    -8.672179904655459e-01   
4.076000000000000e+09    4.714237853592730e-01    -8.842516462459247e-01   8.830263272196839e-05    -1.432052040468874e-04   -1.089125466835554e-04   -1.115968067169766e-04   4.752251759931203e-01    -8.670398100412008e-01   
4.077000000000000e+09    4.706219245080718e-01    -8.851372260818504e-01   1.662758742181208e-04    8.136326544373538e-05    7.574823395105530e-05    1.626494739279984e-05    4.738220989715121e-01    -8.666747420029755e-01   
4.078000000000000e+09    4.698891291949449e-01    -8.859207225360928e-01   1.708466169326037e-04    -2.575768066637765e-05   1.164185799832254e-05    -6.198528181152660e-05   4.726756133149760e-01    -8.665119184817379e-01   
4.079000000000000e+09    4.689980253651079e-01    -8.867584198162144e-01   -1.376135708544512e-05   8.724841027890123e-05    1.123494172682152e-04    -7.860276184524380e-05   4.710670767166966e-01    -8.664810853927564e-01   
4.080000000000000e+09    4.683479678097191e-01    -8.874483663235541e-01   1.191550425948505e-05    6.630120863146580e-05    4.282402704612846e-05    1.628077345126677e-04    4.696029161381367e-01    -8.666144908182737e-01   
4.081000000000000e+09    4.673962789524448e-01    -8.879866251476326e-01   -1.996859262268274e-05   -7.319530928171864e-05   1.375244059347046e-04    6.079112600862912e-05    4.676067544031539e-01    -8.666460419473156e-01   
4.082000000000000e+09    4.670251337345294e-01    -8.882590637389384e-01   -5.869117080319148e-05   9.723947888439573e-05    -3.113406233952329e-07   1.553494268979434e-05    4.661278618918437e-01    -8.665661233653430e-01   
4.083000000000000e+09    4.659950509603644e-01    -8.894327489011469e-01   -2.502389321089007e-05   -5.687907065827746e-05   3.996975450434603e-05    -1.074974309041854e-04   4.642736938893016e-01    -8.664180693899989e-01   
4.084000000000000e+09    4.653317975000198e-01    -8.900901764232148e-01   7.777695964007237e-05    -7.969526163762698e-05   -8.991918068654152e-06   2.261984639973207e-04    4.624802525964054e-01    -8.669505288820881e-01   
