[Version] 2.0
! Rohde & Schwarz Vector Network Analyzer
! Rohde-Schwarz,ZNL20-2Port,1323001220200009,1.71.1.10-23.02.1.238
! 
! Port Assignments:
! Nominal Port -> Actual Test Port
! --------------------------------
!   1 -> 1
!   2 -> 2

! Created: GMT+2 2025-01-16 20:27:36

# Hz S RI R 50

[Number of Ports] 2
[Two-Port Data Order] 21_12
[Number of Frequencies] 16001

[Network Data] 
! freq[Hz]               S11[Re]                  S11[Im]                  S21[Re]                  S21[Im]                  S12[Re]                  S12[Im]                  S22[Re]                  S22[Im]                  
4.000000000000000e+09    5.521157416082274e-01    -8.355239593864192e-01   1.047285134404826e-04    2.090033411926357e-04    -1.140626601851406e-04   -4.201590659228253e-07   5.430092506306504e-01    -8.138760349407331e-01   
4.001000000000000e+09    5.508626104723444e-01    -8.368135444584553e-01   4.019261031748280e-05    1.442436214779276e-04    6.650813198780879e-06    1.396288654573711e-05    5.414721135396771e-01    -8.155041098914353e-01   
4.002000000000000e+09    5.499976202291913e-01    -8.370118722572059e-01   -6.935288575552652e-06   -1.051174951244168e-04   3.486892616383090e-05    -1.752145796731214e-05   5.391423127438638e-01    -8.166874711357593e-01   
4.003000000000000e+09    5.485836714443577e-01    -8.376368764857712e-01   1.666528646025075e-04    1.014721539106625e-04    -8.257485948971067e-05   1.411035046337054e-04    5.370200956149850e-01    -8.173016563592961e-01   
4.004000000000000e+09    5.477854085126272e-01    -8.388771202769046e-01   -7.421335161044783e-05   -1.378762185949014e-05   -1.690170555272180e-05   -7.315080371737742e-05   5.355773769319977e-01    -8.185037818933903e-01   
4.005000000000000e+09    5.463209260281646e-01    -8.399477404715825e-01   2.512652815432290e-04    -1.020553246398612e-04   -5.206586159408162e-06   2.451338072219266e-05    5.330286306956685e-01    -8.196662057356318e-01   
4.006000000000000e+09    5.451598117788874e-01    -8.407957378452697e-01   -6.391131164025141e-05   -4.695706539511216e-05   1.435359073029362e-04    -1.782937172184199e-05   5.314393764562656e-01    -8.207498981325551e-01   
4.007000000000000e+09    5.438769412544769e-01    -8.417251571912006e-01   -1.027571105797398e-04   -2.363842366347002e-05   1.963632643338198e-04    -4.951565420152816e-05   5.294522881838041e-01    -8.222325758072683e-01   
4.008000000000000e+09    5.431363436167667e-01    -8.424632570602989e-01   -1.655734798275414e-05   -4.839082586618576e-05   -1.259608693048288e-04   7.022756355728259e-05    5.273825521486009e-01    -8.236368325716191e-01   
4.009000000000000e+09    5.416408339432079e-01    -8.432905513375840e-01   4.363218034345341e-05    -4.584521722251766e-05   -2.943800629750559e-05   -4.695590204941918e-05   5.255460144261894e-01    -8.242959309548581e-01   
4.010000000000000e+09    5.404591732832590e-01    -8.443228128268979e-01   3.929080886656572e-05    3.661183734067223e-05    6.843456087893865e-05    -5.277778709661909e-05   5.236973423670765e-01    -8.262627883643608e-01   
4.011000000000000e+09    5.396818794326508e-01    -8.446332552440657e-01   -4.500427998140121e-05   -2.048552213714921e-06   -1.350362799945672e-05   4.461691681101387e-05    5.220147273052423e-01    -8.273875569877166e-01   
4.012000000000000e+09    5.383140246853212e-01    -8.453802329069380e-01   -1.410134497616301e-04   1.400584089727590e-04    -4.940907877296585e-05   2.199178520153332e-04    5.200977594868843e-01    -8.289546450567551e-01   
4.013000000000000e+09    5.372450165329425e-01    -8.459623132048260e-01   -2.030178594092264e-06   -3.670844976489489e-05   8.227429109313957e-05    1.909792700392798e-05    5.187652883142375e-01    -8.303042848176613e-01   
4.014000000000000e+09    5.357957747827810e-01    -8.469492129633164e-01   -1.367008554467818e-05   5.320477353964994e-05    9.195715775255988e-05    2.828825482105883e-05    5.169879082423396e-01    -8.318143710639716e-01   
4.015000000000000e+09    5.349425276009898e-01    -8.473733112791244e-01   1.127297611027093e-05    -7.665706873627403e-05   -2.453680931373417e-04   -8.382325013733621e-05   5.153225932352073e-01    -8.331620744392858e-01   
4.016000000000000e+09    5.335505599329260e-01    -8.481590408085682e-01   -6.501484124450508e-05   1.801176952653862e-05    -3.220695014856052e-05   4.141185612951536e-05    5.139878527198215e-01    -8.344039826272220e-01   
4.017000000000000e+09    5.325550530944185e-01    -8.483045144002392e-01   -9.584970707593644e-05   1.752361786804336e-04    3.127312955643410e-05    -2.636790374825280e-05   5.125513684489601e-01    -8.354092442071223e-01   
4.018000000000000e+09    5.315273862331705e-01    -8.493817759211327e-01   5.791228011968910e-05    8.532189406062107e-05    8.690224494516592e-05    -9.635324127410712e-05   5.110783714221524e-01    -8.370058861872122e-01   
4.019000000000000e+09    5.304367641727716e-01    -8.495897259999832e-01   -8.700262775447098e-05   6.336740349677383e-05    8.552485221958133e-05    -2.303768128456991e-04   5.093316960626414e-01    -8.385168478797653e-01   
4.020000000000000e+09    5.293186932788884e-01    -8.502334163688905e-01   -3.532398389722669e-05   6.320870985911427e-05    1.976579137767188e-05    2.121523993353715e-04    5.084955097466933e-01    -8.399170059883261e-01   
4.021000000000000e+09    5.278960768458534e-01    -8.509821458853323e-01   8.972717718667362e-05    -1.045609299371605e-04   2.200515097118083e-04    5.061425325576890e-05    5.072384431317460e-01    -8.411212080569590e-01   
4.022000000000000e+09    5.269203488850461e-01    -8.515365800962067e-01   8.371462703543996e-05    -4.037209078114108e-05   -2.012131137203885e-04   4.254670088494266e-06    5.057688643281496e-01    -8.424321290471274e-01   
4.023000000000000e+09    5.261709934110210e-01    -8.520910083139354e-01   1.413851353124468e-04    1.860896042698969e-04    7.315909419639409e-05    1.298509189789283e-04    5.048188807736186e-01    -8.434321491385762e-01   
4.024000000000000e+09    5.245907066154620e-01    -8.521579589393362e-01   -4.997752169769371e-05   -6.847254884897582e-05   -1.172296597957244e-04   4.440818033502373e-05    5.039208059655572e-01    -8.446587253726455e-01   
4.025000000000000e+09    5.235574220461918e-01    -8.528019299601821e-01   2.041340926338640e-04    3.698226506975496e-05    -8.587144728025577e-05   8.387084595828983e-06    5.028075676703854e-01    -8.459886313846541e-01   
4.026000000000000e+09    5.221686915913371e-01    -8.531689915744748e-01   -6.534123401568756e-05   4.083427757739537e-05    -3.239202665335237e-06   -1.337734103784407e-04   5.017008883782080e-01    -8.472108495637063e-01   
4.027000000000000e+09    5.211417645349652e-01    -8.533999022817620e-01   7.666047354113636e-05    1.743560884570331e-04    -1.390237873374571e-04   8.092656596775589e-05    5.009126919320332e-01    -8.481406097731885e-01   
4.028000000000000e+09    5.202428968489043e-01    -8.539588807029177e-01   5.326091076670958e-06    2.514233673965719e-04    1.113981638316684e-04    2.552322459949700e-06    5.000755818876079e-01    -8.493090743981754e-01   
4.029000000000000e+09    5.188021245588391e-01    -8.542801731151279e-01   -1.153232237652163e-04   -4.675592176123675e-06   -4.997604722049280e-06   2.564751328576208e-05    4.989698544532308e-01    -8.500715157567365e-01   
4.030000000000000e+09    5.178013854771432e-01    -8.547152562068783e-01   1.445678156322126e-04    -1.068533922994188e-04   -2.276719231978166e-05   3.016178461702685e-05    4.983281923011382e-01    -8.514940226058820e-01   
4.031000000000000e+09    5.164918127469246e-01    -8.549675245384720e-01   -5.694891578188277e-05   -2.090288667822154e-05   1.262971488392019e-04    -9.158030220654008e-05   4.975891291108488e-01    -8.524263121395061e-01   
4.032000000000000e+09    5.153665002060963e-01    -8.552052267589042e-01   1.442238299605735e-04    9.885707618995055e-05    9.130994692811555e-05    6.632559937522893e-06    4.968079789930339e-01    -8.531032357789888e-01   
4.033000000000000e+09    5.137589190551031e-01    -8.556377447925784e-01   2.481866904462961e-04    -9.865384929339518e-05   -1.448005561246637e-04   -1.265228757549454e-04   4.960024093358838e-01    -8.541077403280657e-01   
4.034000000000000e+09    5.128968921794672e-01    -8.561693785481626e-01   -3.500971586292538e-05   8.128687146576358e-06    -8.024567707043027e-05   2.569268997252220e-05    4.954786849749194e-01    -8.549965773198501e-01   
4.035000000000000e+09    5.114361532718643e-01    -8.566164065746046e-01   9.528249645287325e-05    -1.530887727998469e-05   -1.036387419737703e-04   7.058548841517715e-05    4.947394425236087e-01    -8.560964618272063e-01   
4.036000000000000e+09    5.100496616215618e-01    -8.567299610291114e-01   2.061851588376733e-04    -7.784577786376896e-05   4.062804595861549e-05    -8.206724763937020e-05   4.941745703900985e-01    -8.568809185922848e-01   
4.037000000000000e+09    5.087326886550231e-01    -8.571249879538848e-01   5.666465575018307e-05    -7.544110589332152e-05   -1.014640970370526e-04   -2.863507912837414e-05   4.935529081154025e-01    -8.578413519755782e-01   
4.038000000000000e+09    5.074660275590492e-01    -8.574342711373687e-01   -8.653596527361483e-05   -9.636948433079231e-05   8.761261104252360e-05    2.167705324152442e-04    4.930733860008732e-01    -8.586713305651424e-01   
4.039000000000000e+09    5.064472569781568e-01    -8.581826117852819e-01   5.387166668688035e-06    7.272700978154539e-05    4.405727341370789e-05    3.292558664901012e-05    4.921657528088917e-01    -8.591594858509685e-01   
4.040000000000000e+09    5.051613586405070e-01    -8.585848761654231e-01   1.233763348919864e-04    -6.667680094584545e-05   -1.973939874839305e-05   -3.535158321310301e-05   4.916387939289130e-01    -8.598534491633112e-01   
4.041000000000000e+09    5.038579997119059e-01    -8.593233194489617e-01   -1.015848959486639e-05   -3.088920505147798e-04   -7.703381256481308e-05   3.767494709213712e-05    4.910526458601693e-01    -8.611459415636209e-01   
4.042000000000000e+09    5.025350982573220e-01    -8.595968609028189e-01   2.206457280571151e-05    1.166674163077548e-04    -7.752880036493662e-05   1.504703998209676e-04    4.906664718708743e-01    -8.620089043704465e-01   
4.043000000000000e+09    5.010697448628215e-01    -8.603346103509282e-01   2.120794113282444e-04    -6.905824005822086e-05   -9.497318271166673e-05   -1.286313757018993e-04   4.903925955827120e-01    -8.627769665041856e-01   
4.044000000000000e+09    5.001196343553307e-01    -8.609111099284044e-01   -7.152844208306301e-05   2.606511603031775e-04    5.365472793609491e-05    -8.371627154433607e-06   4.898018340575463e-01    -8.633758821589316e-01   
4.045000000000000e+09    4.991410125814856e-01    -8.614399724844348e-01   8.791639643318039e-05    1.155789257673249e-04    1.106829543474890e-04    -5.553232753745691e-06   4.895337033137836e-01    -8.640443793200260e-01   
4.046000000000000e+09    4.975607279577159e-01    -8.620703314440472e-01   -3.979318796814869e-05   1.038632337994170e-04    4.927041412060386e-05    -5.306496039494665e-05   4.891430829854706e-01    -8.647200747618160e-01   
4.047000000000000e+09    4.966382128601792e-01    -8.627619239664693e-01   -6.753904025030826e-05   1.279228854526972e-05    1.045231993383076e-04    1.377114100826947e-04    4.886612438187664e-01    -8.652024665872591e-01   
4.048000000000000e+09    4.951986414643003e-01    -8.634079607409783e-01   2.120842976146848e-04    -9.754485379276655e-05   6.976360672883348e-05    -1.138082667589213e-04   4.882483863106258e-01    -8.660547582484405e-01   
4.049000000000000e+09    4.942024116643214e-01    -8.642182147062055e-01   -2.799634034086182e-05   1.031856361574893e-04    -1.764432819468017e-04   -7.607768299660686e-05   4.880699057847497e-01    -8.666635319007040e-01   
4.050000000000000e+09    4.931151748178121e-01    -8.647762244064175e-01   7.800172647617415e-05    2.126296350520193e-05    1.028994331128592e-05    5.017308884802554e-05    4.879916034710514e-01    -8.673752084587056e-01   
4.051000000000000e+09    4.922446759519079e-01    -8.658558808617263e-01   4.547663503765556e-05    2.601509953119894e-04    -2.395009757709950e-04   -1.255725164129143e-04   4.875137127129818e-01    -8.675837003767458e-01   
4.052000000000000e+09    4.912449673211737e-01    -8.662974822229463e-01   -1.743931359561829e-04   -1.713738083959886e-04   2.024992899207587e-04    1.010750974491970e-05    4.869903663636058e-01    -8.681890803416787e-01   
4.053000000000000e+09    4.900385107974855e-01    -8.669613272838528e-01   1.749169631159324e-04    1.275197878538315e-05    8.433648253555485e-05    -2.136818759372218e-05   4.872648937696670e-01    -8.687341005137219e-01   
4.054000000000000e+09    4.889434602774960e-01    -8.675752436072319e-01   1.067223249543058e-04    9.175562453176841e-05    -1.648720720055507e-04   6.965932488024566e-05    4.870358358826028e-01    -8.693096875823023e-01   
4.055000000000000e+09    4.883399160260039e-01    -8.683838957103159e-01   4.920185850649202e-06    -1.062077100282527e-04   2.660784297881697e-05    6.398956947236681e-05    4.868500130280122e-01    -8.696281141800681e-01   
4.056000000000000e+09    4.870423494242245e-01    -8.691653545631415e-01   -5.786652755138716e-05   -9.563360873383867e-05   -1.027332204946600e-04   1.074953225522248e-04    4.866411127304723e-01    -8.698307033384312e-01   
4.057000000000000e+09    4.861739719093609e-01    -8.698814369235800e-01   -1.921522539519007e-04   -1.299215697591362e-04   -3.419349466606389e-05   -2.951705401581139e-05   4.863967136052559e-01    -8.699946016300257e-01   
4.058000000000000e+09    4.849657314237374e-01    -8.705819616937164e-01   -1.115434203687717e-04   -2.988945709362438e-05   1.464824125799097e-04    -1.422992373742888e-04   4.864410616123441e-01    -8.702242104357878e-01   
4.059000000000000e+09    4.843833160617228e-01    -8.716417349379253e-01   -3.557579557383816e-05   -1.782280241072739e-04   1.043937669088362e-04    1.290235542505959e-04    4.862509667005972e-01    -8.704542168322309e-01   
4.060000000000000e+09    4.837733003531982e-01    -8.722387146230839e-01   -1.243788568115468e-04   -1.959067725527587e-04   5.976481554394718e-05    1.171897820855940e-04    4.860238416332623e-01    -8.705175085092003e-01   
4.061000000000000e+09    4.825703298561655e-01    -8.730528888533160e-01   -1.771552177344708e-04   -1.353443439546789e-04   1.068826749330951e-05    -1.072767242016813e-04   4.858272447042843e-01    -8.706763519846474e-01   
4.062000000000000e+09    4.818677623295921e-01    -8.737932513759793e-01   -1.190673216538225e-04   -1.141401451919789e-05   -3.436761125452966e-05   -1.173456038030728e-04   4.855179492096203e-01    -8.703487340514720e-01   
4.063000000000000e+09    4.811247310422205e-01    -8.746687835626626e-01   -7.163321017760179e-05   3.530958035675790e-05    -3.989428123536262e-05   -1.815821234997210e-04   4.851683773510624e-01    -8.703132263609210e-01   
4.064000000000000e+09    4.802420896691723e-01    -8.754344875739476e-01   -6.489747384582096e-05   -3.274098965821059e-06   7.172351421442782e-05    3.120567987237940e-05    4.851184444349038e-01    -8.701609501307833e-01   
4.065000000000000e+09    4.793704177713262e-01    -8.761019201829180e-01   6.123718666319750e-05    1.974324365571485e-05    -7.743039834314799e-05   -6.591429944639218e-05   4.845791400535439e-01    -8.700142523853408e-01   
4.066000000000000e+09    4.787730705901238e-01    -8.770947683979958e-01   4.571188181817651e-05    -5.831101988194220e-05   -7.162487160787733e-05   -1.175166132148736e-04   4.840565274867440e-01    -8.701735238180391e-01   
4.067000000000000e+09    4.778230303907441e-01    -8.777240528169209e-01   -2.766352813847234e-05   5.819163348410514e-05    1.203020071656861e-04    -8.796545706748666e-05   4.835346509588505e-01    -8.696232317106970e-01   
4.068000000000000e+09    4.774275036568679e-01    -8.783585075931665e-01   1.987112072135593e-04    6.419815495779511e-05    6.774800624741193e-05    -6.025524107496236e-05   4.832090663626269e-01    -8.693497271633136e-01   
4.069000000000000e+09    4.764943750603470e-01    -8.792916213514094e-01   4.582559666019521e-05    -1.576524446975744e-04   -9.644318296227364e-05   9.758342178324060e-06    4.822473393017002e-01    -8.688778519646614e-01   
4.070000000000000e+09    4.758013178393810e-01    -8.796264394571829e-01   4.763658842020017e-05    1.278757198265039e-04    6.290752614884177e-05    -2.109783114889236e-05   4.815599542712498e-01    -8.687439719468218e-01   
4.071000000000000e+09    4.752148705452766e-01    -8.807218884990330e-01   -1.132412457108014e-04   -6.538366746075052e-06   -2.666701319360234e-04   -2.843262885895671e-05   4.807903328982391e-01    -8.685632780062830e-01   
4.072000000000000e+09    4.744153140333023e-01    -8.813795662226968e-01   -5.936956355129814e-05   1.241211492861567e-05    1.165505316363212e-04    -3.345032636163548e-05   4.800896139443694e-01    -8.679505500820746e-01   
4.073000000000000e+09    4.738019963790898e-01    -8.820288820090642e-01   2.447292533620462e-05    3.329053582014908e-05    -7.028371590224613e-05   -1.888255974033982e-05   4.790159038232637e-01    -8.677783914560979e-01   
4.074000000000000e+09    4.727345869623191e-01    -8.826495899187273e-01   -8.458293396679678e-05   -1.808448875414519e-04   -2.811349936197115e-05   1.304702219346116e-04    4.777882899423428e-01    -8.674072500756296e-01   
4.075000000000000e+09    4.722000114397493e-01    -8.838635899370508e-01   -1.204097190658390e-05   -2.496654196476689e-05   -2.815125496913271e-05   9.842896453353319e-05    4.766043224501275e-01    -8.672372064628959e-01   
4.076000000000000e+09    4.712893445429201e-01    -8.840772389593582e-01   -2.924957497503702e-05   -1.734010870214648e-05   -1.076110538869097e-05   -1.262358154453813e-04   4.753250894607332e-01    -8.670456419088014e-01   
4.077000000000000e+09    4.706912483343118e-01    -8.851753484138821e-01   1.581519212936619e-05    -1.104755910921978e-04   8.306492134601781e-05    -6.774666658704667e-05   4.741967474995854e-01    -8.666657991920689e-01   
4.078000000000000e+09    4.698743951870452e-01    -8.856549513222600e-01   -1.094719579755243e-04   6.217847729725501e-05    -1.170502373954294e-04   -4.448197362905410e-05   4.726719643614062e-01    -8.666703817077782e-01   
4.079000000000000e+09    4.691440449111050e-01    -8.866494771263800e-01   -2.097315069806837e-04   -3.323109751359992e-05   1.147541603506596e-04    -1.087972929690904e-04   4.711640085552981e-01    -8.665793366881034e-01   
4.080000000000000e+09    4.683783421095702e-01    -8.869494134729027e-01   1.237060019074137e-04    6.698122961785867e-06    -6.261705969171820e-05   4.441382573855335e-05    4.699482430397391e-01    -8.662596593481200e-01   
4.081000000000000e+09    4.675401173177859e-01    -8.879896858652718e-01   1.418899079417922e-04    -1.318282528894486e-05   -2.846334466712814e-05   -1.579023970319514e-04   4.678077521099450e-01    -8.664798205905231e-01   
4.082000000000000e+09    4.668610467444037e-01    -8.882153576156737e-01   -3.779151548483996e-05   8.188833411394338e-05    7.849531417218653e-05    3.173973223322792e-05    4.660552535427845e-01    -8.664715522400173e-01   
4.083000000000000e+09    4.660845591980934e-01    -8.892309573367203e-01   1.217016303870666e-04    -2.966725929952837e-05   -1.607611653255440e-04   1.331014131854279e-04    4.646128976300661e-01    -8.664643829546157e-01   
4.084000000000000e+09    4.654792754446853e-01    -8.896210451498203e-01   -8.141017286525795e-05   6.700757922794210e-05    1.956780306883468e-04    -6.766988472342315e-05   4.628780807240233e-01    -8.669209389903413e-01   
