[Version] 2.0
! Rohde & Schwarz Vector Network Analyzer
! Rohde-Schwarz,ZNL20-2Port,1323001220200009,1.71.1.10-23.02.1.238
! 
! Port Assignments:
! Nominal Port -> Actual Test Port
! --------------------------------
!   1 -> 1
!   2 -> 2

! Created: GMT+2 2025-01-16 20:27:10

# Hz S RI R 50

[Number of Ports] 2
[Two-Port Data Order] 21_12
[Number of Frequencies] 16001

[Network Data] 
! freq[Hz]               S11[Re]                  S11[Im]                  S21[Re]                  S21[Im]                  S12[Re]                  S12[Im]                  S22[Re]                  S22[Im]                  
4.000000000000000e+09    5.521220184086756e-01    -8.354715185852390e-01   -1.013846975551879e-04   3.272714811594512e-04    -5.216447678379845e-05   4.119086508627396e-05    5.432901301811511e-01    -8.142720187835493e-01   
4.001000000000000e+09    5.506713148112735e-01    -8.363880010243202e-01   -8.880886794681099e-05   -4.530341500620183e-05   1.858381745412333e-05    -1.922160306926127e-04   5.412556735663412e-01    -8.151307343959260e-01   
4.002000000000000e+09    5.501915085824773e-01    -8.372020587638175e-01   3.973380376453265e-05    -8.621195794445160e-06   -7.587628467988441e-05   -2.654261350342779e-06   5.389278730810618e-01    -8.160197351653932e-01   
4.003000000000000e+09    5.486642668931943e-01    -8.376392180818398e-01   -2.167897874206372e-04   -3.278394010256369e-04   1.192391677087790e-04    -7.491685773384437e-05   5.372296616694751e-01    -8.171374376427658e-01   
4.004000000000000e+09    5.477257951832396e-01    -8.385570154225763e-01   -2.497302709560741e-04   -1.091732577010216e-04   1.086636323332477e-06    -4.101728068789874e-05   5.351017859062416e-01    -8.185944764686388e-01   
4.005000000000000e+09    5.462204434985679e-01    -8.399494199599067e-01   8.480960337686883e-05    4.106415543484068e-05    -2.009111697246242e-04   5.585842157466960e-05    5.333567547781085e-01    -8.194332650784696e-01   
4.006000000000000e+09    5.454388046026752e-01    -8.405783135696562e-01   -1.548400527864090e-05   -6.381452026947104e-05   7.201394250798036e-05    -1.319554172278015e-05   5.310977309450409e-01    -8.208647188339360e-01   
4.007000000000000e+09    5.441543822341397e-01    -8.415018736278497e-01   -1.452095753823613e-04   1.512774582179191e-04    4.303223696133695e-05    -9.570064081372895e-05   5.293248072915949e-01    -8.220856807784199e-01   
4.008000000000000e+09    5.428221833985157e-01    -8.426368395623408e-01   1.391441372875091e-05    1.446178623033365e-04    1.066386684016225e-04    -1.732947439934412e-04   5.275550618798472e-01    -8.235100975385330e-01   
4.009000000000000e+09    5.420147444505699e-01    -8.433082231232487e-01   -1.902525669362697e-04   8.823366203105383e-05    -4.304715085732210e-05   2.273057958548390e-05    5.253177072962097e-01    -8.244818469776209e-01   
4.010000000000000e+09    5.405641753403012e-01    -8.442240776988530e-01   7.404758192522490e-05    -9.727303220014536e-05   1.078427174157893e-04    1.721419456043073e-05    5.235082798415424e-01    -8.257800954427147e-01   
4.011000000000000e+09    5.393950606240682e-01    -8.447505759437106e-01   3.929788182170433e-05    -9.683698565797854e-05   -3.886705440718413e-05   7.722075544514517e-06    5.220729432357649e-01    -8.276270052461798e-01   
4.012000000000000e+09    5.383499329736864e-01    -8.456484611050002e-01   -8.650968023518466e-05   -4.844047967855486e-05   7.186006034621459e-05    1.616049248235325e-04    5.201317259220313e-01    -8.286862196152215e-01   
4.013000000000000e+09    5.366511157050901e-01    -8.459571149893284e-01   -1.231344287816604e-06   -3.934245954586303e-05   -7.303786021170682e-05   -1.120468449907248e-04   5.188346113301026e-01    -8.300952013773037e-01   
4.014000000000000e+09    5.358787314507136e-01    -8.468026618469967e-01   -6.427240813210757e-05   3.158548327107211e-06    -6.803630152009993e-05   -5.487935717300405e-06   5.169199645803418e-01    -8.315525467447512e-01   
4.015000000000000e+09    5.346735614951640e-01    -8.470423514346358e-01   -4.240889079298541e-05   9.898944277212171e-06    -2.986801242897213e-05   -3.005743728653356e-04   5.155047930025882e-01    -8.331842486918758e-01   
4.016000000000000e+09    5.335630028204896e-01    -8.481287242889878e-01   -1.253412845726041e-04   -6.824764783693754e-05   -1.213426328372305e-05   6.855927239057962e-05    5.138737621690216e-01    -8.344244504107114e-01   
4.017000000000000e+09    5.326928448819821e-01    -8.485515236938983e-01   -2.983869833701005e-06   9.155380915624725e-05    2.920241999287794e-05    3.533941077420846e-05    5.123557406026232e-01    -8.355937678180522e-01   
4.018000000000000e+09    5.314421890986292e-01    -8.491148948300820e-01   -4.291436438336316e-05   2.412879230674595e-04    6.952030849219396e-05    -1.660363582875779e-04   5.108111086423823e-01    -8.370077340429094e-01   
4.019000000000000e+09    5.304768206561523e-01    -8.493275712334553e-01   -1.302292210381841e-04   1.041838832150165e-04    -1.291553600563613e-04   2.581115169702434e-05    5.096428707504663e-01    -8.383710794906505e-01   
4.020000000000000e+09    5.289979338647832e-01    -8.503711565097853e-01   1.612765707340056e-04    1.163207054961181e-04    -5.437614922458636e-05   1.057904506256957e-04    5.084385867604579e-01    -8.397059501842028e-01   
4.021000000000000e+09    5.280008995297761e-01    -8.507630408515084e-01   1.213150115008088e-04    2.748033743634128e-04    -6.562272558601360e-05   4.956974214468108e-05    5.069974062022490e-01    -8.409742400265201e-01   
4.022000000000000e+09    5.266760493763523e-01    -8.510324680790752e-01   2.525525760766040e-05    -7.090624668964880e-05   -1.757105722779799e-04   -2.728654226124524e-06   5.059843200244388e-01    -8.424090107430355e-01   
4.023000000000000e+09    5.256975121820170e-01    -8.522170414364624e-01   1.409324797231469e-04    -2.017085106950385e-04   1.766422180974619e-04    2.869700877058734e-05    5.047977337316280e-01    -8.436472510780687e-01   
4.024000000000000e+09    5.248071650019109e-01    -8.522122904294450e-01   1.983358502174461e-05    5.468353027518658e-05    3.142937018606451e-05    5.378924301851376e-05    5.038476247443129e-01    -8.446015659950780e-01   
4.025000000000000e+09    5.232860406706084e-01    -8.524469307691543e-01   7.262291289175105e-06    1.554395474415125e-04    -6.074309986946473e-05   1.179824182415288e-05    5.028823883956024e-01    -8.459495435991932e-01   
4.026000000000000e+09    5.221722596328139e-01    -8.530894296894568e-01   5.932314218760381e-05    -8.864447826613587e-05   -1.207899029049175e-04   -1.834252104157084e-04   5.018169949068247e-01    -8.470809047728043e-01   
4.027000000000000e+09    5.212393755307232e-01    -8.534021979499847e-01   4.121842895332679e-05    6.477469129407244e-05    -6.119244551830102e-05   1.061686232601155e-06    5.009555836414521e-01    -8.479813868147731e-01   
4.028000000000000e+09    5.198700376051090e-01    -8.536876302659845e-01   5.864047765684863e-05    1.721526354342084e-04    -8.423935795910872e-05   -5.067801582641608e-05   4.998622985971904e-01    -8.496850541188887e-01   
4.029000000000000e+09    5.187505237551753e-01    -8.543201609884751e-01   -1.773554035832643e-04   -8.670425096026740e-06   9.065125587973528e-05    -7.934968642699599e-05   4.990324617414771e-01    -8.499656671668993e-01   
4.030000000000000e+09    5.175540283268734e-01    -8.543981906092722e-01   1.148000005389375e-04    -2.268850697257185e-04   -2.693218943307862e-05   -8.327953995151198e-05   4.983156350579208e-01    -8.514578968836630e-01   
4.031000000000000e+09    5.166516071696443e-01    -8.547710195445943e-01   -2.014137438891660e-06   -3.700013379228420e-05   1.853172988309367e-04    -7.952264416943191e-05   4.974290251736473e-01    -8.521893312007994e-01   
4.032000000000000e+09    5.150423661395439e-01    -8.550951463534895e-01   -4.676946322336956e-05   5.484715146885380e-05    -1.002632525052770e-04   1.160020723153067e-04    4.968079017754218e-01    -8.531774471381294e-01   
4.033000000000000e+09    5.140137442380851e-01    -8.557330881958145e-01   3.291581650653801e-05    7.379868971211049e-06    -8.672110239752706e-05   -4.156049993801173e-05   4.959701807751781e-01    -8.540903767864068e-01   
4.034000000000000e+09    5.126846250863039e-01    -8.562117503002107e-01   -1.109100721550898e-04   1.931270393895881e-04    -1.062567568992558e-04   -1.372614386414346e-04   4.952485981755740e-01    -8.551261483047347e-01   
4.035000000000000e+09    5.114174752029288e-01    -8.566425709880653e-01   1.468598800110269e-04    -5.346745460311395e-05   8.102951643216705e-05    9.372908459547423e-05    4.946402300907815e-01    -8.560597513616029e-01   
4.036000000000000e+09    5.102032266098255e-01    -8.570916401801223e-01   2.298574365388902e-05    1.175598134056485e-04    1.506313727683482e-04    -1.801976698560122e-04   4.940965459913265e-01    -8.568634518404411e-01   
4.037000000000000e+09    5.089147044165525e-01    -8.573390248161782e-01   6.690970694931635e-06    2.071013799487156e-05    7.942553778958765e-06    -6.020007495577583e-05   4.934380449961879e-01    -8.576581596745455e-01   
4.038000000000000e+09    5.075270328314152e-01    -8.575775379157289e-01   1.652562524256662e-04    1.319537744802181e-04    1.276040224697676e-04    3.029101146593305e-04    4.928838959039300e-01    -8.586040235604252e-01   
4.039000000000000e+09    5.067421420063511e-01    -8.580817355866509e-01   -1.700364769216546e-04   -4.826367803203030e-05   -1.843375817047476e-04   -1.069541135494816e-04   4.921709390325966e-01    -8.595067412745083e-01   
4.040000000000000e+09    5.051772951767525e-01    -8.587914894046197e-01   2.499744827462338e-05    8.188294846770451e-05    -2.146713369688736e-04   2.966043950576557e-05    4.916902411028596e-01    -8.601188481831796e-01   
4.041000000000000e+09    5.038131718277195e-01    -8.590597918743373e-01   -9.169845133502933e-05   -4.594473215317721e-05   -2.112588798434771e-05   1.776901383441016e-05    4.912726602888153e-01    -8.608479366232248e-01   
4.042000000000000e+09    5.024506582283911e-01    -8.595595410870430e-01   7.775869807976924e-05    3.727398267829755e-06    2.202846564996140e-04    4.326127244221592e-06    4.908448337452926e-01    -8.618002075088959e-01   
4.043000000000000e+09    5.013035217312672e-01    -8.602423960699758e-01   2.144252846232659e-05    8.443680411147133e-05    -7.716796500614571e-05   -3.670841237708815e-05   4.902508478065776e-01    -8.623858424972376e-01   
4.044000000000000e+09    5.000885727131144e-01    -8.608437909608820e-01   3.688341275470429e-05    -2.269628088624413e-04   1.029671076231114e-04    -5.670509095933909e-05   4.898286550505044e-01    -8.634096903650064e-01   
4.045000000000000e+09    4.988543476289883e-01    -8.613367716520911e-01   -7.410448122605075e-07   -1.734750247925112e-05   1.463202459202636e-04    1.915156606311041e-04    4.892890930247584e-01    -8.639327237365059e-01   
4.046000000000000e+09    4.978069317776654e-01    -8.621202244440601e-01   -1.320411099545775e-04   7.802163141083080e-05    -2.692836983019185e-05   1.186233358161422e-04    4.891595261073183e-01    -8.644970385471777e-01   
4.047000000000000e+09    4.963032770862722e-01    -8.626372577174325e-01   2.060704328239780e-05    -1.161098344863933e-04   1.118588013461627e-04    -1.008602822488575e-05   4.882869648295501e-01    -8.653121399843630e-01   
4.048000000000000e+09    4.952850236095523e-01    -8.635118152497739e-01   1.180865267774206e-04    -2.520122064592203e-05   -3.522963793884044e-05   3.149177068228328e-06    4.884398580708590e-01    -8.661327458819661e-01   
4.049000000000000e+09    4.940492499048416e-01    -8.639289714923959e-01   -5.873940147891300e-05   -4.137408482383672e-05   -3.503264265222001e-06   1.939015115941063e-05    4.879839018810142e-01    -8.666586280451536e-01   
4.050000000000000e+09    4.931786803399204e-01    -8.647606512675429e-01   -6.717055296460284e-05   2.353041536393930e-04    2.693516429550049e-06    5.004669258840748e-05    4.880850313325763e-01    -8.672793106304404e-01   
4.051000000000000e+09    4.922913140904446e-01    -8.653514941601759e-01   4.092012695306499e-05    7.461861367606333e-05    2.539788970211884e-05    3.402380909696297e-05    4.874563388162746e-01    -8.675001864991445e-01   
4.052000000000000e+09    4.911262771212748e-01    -8.661361476068711e-01   -1.066487914131020e-04   4.949804742737745e-05    4.517777746187800e-06    1.864873692032762e-04    4.873607908919598e-01    -8.682569536183156e-01   
4.053000000000000e+09    4.899967690102174e-01    -8.669382656210393e-01   -1.114650185197039e-04   -1.386253587300705e-05   1.972918647133121e-05    -8.998896215475219e-05   4.870899849669721e-01    -8.686936761709896e-01   
4.054000000000000e+09    4.892038987911538e-01    -8.675534884197673e-01   -2.119569631570201e-04   -4.895608736033119e-05   5.901001267387481e-05    -2.258738873692734e-05   4.871173851936348e-01    -8.690305229171350e-01   
4.055000000000000e+09    4.882065836303037e-01    -8.682603694011009e-01   -4.097141417672894e-05   2.220395477474895e-05    1.180507748991587e-04    7.497423007577435e-05    4.872474820049978e-01    -8.697448633347389e-01   
4.056000000000000e+09    4.871255175698343e-01    -8.693270070745601e-01   -1.243384276294327e-04   -5.283550942595940e-05   -3.111306744603906e-05   -1.021648615790113e-04   4.865557945820020e-01    -8.699279887081167e-01   
4.057000000000000e+09    4.861982017257931e-01    -8.701387767149408e-01   8.947842570589653e-05    -5.522887922936138e-05   4.259176801927798e-05    1.061045297507879e-04    4.863863381876500e-01    -8.702657003665476e-01   
4.058000000000000e+09    4.851119510598138e-01    -8.705666495980090e-01   1.371264418082032e-04    5.337533664473714e-05    8.491379153318685e-05    -9.417094038531118e-05   4.863252162217225e-01    -8.701429358217555e-01   
4.059000000000000e+09    4.843750883154718e-01    -8.716684107425346e-01   1.446230730061536e-04    -1.101427055133735e-04   -2.175497192839779e-05   4.362164628260566e-05    4.860015063485152e-01    -8.704896133246054e-01   
4.060000000000000e+09    4.835290406744434e-01    -8.722491792141261e-01   3.664359663124760e-05    -6.085366690447618e-05   -3.118750023808052e-05   6.637711110014633e-05    4.860709240557171e-01    -8.703602872269109e-01   
4.061000000000000e+09    4.824970209268140e-01    -8.731275809868041e-01   1.654499851240766e-05    9.368411593083053e-05    -6.946245151620163e-05   -1.719138273716577e-05   4.858344968403022e-01    -8.704144447607468e-01   
4.062000000000000e+09    4.815659885497477e-01    -8.736442047719524e-01   -1.365412380564678e-05   -6.284946784155209e-05   4.510786202363818e-05    -9.887395935904182e-06   4.855586751908584e-01    -8.707121606568007e-01   
4.063000000000000e+09    4.808680114025868e-01    -8.747322656792716e-01   3.214981516147834e-05    -4.452378991405770e-05   -2.112178212458311e-04   -3.521403610854188e-05   4.853712964052266e-01    -8.705100271419360e-01   
4.064000000000000e+09    4.802967724158405e-01    -8.754890592701150e-01   -1.372432564972967e-04   -8.657541466019617e-05   -5.525780064414040e-05   1.270917732869078e-04    4.850024254132321e-01    -8.703388312598026e-01   
4.065000000000000e+09    4.792827085089943e-01    -8.758700271741113e-01   1.206680387069440e-04    -2.618865059977313e-05   -7.979014167890585e-05   1.047843222918074e-04    4.847508568266529e-01    -8.700275993587754e-01   
4.066000000000000e+09    4.788083119256918e-01    -8.769292821167750e-01   1.587841128112037e-05    1.225704241232754e-04    6.978289825260143e-06    -1.364396189990205e-04   4.843935619244374e-01    -8.699325579319896e-01   
4.067000000000000e+09    4.777735149086946e-01    -8.778322947843830e-01   -2.235823581485942e-04   1.015019678274357e-04    1.337474585369123e-04    -7.094230120921225e-05   4.837138482048715e-01    -8.695400936651019e-01   
4.068000000000000e+09    4.772570356989727e-01    -8.781813297920408e-01   -1.008266259181202e-04   2.569798853163735e-06    2.153969955110899e-05    -2.626213596778372e-05   4.833256041231126e-01    -8.692860843899904e-01   
4.069000000000000e+09    4.767466314132592e-01    -8.793821084066047e-01   -1.434909820843087e-04   -9.311864584029457e-05   2.490393775440589e-05    -1.621052699189232e-05   4.822417674293238e-01    -8.688290505570063e-01   
4.070000000000000e+09    4.757285799743972e-01    -8.798232308568555e-01   -6.324840732357450e-05   -1.555097300052045e-05   1.091293236962168e-04    -8.924797211894370e-05   4.818150732345748e-01    -8.686105435108695e-01   
4.071000000000000e+09    4.752802737961509e-01    -8.806477945800106e-01   -5.619777365835376e-05   1.029062262829442e-04    4.931590386264640e-05    -1.024490175994202e-04   4.808890758604975e-01    -8.685946596949126e-01   
4.072000000000000e+09    4.742692329489484e-01    -8.810370077505304e-01   -1.573059957789913e-05   4.340249797502172e-05    2.507670365521905e-04    1.056558944680493e-04    4.799940834681999e-01    -8.680263234279721e-01   
4.073000000000000e+09    4.734171845980210e-01    -8.821212300950148e-01   1.457820808151822e-05    1.621551062173193e-04    -1.867336020865100e-04   1.003218256780129e-04    4.790555989711102e-01    -8.677746658705996e-01   
4.074000000000000e+09    4.730446424879705e-01    -8.826414093334775e-01   -3.219722792872445e-05   -5.642843945075040e-06   -3.197615888283304e-05   7.093827782255499e-05    4.775662166274113e-01    -8.674103888713990e-01   
4.075000000000000e+09    4.720988368735743e-01    -8.836158466525484e-01   3.630479204633061e-05    1.301758004242853e-04    4.307723623752516e-05    4.621881597716435e-05    4.766413229972813e-01    -8.671169172604587e-01   
4.076000000000000e+09    4.714169680359986e-01    -8.842288648538549e-01   3.785509330972953e-05    1.446323273676293e-04    5.958778783038427e-05    -3.458608542641400e-05   4.754262191036815e-01    -8.670626585256508e-01   
4.077000000000000e+09    4.705090128310670e-01    -8.851991548957145e-01   5.423707064877407e-05    -1.476513466081560e-04   8.373349463718286e-05    1.582331737602468e-04    4.739211462694395e-01    -8.667287854254302e-01   
4.078000000000000e+09    4.698384948524633e-01    -8.859289664240980e-01   3.846254548807960e-05    -8.731525944676649e-05   6.490174501137142e-05    2.707288470334579e-04    4.727345019412358e-01    -8.664789144517006e-01   
4.079000000000000e+09    4.692439916916061e-01    -8.867495682322470e-01   -2.607645317963561e-04   1.099749106607223e-04    -1.775703234594336e-04   1.210079017353987e-04    4.709771804805002e-01    -8.664308091354941e-01   
4.080000000000000e+09    4.686700573988076e-01    -8.869901377331560e-01   1.088395722575610e-04    1.227580823205858e-04    -1.756152193068270e-05   -1.500959086835479e-05   4.696051439304194e-01    -8.665815023700100e-01   
4.081000000000000e+09    4.677572268609781e-01    -8.879503893836938e-01   -2.097623941642313e-05   1.001988115578468e-04    1.468826331474561e-04    2.684849306658372e-04    4.679625844495411e-01    -8.664578745942083e-01   
4.082000000000000e+09    4.670654121222440e-01    -8.882352977167267e-01   1.549544197290382e-04    8.712950105685100e-05    1.247046654143535e-04    -1.325612507757175e-04   4.663456565774826e-01    -8.663039938129191e-01   
4.083000000000000e+09    4.660890928505230e-01    -8.893686207104762e-01   -6.499499917242403e-05   -9.889413886822901e-05   -6.398150801626802e-05   -1.041736785045954e-04   4.644576553120390e-01    -8.666346790493284e-01   
4.084000000000000e+09    4.651193410063228e-01    -8.899311279006380e-01   -1.018012285481059e-04   9.447057858166588e-05    1.651290268583888e-04    3.887479605498488e-05    4.626172330225107e-01    -8.668015360706282e-01   
