[Version] 2.0
! Rohde & Schwarz Vector Network Analyzer
! Rohde-Schwarz,ZNL20-2Port,1323001220200009,1.71.1.10-23.02.1.238
! 
! Port Assignments:
! Nominal Port -> Actual Test Port
! --------------------------------
!   1 -> 1
!   2 -> 2

! Created: GMT+2 2025-01-16 20:20:33

# Hz S RI R 50

[Number of Ports] 2
[Two-Port Data Order] 21_12
[Number of Frequencies] 16001

[Network Data] 
! freq[Hz]               S11[Re]                  S11[Im]                  S21[Re]                  S21[Im]                  S12[Re]                  S12[Im]                  S22[Re]                  S22[Im]                  
4.000000000000000e+09    5.517777826270445e-01    -8.357056329661768e-01   6.926700972120855e-05    1.993557873477851e-05    -1.860962086820426e-04   1.335954725521786e-04    5.425998402623714e-01    -8.146708463482275e-01   
4.001000000000000e+09    5.504846754921288e-01    -8.367489070307429e-01   1.613831924267093e-04    -1.832121740193775e-05   1.559761707496607e-04    1.220051392004513e-04    5.403799360114289e-01    -8.156674547360976e-01   
4.002000000000000e+09    5.495799937453302e-01    -8.377624154621750e-01   1.472608700646122e-05    5.384759511251940e-06    7.285133106238803e-05    7.098739431301322e-05    5.381741789089579e-01    -8.168787562481209e-01   
4.003000000000000e+09    5.481421238892654e-01    -8.383254502661196e-01   5.033510717821456e-05    1.114739696767343e-04    1.660219811823977e-04    1.618160901495517e-05    5.364637103742456e-01    -8.181384812605463e-01   
4.004000000000000e+09    5.470279531512717e-01    -8.387721944153589e-01   -5.886814488304770e-05   3.267501599707053e-05    -2.263016243262395e-04   -5.460463960361935e-05   5.343080666421945e-01    -8.188853017720789e-01   
4.005000000000000e+09    5.455336170588757e-01    -8.400382855766931e-01   1.851899028787121e-04    2.226477421747806e-04    1.434508631887378e-04    6.861939702210252e-05    5.326390387108297e-01    -8.202352971558767e-01   
4.006000000000000e+09    5.444810176231183e-01    -8.408104845097704e-01   7.683620353023666e-05    1.859614758865666e-04    4.492982076265825e-05    -4.800206670363732e-05   5.305811896601490e-01    -8.213866253559925e-01   
4.007000000000000e+09    5.434178404775767e-01    -8.417652421460106e-01   -9.185028780073294e-05   1.167497015579177e-04    -4.520099773683904e-05   -1.645564944115599e-04   5.287829136966935e-01    -8.224890694242262e-01   
4.008000000000000e+09    5.423941447893721e-01    -8.428549494591977e-01   -1.245739475674954e-04   -4.673504822285099e-05   -1.209362883120370e-04   1.361558346285942e-04    5.268705979816131e-01    -8.240289042137390e-01   
4.009000000000000e+09    5.412429649772469e-01    -8.435487531651905e-01   1.418693897398399e-05    -7.490319715288291e-05   -4.259162699927052e-05   5.299823309728987e-05    5.248917923489554e-01    -8.253042816230555e-01   
4.010000000000000e+09    5.399343275962045e-01    -8.443142378356878e-01   -9.208881442401150e-05   1.128539074202187e-04    -1.643819255358956e-05   -2.266475376492813e-05   5.228298348209013e-01    -8.266520489165152e-01   
4.011000000000000e+09    5.384037680811150e-01    -8.450226254657118e-01   4.548284148373038e-05    3.731888440687830e-05    -3.608537482185680e-05   1.876178966117531e-04    5.211281256404434e-01    -8.281912938846944e-01   
4.012000000000000e+09    5.375594133766841e-01    -8.456427633997087e-01   -1.863731031590297e-05   -5.004013384329962e-06   1.175270626024224e-04    4.848275013224549e-05    5.198257851572640e-01    -8.293563217403376e-01   
4.013000000000000e+09    5.362361479977084e-01    -8.464255661733088e-01   -2.321447379238358e-05   -6.262951380541590e-05   3.062142903493305e-05    -2.365151494318335e-05   5.178536755390635e-01    -8.307670760686224e-01   
4.014000000000000e+09    5.350117095202430e-01    -8.469708564148916e-01   1.605523905459648e-05    -8.755747456693318e-05   -1.287409748463853e-04   8.561275859825734e-05    5.157622572009332e-01    -8.321380952360743e-01   
4.015000000000000e+09    5.341172618103444e-01    -8.476510433943037e-01   2.899464730753365e-05    -2.098517020288224e-05   -5.613195740634664e-05   -8.814298097395025e-06   5.145806733036277e-01    -8.333932417340656e-01   
4.016000000000000e+09    5.330271260020223e-01    -8.482703506495120e-01   8.475909460296975e-05    -5.683893439846972e-05   -6.873610507051860e-05   4.098030517001932e-05    5.130074748155532e-01    -8.348419034347441e-01   
4.017000000000000e+09    5.320357781956967e-01    -8.486807271167479e-01   -5.245277900241050e-05   -3.823748170739165e-05   1.361567170149634e-04    -6.304996629300123e-06   5.114413867746486e-01    -8.365213094902472e-01   
4.018000000000000e+09    5.306444675839301e-01    -8.494262604763855e-01   1.237871382473545e-04    8.268422353832176e-05    -1.205106536313025e-06   2.626976689600446e-05    5.103326639884224e-01    -8.377595827496109e-01   
4.019000000000000e+09    5.296191654091239e-01    -8.498259252177189e-01   -9.117750849735735e-05   -1.293774368174731e-04   -7.732574930783633e-05   -9.856504118718211e-05   5.088287962881560e-01    -8.392214436329920e-01   
4.020000000000000e+09    5.284839451827313e-01    -8.506486547797815e-01   -8.399722950092445e-05   -8.053929799841788e-05   9.188791880420359e-05    3.989109088370771e-05    5.073035855912840e-01    -8.400816038508908e-01   
4.021000000000000e+09    5.272719259596516e-01    -8.506545367105933e-01   -7.900968836754386e-05   -2.564111115802491e-04   2.015849442972438e-04    1.054573358474331e-04    5.062439968352922e-01    -8.417157536332558e-01   
4.022000000000000e+09    5.262133277457394e-01    -8.517379293472536e-01   -2.017177155504434e-04   -1.408264839569613e-04   -3.520533814138923e-05   1.568524747269202e-04    5.051522746876603e-01    -8.425824706205353e-01   
4.023000000000000e+09    5.251799129704852e-01    -8.523285747919638e-01   1.022681028354478e-04    -1.305764580429372e-04   1.848581628495022e-05    -2.648470976313597e-05   5.039772812935012e-01    -8.439011809407893e-01   
4.024000000000000e+09    5.239597206898038e-01    -8.524109414214377e-01   1.089128957286123e-04    6.888231008018735e-05    1.214833210897569e-04    -1.015293761634749e-04   5.030425671230369e-01    -8.450428051420410e-01   
4.025000000000000e+09    5.227549867460349e-01    -8.528890093772797e-01   1.421419304099151e-04    -1.058997127672954e-05   -4.987981913935790e-05   -1.335919882296274e-04   5.020073919479087e-01    -8.463526211036507e-01   
4.026000000000000e+09    5.213955658339875e-01    -8.531134459149873e-01   4.022872165365622e-06    -6.132462500918774e-05   -1.287085679504330e-05   -8.113322621281128e-05   5.009776158620250e-01    -8.475537700951853e-01   
4.027000000000000e+09    5.204852580140604e-01    -8.537610307713892e-01   4.006511428822718e-04    6.559264672225143e-05    1.243873756652031e-04    9.670872307409895e-05    4.999668890766163e-01    -8.481074620687860e-01   
4.028000000000000e+09    5.192804221223999e-01    -8.541080000170190e-01   -1.911941869051237e-04   7.923744324342674e-05    -8.404802793587164e-05   9.084816313659899e-05    4.989482257633221e-01    -8.497065303447844e-01   
4.029000000000000e+09    5.183461061056467e-01    -8.547112216054180e-01   5.645758479796947e-06    6.852670097219256e-05    -5.618904740125078e-05   2.916408971300761e-04    4.982519701011551e-01    -8.510073597431607e-01   
4.030000000000000e+09    5.173100308596615e-01    -8.547864699197059e-01   -8.042374096157524e-05   -1.245402605614709e-04   -2.306085433535111e-04   3.812404670521644e-05    4.972916340637414e-01    -8.518727383851772e-01   
4.031000000000000e+09    5.158184153936743e-01    -8.553060738269098e-01   8.245026939296940e-05    -8.033405557100742e-05   2.395674415234724e-04    1.237416327979176e-04    4.965109425099510e-01    -8.527858988183906e-01   
4.032000000000000e+09    5.146440020202113e-01    -8.557181472722826e-01   -7.171715736292626e-05   2.756113471011609e-05    8.619079948652855e-06    3.395382008826836e-06    4.958748314796229e-01    -8.536837735814969e-01   
4.033000000000000e+09    5.132568708844489e-01    -8.559849961832700e-01   -4.528556372176336e-06   -6.812504043336953e-05   -6.390787563797154e-05   -1.225124294154106e-04   4.950283639921713e-01    -8.546275775463310e-01   
4.034000000000000e+09    5.119911788705915e-01    -8.564001792570710e-01   -2.701715996444457e-05   -6.642101290792467e-05   -2.716368684416482e-05   4.062611048889663e-05    4.942936409630139e-01    -8.557027547020971e-01   
4.035000000000000e+09    5.109143743236445e-01    -8.567279559234051e-01   -1.900313418049667e-04   3.600402717667211e-05    3.661632225141670e-05    -1.250917344021024e-04   4.937807016144781e-01    -8.565800149866694e-01   
4.036000000000000e+09    5.094833119950466e-01    -8.572139624462547e-01   -1.084723642621250e-04   1.018879475485727e-05    -8.658098035327081e-05   -3.109202747144922e-05   4.930547871893292e-01    -8.572728331328426e-01   
4.037000000000000e+09    5.082745860287123e-01    -8.577600201371015e-01   -1.566330006741758e-04   8.428324526674713e-05    7.420768628578519e-05    -1.739697541005483e-04   4.922837585610395e-01    -8.582271014409637e-01   
4.038000000000000e+09    5.069952655253954e-01    -8.580407323356951e-01   -7.432161941552595e-05   -3.979886482430522e-05   3.120526550362479e-05    -8.235154595290283e-06   4.921002627816830e-01    -8.592453511708302e-01   
4.039000000000000e+09    5.056991923103460e-01    -8.585727277607814e-01   -6.352851729933681e-05   6.197249987862543e-05    -1.543529990737479e-04   -1.143104355960729e-04   4.912706154017101e-01    -8.598838829644897e-01   
4.040000000000000e+09    5.046887102471090e-01    -8.590589493767643e-01   2.043543331347537e-05    1.900667321125763e-04    3.297972493506681e-05    -7.207354538403334e-05   4.906757059331984e-01    -8.607601851092223e-01   
4.041000000000000e+09    5.031331798132338e-01    -8.594414428811213e-01   1.337529126118293e-04    2.463988413265873e-04    -6.693067500833296e-05   -7.248201031332679e-05   4.901493164284695e-01    -8.616214554673737e-01   
4.042000000000000e+09    5.018584462320032e-01    -8.600982750304457e-01   4.120515651645795e-05    1.838242676504746e-04    1.792352713632233e-04    -1.071096928624554e-04   4.897694095279994e-01    -8.622407140918997e-01   
4.043000000000000e+09    5.008046722347101e-01    -8.605538680780982e-01   2.755157464525892e-04    3.703124497923579e-05    -6.969227157446917e-05   -6.710396500274438e-05   4.894190362213741e-01    -8.630232980599306e-01   
4.044000000000000e+09    4.993837060027617e-01    -8.611434232679069e-01   -7.809848279437285e-05   -2.062827220852694e-04   -5.522658082065971e-05   5.058282792824581e-06    4.889670334061684e-01    -8.639260363830277e-01   
4.045000000000000e+09    4.982574946541532e-01    -8.615889819210200e-01   -1.674595571457159e-05   -1.679984512692187e-04   -5.702039119838293e-05   1.484488471786349e-04    4.883723104720186e-01    -8.644765838639595e-01   
4.046000000000000e+09    4.970133275097038e-01    -8.623304553054387e-01   -7.840636001259067e-05   5.330860549146111e-05    1.410549664752356e-04    -1.081639801904605e-04   4.880938145295681e-01    -8.652834176025067e-01   
4.047000000000000e+09    4.959087596140270e-01    -8.629429341951672e-01   1.741305328087527e-04    -6.559741609140848e-05   3.953275461209302e-06    -6.599139321208766e-05   4.875036695134982e-01    -8.656162179741316e-01   
4.048000000000000e+09    4.948891707940101e-01    -8.635886633095571e-01   1.225737269947510e-05    -2.065434316463573e-05   1.717062901588596e-04    -8.711269638245850e-05   4.871744367357165e-01    -8.665252239120943e-01   
4.049000000000000e+09    4.935288749414453e-01    -8.645187683620178e-01   1.186399740799351e-04    -1.473488362664977e-05   -1.987556427665823e-04   1.165033869377421e-04    4.870191481124455e-01    -8.673808538298251e-01   
4.050000000000000e+09    4.928021787235252e-01    -8.648965113905904e-01   1.132627530083684e-04    -1.056151416069839e-04   -3.858325453787530e-05   -1.973120541850726e-05   4.866948385781506e-01    -8.679050878454568e-01   
4.051000000000000e+09    4.913800288128415e-01    -8.657599309337652e-01   2.286903813213574e-05    7.378292553449963e-05    -7.351015110904046e-05   -1.665402268383336e-05   4.863859848580780e-01    -8.682352673434464e-01   
4.052000000000000e+09    4.906632845532928e-01    -8.667850436371930e-01   7.078610608826221e-05    -6.699059089715673e-06   3.060841839291499e-05    8.262824993672671e-05    4.861294787648174e-01    -8.687554947076164e-01   
4.053000000000000e+09    4.893631948999199e-01    -8.672276397867039e-01   7.763959438301986e-06    -1.129185793587621e-04   -4.740753840040387e-05   -1.675439022901391e-04   4.860171221393878e-01    -8.691282559390855e-01   
4.054000000000000e+09    4.884186323343124e-01    -8.680488983799186e-01   2.082132917055698e-05    -8.511342651257590e-05   -3.916195503336452e-05   2.150431478245128e-05    4.859110637857161e-01    -8.697743005125570e-01   
4.055000000000000e+09    4.877542367809118e-01    -8.686869765793842e-01   2.284347898760462e-04    -1.139236839199587e-04   2.998438322498009e-04    7.438999764575962e-05    4.856296228170019e-01    -8.702564297313745e-01   
4.056000000000000e+09    4.865620168359001e-01    -8.697369352551281e-01   -8.081836255445485e-05   5.883323860153814e-05    -5.986081948882956e-05   3.145859010279812e-05    4.853135375540083e-01    -8.701546419554821e-01   
4.057000000000000e+09    4.856797342799381e-01    -8.702653431234093e-01   2.320125986015779e-04    1.785754332995187e-04    -1.422961845496851e-04   -2.443826145466937e-05   4.854657106803816e-01    -8.708451431698774e-01   
4.058000000000000e+09    4.844596928199326e-01    -8.708857302122964e-01   -1.738572062951492e-04   5.992654097253961e-05    1.439299233446501e-04    -2.006701142115941e-06   4.852138301644059e-01    -8.710187774443098e-01   
4.059000000000000e+09    4.839075826689206e-01    -8.718573863755418e-01   -3.436378869312932e-05   -1.167510472794649e-04   3.211043134809268e-05    2.328439561359780e-05    4.848941807990415e-01    -8.710264550689403e-01   
4.060000000000000e+09    4.831148123489356e-01    -8.726952550115906e-01   -6.668129025098550e-05   5.797937764678771e-05    1.593640801550904e-05    -1.126712795954302e-06   4.851026086351564e-01    -8.709567340108378e-01   
4.061000000000000e+09    4.821042492852824e-01    -8.730976259909045e-01   -6.147123044787505e-05   -1.345926612251026e-04   -8.766127000121151e-05   -1.128405644124978e-04   4.848440187201234e-01    -8.712360586708022e-01   
4.062000000000000e+09    4.810756617129120e-01    -8.740814231555069e-01   5.923897851374786e-05    -8.856197738280314e-05   -1.360626143392841e-05   -2.215809067139758e-06   4.843834515532937e-01    -8.711529269263514e-01   
4.063000000000000e+09    4.804197238922863e-01    -8.750850826516766e-01   9.260568376196611e-05    -3.103840701262127e-05   -3.004621974307326e-05   -3.296386095742523e-05   4.841817571747637e-01    -8.711627180022247e-01   
4.064000000000000e+09    4.799000967954908e-01    -8.755455245323190e-01   -8.311484442524916e-05   1.406742076395048e-04    -5.178789592096037e-05   -7.754313119339600e-05   4.839812467249819e-01    -8.710675712847396e-01   
4.065000000000000e+09    4.791713627066950e-01    -8.762125224681327e-01   -2.058277900650502e-05   4.498610816962616e-05    1.258230661511352e-05    4.317830269415124e-05    4.835748410274112e-01    -8.705743971512991e-01   
4.066000000000000e+09    4.782179660741172e-01    -8.773006399910428e-01   4.529005419812239e-06    1.175848211118463e-04    4.611937537942331e-05    -9.201733938892622e-05   4.832040204238607e-01    -8.704610665179302e-01   
4.067000000000000e+09    4.771294656772416e-01    -8.777835263177096e-01   6.613035293660676e-05    6.890758526624981e-05    1.720920256965292e-06    -1.323708318856700e-04   4.825425341532412e-01    -8.702284087262612e-01   
4.068000000000000e+09    4.765746013865099e-01    -8.787507748592017e-01   7.926032866586825e-05    -1.010521431341828e-04   1.068167758775175e-04    -3.540791832174142e-05   4.819007474423933e-01    -8.700967031188809e-01   
4.069000000000000e+09    4.760283093709731e-01    -8.794179317743900e-01   1.153439104332165e-04    -1.235007062415182e-04   -1.326487652340511e-04   1.087460645417880e-04    4.813996105180479e-01    -8.697546284513726e-01   
4.070000000000000e+09    4.750545308177165e-01    -8.800320841213511e-01   -9.375865416142607e-05   -1.365167049866454e-04   -2.586812859229165e-04   5.316163701529578e-05    4.803306046461457e-01    -8.693650588676739e-01   
4.071000000000000e+09    4.745747399181599e-01    -8.809686589637036e-01   -2.077122739786906e-04   -1.000442634171899e-04   1.438712151157515e-04    -2.379912128853118e-05   4.795077314774199e-01    -8.693240494532928e-01   
4.072000000000000e+09    4.735239197942582e-01    -8.814381445710775e-01   9.861588186564517e-06    9.939050411926691e-06    6.475235017548584e-05    -6.505701306391744e-05   4.788987703831512e-01    -8.690267877884342e-01   
4.073000000000000e+09    4.730792611921621e-01    -8.824803634897112e-01   1.610231647899431e-05    -6.164563668399732e-05   4.695962611571014e-05    9.785129141842822e-05    4.778023831744270e-01    -8.683927390870656e-01   
4.074000000000000e+09    4.721074383581972e-01    -8.830110659512593e-01   1.448542563976176e-05    -2.444415680174550e-05   4.583649959850093e-05    6.240919403506160e-05    4.765651220437186e-01    -8.682603818749315e-01   
4.075000000000000e+09    4.713916161298676e-01    -8.838827392543829e-01   -2.375484596626182e-06   -7.544843266352826e-05   -1.838827511977725e-04   6.773400232983944e-06    4.753440954013545e-01    -8.680869049958793e-01   
4.076000000000000e+09    4.708062326722356e-01    -8.843532699861634e-01   -2.188181009335422e-05   -2.690013912000179e-05   -1.626237266459678e-04   4.511160838520567e-05    4.742853625236396e-01    -8.678875886031268e-01   
4.077000000000000e+09    4.702129562077237e-01    -8.850740368910492e-01   1.601944041920591e-04    -7.962869706139885e-05   -5.989836688949752e-05   -1.333938970510707e-04   4.729473240704199e-01    -8.673795523518503e-01   
4.078000000000000e+09    4.691293975613692e-01    -8.859408028020003e-01   4.172407258474792e-05    4.498038139561498e-05    -3.327585744839931e-05   4.056022899239364e-05    4.715165488150031e-01    -8.672545985600744e-01   
4.079000000000000e+09    4.686793867530186e-01    -8.868760990461759e-01   3.450744236312616e-05    -4.312126680663779e-05   -3.156549661567709e-05   -1.362174191690902e-04   4.700151695360867e-01    -8.674072245152715e-01   
4.080000000000000e+09    4.676329121694914e-01    -8.873056297047864e-01   -6.630155832576292e-05   -3.771162295631752e-05   1.439520967336699e-04    3.926296256057619e-05    4.684013158793570e-01    -8.670595911904804e-01   
4.081000000000000e+09    4.668431542280661e-01    -8.883211358500840e-01   1.385553414282078e-04    1.484874286233982e-04    -2.502116371211910e-05   1.160236223070547e-04    4.668355426415552e-01    -8.671013097787723e-01   
4.082000000000000e+09    4.661919241315400e-01    -8.884794356092204e-01   -1.629718908332266e-04   1.475740410454850e-05    2.023934831624530e-05    3.042186433177711e-05    4.650004799459525e-01    -8.672035388469789e-01   
4.083000000000000e+09    4.651767397890345e-01    -8.892688659160650e-01   1.696051847783338e-05    -7.626740029063639e-05   1.609868607941573e-05    -6.262626490193556e-05   4.631089796774299e-01    -8.674059419880524e-01   
4.084000000000000e+09    4.646334864205798e-01    -8.900498032942673e-01   2.875251542706289e-05    2.246965781967530e-05    1.176264815783921e-04    -1.591389274009366e-04   4.616579903571639e-01    -8.675529959511598e-01   
