[Version] 2.0
! Rohde & Schwarz Vector Network Analyzer
! Rohde-Schwarz,ZNL20-2Port,1323001220200009,1.71.1.10-23.02.1.238
! 
! Port Assignments:
! Nominal Port -> Actual Test Port
! --------------------------------
!   1 -> 1
!   2 -> 2

! Created: GMT+2 2025-01-16 20:21:15

# Hz S RI R 50

[Number of Ports] 2
[Two-Port Data Order] 21_12
[Number of Frequencies] 16001

[Network Data] 
! freq[Hz]               S11[Re]                  S11[Im]                  S21[Re]                  S21[Im]                  S12[Re]                  S12[Im]                  S22[Re]                  S22[Im]                  
4.000000000000000e+09    5.514184864723900e-01    -8.360571807629121e-01   -4.978490133503589e-05   1.455810170202211e-04    9.871767266909960e-06    -2.466164802135988e-04   5.424313049586679e-01    -8.148283194727934e-01   
4.001000000000000e+09    5.504208286859826e-01    -8.366571251180490e-01   -7.322957964775525e-06   2.856375705601668e-05    7.540502578556097e-05    -1.460565440140718e-07   5.404044079438163e-01    -8.157555631071808e-01   
4.002000000000000e+09    5.492913454158355e-01    -8.374260221218813e-01   2.036230682308280e-04    1.242249068053437e-04    -1.336074037877049e-04   -2.207518862768942e-04   5.382825376247831e-01    -8.170251734666133e-01   
4.003000000000000e+09    5.480878315937027e-01    -8.384971099718198e-01   1.257870801827043e-04    -2.154044727387203e-04   1.374757818013684e-04    -4.275822187723825e-05   5.362790302764259e-01    -8.177843057657659e-01   
4.004000000000000e+09    5.467304323079437e-01    -8.390836371503759e-01   7.409108623502946e-05    -1.036799075571744e-04   6.051385185200753e-05    5.843717525480127e-05    5.344652884012874e-01    -8.190692320820340e-01   
4.005000000000000e+09    5.457853941880588e-01    -8.404375101476461e-01   -1.091970054439586e-05   1.139060658444195e-04    7.810407351586455e-05    -1.984451125129597e-06   5.324974456194763e-01    -8.205307677790130e-01   
4.006000000000000e+09    5.447614367871507e-01    -8.411007882997923e-01   -5.266276556497179e-05   4.337846194179294e-05    -9.791261014715584e-05   3.339058896516775e-05    5.305381072899857e-01    -8.213244919792445e-01   
4.007000000000000e+09    5.435684797403275e-01    -8.421977135093968e-01   2.873107746231622e-04    3.468858522852477e-05    -1.290409235886389e-05   -1.845102281497130e-05   5.285595210408980e-01    -8.231598965427920e-01   
4.008000000000000e+09    5.426044332087744e-01    -8.429884700210338e-01   6.899133962096059e-05    1.458871923341286e-05    1.280643357552008e-04    5.090278214926739e-05    5.266037510378699e-01    -8.237533428586362e-01   
4.009000000000000e+09    5.410507314393395e-01    -8.437981624248702e-01   5.006810325705419e-06    9.824584591335166e-05    -1.050140135483590e-04   -8.562283363493421e-05   5.249220270548569e-01    -8.249463390864868e-01   
4.010000000000000e+09    5.399875139248583e-01    -8.445820055481068e-01   -1.026275420815119e-04   2.371128994063632e-04    1.625886159710364e-05    -1.405407391254188e-04   5.230442290521188e-01    -8.266091633532321e-01   
4.011000000000000e+09    5.388814024995146e-01    -8.449241259460115e-01   -4.322354375900178e-05   -7.458500087211617e-05   -1.165480246436840e-04   1.324137429743274e-04    5.209370055960232e-01    -8.281441248128338e-01   
4.012000000000000e+09    5.378661390144147e-01    -8.455982838856405e-01   -5.197688961229387e-05   1.436601873604910e-04    4.325618959933032e-05    -2.833781894937858e-05   5.194389552123131e-01    -8.292618599807074e-01   
4.013000000000000e+09    5.362508479989242e-01    -8.465944632302700e-01   -1.446155438124551e-04   1.049466869200041e-04    -1.182196963275689e-05   -3.656358649018625e-05   5.181905321395327e-01    -8.308671877222346e-01   
4.014000000000000e+09    5.353568420018007e-01    -8.467502678690445e-01   -9.141230537375926e-05   1.234580445584369e-04    3.458065638535040e-05    4.195530190616080e-05    5.161896100574340e-01    -8.320832247024376e-01   
4.015000000000000e+09    5.339437689119554e-01    -8.477657621936404e-01   -3.918701022627482e-06   1.662196851723763e-04    7.146211614422725e-05    2.236703442567568e-04    5.147009200030803e-01    -8.334489864452003e-01   
4.016000000000000e+09    5.329816200550067e-01    -8.484507585285256e-01   -3.486376078509281e-05   -2.492821230607375e-04   3.072537889739762e-05    3.805890159361244e-05    5.130605063384105e-01    -8.351294827736579e-01   
4.017000000000000e+09    5.320004837823963e-01    -8.488154388764640e-01   -1.713368796406689e-04   6.776543928326193e-05    -1.449677058100146e-04   -8.780188981668065e-05   5.118157836356121e-01    -8.364800133584814e-01   
4.018000000000000e+09    5.307040779069059e-01    -8.495725456611659e-01   3.262324062495675e-06    1.237435140649679e-05    1.437005841054946e-04    -4.181675391463046e-05   5.100867847211923e-01    -8.378285954794151e-01   
4.019000000000000e+09    5.297037137811379e-01    -8.499395412379288e-01   2.162770724713977e-04    1.879440725126446e-04    5.198777951400988e-05    -1.518648565275926e-04   5.088684264473574e-01    -8.388800492750734e-01   
4.020000000000000e+09    5.288311883774315e-01    -8.505141810345617e-01   -7.029634985574793e-05   1.267563916098669e-04    -6.677909231750152e-05   1.875358017287318e-04    5.075739947920056e-01    -8.403970028639107e-01   
4.021000000000000e+09    5.273491499581707e-01    -8.509059516916080e-01   -6.681703756608766e-05   -4.471341136272918e-05   -2.252531126001796e-05   1.832596017860301e-04    5.063271374228123e-01    -8.415309297213245e-01   
4.022000000000000e+09    5.260929277448884e-01    -8.514677217504841e-01   8.119308691562785e-05    -1.810764981193871e-04   -1.240360298103779e-04   -1.040173091229815e-04   5.049914593885810e-01    -8.428635853801655e-01   
4.023000000000000e+09    5.249452897559553e-01    -8.521334587362464e-01   3.041194011974267e-05    -5.570540245397439e-05   1.192512511635330e-04    1.057464036191527e-05    5.039791388299482e-01    -8.438401273501759e-01   
4.024000000000000e+09    5.238488530241664e-01    -8.525361909995319e-01   -1.270979180306949e-04   -8.951325275197242e-06   7.753739631966879e-05    5.233366817712437e-05    5.031470234781763e-01    -8.451325389491292e-01   
4.025000000000000e+09    5.226616731042844e-01    -8.527798021029025e-01   -1.211258190841609e-05   -9.487142220265052e-05   6.370787671576743e-05    6.285075277869414e-05    5.017481992356432e-01    -8.463442569314010e-01   
4.026000000000000e+09    5.216525983941522e-01    -8.533076192843811e-01   1.756858025861668e-04    -5.754434101821127e-05   -8.113636888352464e-05   6.596156608142941e-05    5.006402065314095e-01    -8.474623244859842e-01   
4.027000000000000e+09    5.204267434071055e-01    -8.538439415328788e-01   -6.646891317166180e-05   -7.132486276345700e-05   -5.956219537058884e-05   -3.158625914506345e-05   5.000257369040084e-01    -8.482898892141074e-01   
4.028000000000000e+09    5.193451959938710e-01    -8.540188416678531e-01   -1.731938806873767e-04   6.438698316560449e-05    -1.365886427288224e-04   -5.995085523986482e-05   4.989237061401151e-01    -8.498840756567885e-01   
4.029000000000000e+09    5.182150191925724e-01    -8.546364576184932e-01   7.824384681410942e-05    5.692679401340983e-05    -1.494521534610696e-05   -5.626291568101339e-05   4.981287686246088e-01    -8.508273792481140e-01   
4.030000000000000e+09    5.168800915639767e-01    -8.548227756201046e-01   1.074454846268296e-04    2.687129087903066e-06    -2.023204210263405e-04   -4.335951622247084e-05   4.971585284263441e-01    -8.519031197287459e-01   
4.031000000000000e+09    5.156647835874282e-01    -8.552567127787268e-01   1.792994375768401e-05    -3.369029580327103e-04   5.410625727660543e-05    7.921470391803670e-05    4.964251755804379e-01    -8.527403960003388e-01   
4.032000000000000e+09    5.142514374768498e-01    -8.556039883514207e-01   1.314425038414333e-04    1.497363920853109e-04    -6.918950088185627e-05   -1.317760626860926e-04   4.956417450803052e-01    -8.538151694949128e-01   
4.033000000000000e+09    5.132839435004419e-01    -8.559111083617335e-01   3.409637140496878e-05    -1.254610001458869e-04   -1.315428109517278e-04   1.201391540134502e-04    4.949459472500468e-01    -8.544643963399446e-01   
4.034000000000000e+09    5.118855576889793e-01    -8.564371560302075e-01   1.709595409165370e-05    -1.728687035179110e-04   3.264229332425172e-04    4.815202179956463e-05    4.942547315723934e-01    -8.556546022997648e-01   
4.035000000000000e+09    5.106989483825735e-01    -8.566814507819618e-01   -1.830141755469028e-05   5.436632820849208e-05    -1.174867664663628e-04   1.500823521865190e-04    4.937699737799157e-01    -8.564933455001621e-01   
4.036000000000000e+09    5.096420001192025e-01    -8.570776398300860e-01   -2.031942262304629e-05   -9.878735366192063e-05   -1.207383451695548e-04   -8.489232514861458e-05   4.932804672483986e-01    -8.573293977817572e-01   
4.037000000000000e+09    5.083075519125452e-01    -8.576806630671593e-01   -4.583300312776517e-05   -4.696642683727083e-05   -7.196975143335440e-05   8.951387694918679e-05    4.922861644394443e-01    -8.580469882225837e-01   
4.038000000000000e+09    5.070681334230797e-01    -8.579765779133465e-01   6.873793585040454e-05    -4.212385885280274e-05   5.693594467964599e-05    2.467265490789979e-06    4.919150700045338e-01    -8.591299245290939e-01   
4.039000000000000e+09    5.059035314952495e-01    -8.585345178788933e-01   -8.347468847548645e-05   6.460815227730050e-05    9.805763958235636e-06    -8.048168640149069e-05   4.911839806980831e-01    -8.599131366383274e-01   
4.040000000000000e+09    5.045471132247603e-01    -8.589476560812760e-01   -1.498093136793761e-04   -2.728281108909676e-05   1.424144037360019e-04    6.684372552801074e-06    4.906658101249876e-01    -8.609391958290863e-01   
4.041000000000000e+09    5.032023502078214e-01    -8.594045844902234e-01   8.856488504840319e-05    1.689191710491016e-05    1.068414846535037e-04    1.505490868056529e-04    4.902667190144606e-01    -8.617821656849913e-01   
4.042000000000000e+09    5.018205765256512e-01    -8.602261267287323e-01   9.582202071746635e-05    -4.415503065399617e-05   2.133322355786300e-05    4.502944103423278e-05    4.896761289039063e-01    -8.625130466817654e-01   
4.043000000000000e+09    5.006223083565067e-01    -8.605164134837169e-01   2.943741367824115e-04    7.093623367644426e-05    1.379388884875700e-04    -7.303451394156577e-05   4.894870968776038e-01    -8.629994939211377e-01   
4.044000000000000e+09    4.995382062769961e-01    -8.612518599956965e-01   -1.777055183969733e-04   5.044782569424155e-05    2.463969740573602e-04    8.198801570663814e-05    4.885933578432279e-01    -8.640648604769136e-01   
4.045000000000000e+09    4.983422423942716e-01    -8.618322843459870e-01   -3.819143714141740e-05   -9.832476658489259e-05   8.254158909016350e-05    -1.569606192059765e-04   4.882904948609393e-01    -8.645295126670476e-01   
4.046000000000000e+09    4.967726270972795e-01    -8.624035031856999e-01   2.946713676845441e-05    1.186953893406182e-04    9.663313223967954e-05    -7.103798396717355e-05   4.878195409242260e-01    -8.652514081339500e-01   
4.047000000000000e+09    4.959688406079668e-01    -8.632049532688971e-01   2.494499792642257e-05    -1.286662561834886e-04   4.448645485617299e-05    -2.113662832592094e-05   4.875872117101586e-01    -8.658335261425214e-01   
4.048000000000000e+09    4.948262999276700e-01    -8.637662131178085e-01   -4.629774057644157e-05   1.958301589165784e-04    -1.202006696859220e-04   -7.543503680005873e-05   4.873790815066201e-01    -8.666550484380627e-01   
4.049000000000000e+09    4.934880402636165e-01    -8.643803932816031e-01   6.751791691792672e-06    3.813404079087987e-05    1.941449638177976e-04    -8.767333685946494e-05   4.868916834717746e-01    -8.673801926548922e-01   
4.050000000000000e+09    4.926968532894743e-01    -8.651668320913595e-01   5.368446541667900e-05    -1.120634107645286e-04   1.074903443620141e-05    8.422957731174078e-05    4.867380909613502e-01    -8.679426476339764e-01   
4.051000000000000e+09    4.913663211239334e-01    -8.659554539774053e-01   7.695980294832363e-05    -2.652689802376554e-05   -8.337767624735808e-06   2.743190175887947e-05    4.864123017130277e-01    -8.683058420510965e-01   
4.052000000000000e+09    4.903603219204197e-01    -8.666883587598325e-01   8.211428367418072e-05    -7.799658175704463e-05   1.350443073649759e-04    -2.546514861816447e-05   4.860059069553708e-01    -8.687580556014748e-01   
4.053000000000000e+09    4.895203840031875e-01    -8.673588718704647e-01   -2.880472396570524e-05   4.497919523428976e-05    -1.140402122734801e-04   -8.057835475129046e-05   4.860634852255444e-01    -8.693478290843858e-01   
4.054000000000000e+09    4.884394144080082e-01    -8.681284117611885e-01   9.132459438424734e-05    3.860858867909301e-05    2.008566435267048e-04    -6.661031602451054e-06   4.859010242519292e-01    -8.696891580278697e-01   
4.055000000000000e+09    4.876248882698383e-01    -8.685344040596723e-01   -4.417118236704344e-05   4.154224452426847e-05    1.669978088940701e-04    2.721923358687804e-04    4.856659898845343e-01    -8.700649968045756e-01   
4.056000000000000e+09    4.865726857375184e-01    -8.696341824889425e-01   -1.394935454011512e-04   2.641846704146259e-06    5.157539597472625e-05    1.167759441827014e-04    4.855795318497327e-01    -8.705146927324660e-01   
4.057000000000000e+09    4.856271949880099e-01    -8.703659761549700e-01   -1.164594109106545e-04   -1.323357273725952e-05   -2.451226323399460e-05   -2.948520179004483e-05   4.853707922812145e-01    -8.708172186825699e-01   
4.058000000000000e+09    4.845245890509244e-01    -8.712740633025352e-01   3.838912375675714e-05    -1.380056442101418e-05   6.879308563622625e-05    1.407348912420788e-05    4.852797818477191e-01    -8.710307219638764e-01   
4.059000000000000e+09    4.838304147076568e-01    -8.719316414914962e-01   -9.640277177330709e-05   -1.443276499649454e-05   1.580527997911070e-04    1.306629953910916e-04    4.849684456977377e-01    -8.712689489363825e-01   
4.060000000000000e+09    4.830211546722145e-01    -8.727642818945662e-01   1.344934845119836e-04    2.961636601057352e-05    3.501044180343913e-05    1.573554242885016e-06    4.848980837869122e-01    -8.710873371694758e-01   
4.061000000000000e+09    4.820052933212041e-01    -8.734965034907329e-01   5.420511140434789e-06    3.893066926520050e-05    -9.722853727402522e-05   3.805186264364402e-05    4.846257540723325e-01    -8.713705311310854e-01   
4.062000000000000e+09    4.813127470706092e-01    -8.740939749056920e-01   6.122693137205349e-06    2.425092436379000e-05    1.017729108098429e-04    7.846749757142515e-05    4.844564076327442e-01    -8.712907111622867e-01   
4.063000000000000e+09    4.805113928334296e-01    -8.748489906104586e-01   -6.035458445854720e-05   4.193121292625604e-05    2.506079642361730e-05    -9.212025942324534e-05   4.840030062647727e-01    -8.710416506193106e-01   
4.064000000000000e+09    4.797436104461837e-01    -8.757378504608280e-01   -1.078766350750916e-04   5.199641834507437e-05    -1.778017781500388e-04   5.647448609147346e-05    4.838679566530549e-01    -8.709526938768428e-01   
4.065000000000000e+09    4.787138467388378e-01    -8.760708376418443e-01   3.654566227464773e-05    6.681857703469646e-05    -6.252894632726638e-05   -7.263942638788429e-05   4.836095432270663e-01    -8.709122857627910e-01   
4.066000000000000e+09    4.782531193081124e-01    -8.772288551940403e-01   -2.021765502540169e-05   -4.582771140448500e-05   -1.392283551390132e-05   -1.248162406818398e-04   4.829789394983514e-01    -8.707754452189664e-01   
4.067000000000000e+09    4.772335232981185e-01    -8.779320014378910e-01   7.347012548019081e-06    1.174417987630751e-04    -5.923993265589113e-06   -5.334145926997118e-05   4.822869926516843e-01    -8.701603760526389e-01   
4.068000000000000e+09    4.767433911679752e-01    -8.787781001732240e-01   1.514285543447861e-04    4.372390172922626e-05    -1.084495150630856e-04   1.170950346723247e-04    4.821390144615444e-01    -8.700539614234659e-01   
4.069000000000000e+09    4.758295295150616e-01    -8.797034285092695e-01   8.028760794977085e-06    -7.460668142461110e-05   -2.027993925559223e-05   1.751675119195849e-04    4.812993200150648e-01    -8.698559156476221e-01   
4.070000000000000e+09    4.749526574631767e-01    -8.799378436672286e-01   -6.247195288748163e-05   -2.123684806157988e-05   -1.032684774030153e-04   -3.688952498591628e-05   4.804908952272334e-01    -8.693658373378450e-01   
4.071000000000000e+09    4.746471398528467e-01    -8.809492933515131e-01   -1.058686593768040e-04   -3.832733139086720e-05   1.828147514513680e-04    -2.420803629722660e-05   4.797245594424798e-01    -8.693772296943275e-01   
4.072000000000000e+09    4.737167524046558e-01    -8.815947847792459e-01   -1.325812506443166e-04   1.376378816851461e-04    3.896734021592518e-05    7.175031251391166e-05    4.789607537249679e-01    -8.685855775988099e-01   
4.073000000000000e+09    4.729193788694210e-01    -8.824517034207875e-01   9.673950129578416e-05    -7.720545002127342e-05   -4.528971095976488e-05   3.520798797204049e-05    4.781326083533977e-01    -8.682817165548812e-01   
4.074000000000000e+09    4.721183380774507e-01    -8.832581752651281e-01   -1.181627580450691e-04   1.210101225228105e-04    -8.960946625238311e-05   4.475331013481859e-05    4.767173013547334e-01    -8.684564507617457e-01   
4.075000000000000e+09    4.715387813494634e-01    -8.841375364972027e-01   -7.445804603917251e-05   -3.103818706818433e-06   2.603310623871984e-05    2.158263633822401e-04    4.756100827868138e-01    -8.679436370941256e-01   
4.076000000000000e+09    4.708566165581370e-01    -8.845360771623716e-01   9.216169474668885e-06    8.801622786729229e-05    -2.129987060693121e-04   4.116026591570158e-05    4.744014754922863e-01    -8.677911843564224e-01   
4.077000000000000e+09    4.699716683100549e-01    -8.856079053323376e-01   7.880904331461997e-06    5.044847723483045e-05    1.008920406563455e-04    6.277367951660621e-05    4.727871203329244e-01    -8.673906402968961e-01   
4.078000000000000e+09    4.693307024436954e-01    -8.863871240859411e-01   3.549420908257350e-05    -1.320005863199926e-04   -1.449215873814252e-04   2.409306141614772e-05    4.715657135928842e-01    -8.671549700180003e-01   
4.079000000000000e+09    4.688467520772355e-01    -8.869165125244770e-01   -6.639248391298971e-06   1.164231906192060e-04    2.555079289867022e-04    6.741636676225860e-05    4.702488931039643e-01    -8.672784385317828e-01   
4.080000000000000e+09    4.676625593170409e-01    -8.874068506451812e-01   -1.033715246869070e-04   2.346083828500722e-05    2.953807153426692e-05    3.583442009783494e-05    4.686972842756681e-01    -8.671666255491969e-01   
4.081000000000000e+09    4.672087834051777e-01    -8.882631829202376e-01   -1.375898283447676e-04   5.010614422858343e-05    3.791035958886010e-05    -8.623082237262524e-05   4.669722115331148e-01    -8.671912463350728e-01   
4.082000000000000e+09    4.666658621997994e-01    -8.885151622294641e-01   8.431036069883121e-06    8.024419084978210e-05    2.726702620711465e-05    -6.359000836861980e-05   4.653283495354549e-01    -8.672142407860719e-01   
4.083000000000000e+09    4.652598995121286e-01    -8.894065974737165e-01   -8.340336010121912e-05   -1.182602118407840e-05   9.218572626856246e-05    2.123534290940718e-05    4.632454614705645e-01    -8.672486282477405e-01   
4.084000000000000e+09    4.649056873142192e-01    -8.903042530524068e-01   -3.687018716676199e-05   1.809203849044034e-04    -1.667876689137492e-05   4.850958233824782e-05    4.615050444563832e-01    -8.675222414708509e-01   
