[Version] 2.0
! Rohde & Schwarz Vector Network Analyzer
! Rohde-Schwarz,ZNL20-2Port,1323001220200009,1.71.1.10-23.02.1.238
! 
! Port Assignments:
! Nominal Port -> Actual Test Port
! --------------------------------
!   1 -> 1
!   2 -> 2

! Created: GMT+2 2025-01-16 20:21:42

# Hz S RI R 50

[Number of Ports] 2
[Two-Port Data Order] 21_12
[Number of Frequencies] 16001

[Network Data] 
! freq[Hz]               S11[Re]                  S11[Im]                  S21[Re]                  S21[Im]                  S12[Re]                  S12[Im]                  S22[Re]                  S22[Im]                  
4.000000000000000e+09    5.516081547873027e-01    -8.360066978802401e-01   -1.033716531033615e-05   9.709349555905587e-05    -1.355734262036544e-04   -1.201761768015440e-04   5.429484001730713e-01    -8.146956831957596e-01   
4.001000000000000e+09    5.503703884784465e-01    -8.369929026115694e-01   1.336508811472473e-04    -7.436396200465423e-05   1.510880333922729e-05    1.330489712324697e-06    5.406796334850286e-01    -8.156984557536823e-01   
4.002000000000000e+09    5.494029722792583e-01    -8.374844713284775e-01   9.935132311306876e-05    5.483494975827769e-05    -7.082284075586836e-05   2.586216866155587e-05    5.386016317526207e-01    -8.167436361228791e-01   
4.003000000000000e+09    5.478647519114956e-01    -8.384958970552792e-01   -2.073573947325331e-04   -2.317710981943621e-06   9.618264044855523e-05    1.844938939898274e-05    5.362827672204503e-01    -8.181442834503816e-01   
4.004000000000000e+09    5.473326399447601e-01    -8.393324296742385e-01   -1.215805536836941e-04   -5.803977229914287e-05   -1.476770261590869e-04   -1.448176269311172e-04   5.347316143864403e-01    -8.191130475838549e-01   
4.005000000000000e+09    5.460654182409209e-01    -8.401889456931683e-01   -6.878460819647827e-05   -1.056209021952481e-04   -5.389961586920331e-05   1.120198018821590e-05    5.325959767758026e-01    -8.202195415216459e-01   
4.006000000000000e+09    5.450055434921172e-01    -8.412109355851677e-01   -8.756097753483790e-05   2.772744733562381e-05    3.037348330075741e-06    -7.811173708612934e-05   5.303953561625342e-01    -8.212304319553391e-01   
4.007000000000000e+09    5.435562009328400e-01    -8.420174507348447e-01   -3.533869287535697e-05   5.180296234715257e-05    1.230198866828228e-04    -1.220438797270949e-04   5.289080057177589e-01    -8.226804260460823e-01   
4.008000000000000e+09    5.424459903543487e-01    -8.428262337344935e-01   1.485695767134440e-05    7.003310084416733e-05    -7.714909818187874e-05   -2.055229979307734e-05   5.268241314118411e-01    -8.241431516158974e-01   
4.009000000000000e+09    5.412130447856934e-01    -8.432553720815867e-01   -5.357448420469196e-05   -6.033378847484733e-05   -1.280573829797236e-04   -5.399277204201628e-05   5.250505818869361e-01    -8.250791838343170e-01   
4.010000000000000e+09    5.401260391836435e-01    -8.440688768362449e-01   1.129182985842617e-04    -5.889547696811318e-05   -8.253907219277226e-05   1.714761316269957e-05    5.229452784043254e-01    -8.266478818424530e-01   
4.011000000000000e+09    5.389440813726638e-01    -8.450963435943369e-01   -5.056065585351647e-05   -6.815896639459534e-05   1.524438216878425e-04    1.198717031925594e-04    5.215290012405741e-01    -8.277383902011851e-01   
4.012000000000000e+09    5.380073667664600e-01    -8.456327456054370e-01   1.083842805298412e-05    9.031637172869585e-05    -3.082402128469267e-05   -3.246208918091018e-05   5.196537915702397e-01    -8.291360509965592e-01   
4.013000000000000e+09    5.364267301894095e-01    -8.465744268295371e-01   -1.514223288430258e-04   1.724398992728556e-05    5.905256920417211e-05    3.408072799063388e-05    5.181340630404755e-01    -8.307070951111838e-01   
4.014000000000000e+09    5.353083166251008e-01    -8.470779117321460e-01   -4.639060237997874e-05   -4.919896737983891e-05   9.438389710164446e-05    -1.836687962647631e-04   5.164906488255478e-01    -8.320071129785012e-01   
4.015000000000000e+09    5.339931171788447e-01    -8.475272429312571e-01   2.834272898741847e-04    -2.423997645944519e-04   -2.282492460328497e-04   1.063837708071121e-04    5.148507072578968e-01    -8.335028335900956e-01   
4.016000000000000e+09    5.330355910631361e-01    -8.488001626896758e-01   2.119644475886598e-04    6.927530027680283e-05    7.080604950646997e-05    -8.128817168067163e-05   5.131622482305196e-01    -8.347754528875874e-01   
4.017000000000000e+09    5.320228129869321e-01    -8.487370992584146e-01   8.744726698797493e-05    -8.484375802152664e-05   -1.439492760105675e-04   7.104360341194952e-05    5.117234162026458e-01    -8.359790043111797e-01   
4.018000000000000e+09    5.309061118577897e-01    -8.493779448465946e-01   -1.019709503376117e-04   -1.952453488182720e-05   4.474039229548510e-05    -2.991190133532853e-04   5.105435596065776e-01    -8.377559123329430e-01   
4.019000000000000e+09    5.296776602833417e-01    -8.501207268362656e-01   -1.771838423990020e-04   -5.292994342039011e-05   -5.185073183710296e-06   5.303316181061815e-07    5.087626368272932e-01    -8.389375837331281e-01   
4.020000000000000e+09    5.285964708435692e-01    -8.506403793214019e-01   -1.806563078095502e-04   -1.940780505343891e-04   -2.332788896033051e-04   -6.670805945541622e-05   5.076841121376620e-01    -8.403798503821254e-01   
4.021000000000000e+09    5.276499220143963e-01    -8.508166227490068e-01   2.448809343062316e-04    7.745925203516386e-05    9.240960965407836e-05    1.537728452963717e-04    5.064084335226297e-01    -8.413267623589542e-01   
4.022000000000000e+09    5.260623363309012e-01    -8.515825477166287e-01   -1.699572809532175e-04   -1.139264274214817e-04   -6.979500925858949e-05   5.657141026619710e-05    5.052495185934732e-01    -8.428119422123450e-01   
4.023000000000000e+09    5.253562423078172e-01    -8.520584868211835e-01   1.333126794348029e-04    1.169123391114467e-05    9.989402664436906e-05    -6.387066225360048e-05   5.041150900789960e-01    -8.439611213979754e-01   
4.024000000000000e+09    5.240663432027080e-01    -8.527716356575890e-01   -4.295083438655694e-05   1.496583936088080e-04    -7.517994425308388e-05   2.878313319322886e-05    5.032806668030596e-01    -8.451732991458850e-01   
4.025000000000000e+09    5.225537632960472e-01    -8.530438259806492e-01   1.300916558275289e-04    -1.440005135799488e-04   -2.724922360302634e-05   9.600498278526944e-06    5.019067393370458e-01    -8.461338989808910e-01   
4.026000000000000e+09    5.217760145765460e-01    -8.531966147277605e-01   1.951788329716088e-04    -1.674886474171725e-05   -4.560540319402378e-05   9.079750264181812e-05    5.008815314675273e-01    -8.475346652110514e-01   
4.027000000000000e+09    5.207259891113081e-01    -8.539147898865882e-01   -3.391200557160582e-05   1.747481337700577e-04    1.841708220062139e-05    1.153208123712500e-04    4.998090450807881e-01    -8.484835360365229e-01   
4.028000000000000e+09    5.191105271329386e-01    -8.538274373366598e-01   -6.042697719135694e-05   3.212806859730641e-05    8.140994629932685e-05    1.924880335338518e-04    4.993132757192903e-01    -8.497160626545895e-01   
4.029000000000000e+09    5.183238435374711e-01    -8.547136112706302e-01   -1.314572673825890e-04   -8.211903414974559e-05   9.851126868948846e-05    3.066552699350646e-05    4.980836367798194e-01    -8.506189762483796e-01   
4.030000000000000e+09    5.170789897706862e-01    -8.546248193716628e-01   1.683687979882920e-04    -2.424042597221646e-05   -2.048348099691005e-04   1.340879101505957e-04    4.974780540950989e-01    -8.518832257142245e-01   
4.031000000000000e+09    5.156890490683063e-01    -8.552441933514163e-01   -6.484395995524647e-05   -5.728736653275064e-05   1.695954836615723e-04    1.339916105382199e-04    4.967950335318793e-01    -8.525846637835492e-01   
4.032000000000000e+09    5.148020758937808e-01    -8.554765354088927e-01   5.962781108863392e-05    4.505888924861502e-05    1.442558002912846e-04    2.137465486471331e-05    4.960089114972736e-01    -8.537166289726567e-01   
4.033000000000000e+09    5.134743442534753e-01    -8.560440133744535e-01   -1.319788633290621e-04   -1.174621439791951e-04   1.086913057788033e-04    -8.571051869226530e-05   4.952984406393534e-01    -8.541517642131879e-01   
4.034000000000000e+09    5.120365969284990e-01    -8.564475551759928e-01   -2.267257595247214e-05   5.154599408882269e-05    1.201906618988435e-04    1.798469375728357e-04    4.943497360423789e-01    -8.558710429846407e-01   
4.035000000000000e+09    5.107488112894126e-01    -8.569382316701586e-01   1.472185282240693e-04    1.441472838856717e-04    -3.311112128421562e-06   -1.056775453356009e-04   4.939335593174737e-01    -8.565825234132035e-01   
4.036000000000000e+09    5.095263172694123e-01    -8.572443746422275e-01   9.726099323310332e-07    -4.805709043000369e-05   -1.812225685109675e-04   -1.322640445940738e-04   4.929974039187443e-01    -8.571184610177951e-01   
4.037000000000000e+09    5.080427038999054e-01    -8.576028120809749e-01   -1.173879032300877e-04   -2.689792446225078e-05   -2.703133682641649e-05   -5.880268009273954e-05   4.925179131256338e-01    -8.581303424768346e-01   
4.038000000000000e+09    5.069394631852180e-01    -8.580470673583305e-01   7.423569973995799e-05    9.835814700130586e-05    1.131112640201375e-04    1.199179306340582e-04    4.919577892528225e-01    -8.591748425311838e-01   
4.039000000000000e+09    5.057366837327254e-01    -8.584558591212044e-01   3.271756956785492e-05    2.432357677255780e-05    -2.468155505420689e-04   1.084383321339452e-04    4.915061122285749e-01    -8.599445419698200e-01   
4.040000000000000e+09    5.044870500123868e-01    -8.587973914862829e-01   -5.348740088560050e-06   1.418745277612255e-04    5.640912500057771e-05    1.286297861602825e-05    4.907628337818002e-01    -8.605243905890965e-01   
4.041000000000000e+09    5.033010156783171e-01    -8.594612468256776e-01   2.167818723440130e-04    1.937810959206904e-04    -6.484073399264288e-05   -8.058692973969062e-05   4.901245905831435e-01    -8.615280829653236e-01   
4.042000000000000e+09    5.019995755264341e-01    -8.599751317933002e-01   -2.970721199736261e-04   9.666216686766684e-05    -6.006501207721262e-05   -3.896178679419178e-05   4.898817855884636e-01    -8.621899876343508e-01   
4.043000000000000e+09    5.008067744959983e-01    -8.604110547563429e-01   2.800242114301193e-04    -6.905792326592958e-05   5.876425267940708e-05    -1.712343255888910e-04   4.894716132041982e-01    -8.630790498665346e-01   
4.044000000000000e+09    4.995682023850527e-01    -8.612161331265769e-01   -8.308043409592277e-06   1.708018471892559e-04    -5.455197459779202e-05   7.781111951378842e-05    4.888996112785375e-01    -8.636961569152694e-01   
4.045000000000000e+09    4.983616477881901e-01    -8.616835055965876e-01   2.589218177142554e-04    8.940251843716353e-05    -2.759175510930464e-05   5.506735570962958e-05    4.883756996886128e-01    -8.645933514614592e-01   
4.046000000000000e+09    4.970227011073485e-01    -8.623093909418904e-01   -3.606727174542243e-05   -6.319548716140145e-05   -6.453533627991479e-06   2.288348634515502e-05    4.880979812288732e-01    -8.650447000791498e-01   
4.047000000000000e+09    4.958921780566825e-01    -8.629535063298825e-01   -8.944657790907804e-05   -1.331824495244139e-04   -2.789011664795046e-05   4.074585138604622e-05    4.874747915728698e-01    -8.655303437206640e-01   
4.048000000000000e+09    4.948702276729925e-01    -8.635877692061278e-01   -7.276394099404975e-05   1.341799269199965e-04    1.482021227486605e-04    7.343586348033120e-05    4.873251947698566e-01    -8.664199857038998e-01   
4.049000000000000e+09    4.935193729219891e-01    -8.645307626223487e-01   4.870591373942833e-06    -1.139881027235364e-04   -5.306539548858465e-05   -1.674727527149991e-05   4.872152353391719e-01    -8.669485162659430e-01   
4.050000000000000e+09    4.927597635653489e-01    -8.651134610833010e-01   1.030290957456145e-04    1.867439184824284e-05    2.721774584459181e-05    -7.438989399380068e-05   4.870423710514551e-01    -8.677731352180398e-01   
4.051000000000000e+09    4.916066485722755e-01    -8.659043997385849e-01   -1.217034346651986e-04   5.480880699933058e-05    -3.773317625038142e-05   -1.295035805463016e-04   4.864317899200858e-01    -8.683245940490291e-01   
4.052000000000000e+09    4.907064033380685e-01    -8.666551019307058e-01   6.344178135881613e-05    -1.202373265419650e-04   8.469408324990220e-05    1.576846774929986e-04    4.860223693229067e-01    -8.687779232794715e-01   
4.053000000000000e+09    4.893110753532320e-01    -8.674905510929273e-01   -9.457975320755075e-05   -4.578158093577189e-05   1.755153755023056e-05    -5.041092778392339e-05   4.861127445468118e-01    -8.691956661687644e-01   
4.054000000000000e+09    4.885972651256288e-01    -8.678277076111335e-01   -1.103610487011165e-04   1.319183951155731e-04    -2.432065755478760e-05   8.000948181861026e-05    4.861933808827103e-01    -8.696470712999287e-01   
4.055000000000000e+09    4.876556606649073e-01    -8.689640301813127e-01   9.378948502754250e-05    -3.490343719854543e-05   6.682073916418883e-05    9.636782203227415e-05    4.856749860441837e-01    -8.702018629600110e-01   
4.056000000000000e+09    4.866553566682339e-01    -8.695952577059054e-01   -9.309738798627818e-05   2.444426905302800e-05    -5.590315383362265e-06   1.928204202253178e-05    4.854125271858623e-01    -8.706003211715680e-01   
4.057000000000000e+09    4.856855072864752e-01    -8.701080629371896e-01   6.155617617805253e-05    6.242758022554272e-05    1.121282182473164e-04    -7.343538063782718e-06   4.853941399108602e-01    -8.706735909361586e-01   
4.058000000000000e+09    4.847465852314520e-01    -8.709271719593181e-01   -1.193902568029055e-04   -6.311772493080872e-06   2.354010443331059e-05    -9.515391883115984e-05   4.855332899550249e-01    -8.708460951286369e-01   
4.059000000000000e+09    4.837567375639705e-01    -8.721657214214679e-01   1.116600292179108e-04    -1.195125968465504e-05   3.378880166954981e-05    -3.113607748888339e-05   4.848460381572745e-01    -8.711570144162197e-01   
4.060000000000000e+09    4.830497401504921e-01    -8.726418736009055e-01   9.241862141768744e-05    -2.009197170386329e-05   -6.475813135839476e-05   1.731186731238734e-04    4.851686042621172e-01    -8.709849821543112e-01   
4.061000000000000e+09    4.821493290953954e-01    -8.733638459683826e-01   -1.423397922706502e-04   -7.287625268242015e-05   1.948239229270942e-04    -4.842435096456410e-05   4.847567831301771e-01    -8.712957157656135e-01   
4.062000000000000e+09    4.816367191161041e-01    -8.739559693345059e-01   -6.639048750289346e-05   -3.651736715628452e-05   1.597909834445822e-04    5.600201222453022e-05    4.845791315244143e-01    -8.712134180911768e-01   
4.063000000000000e+09    4.806017746038050e-01    -8.750207921948587e-01   -1.055103025805908e-04   -9.122952153667641e-05   5.262913629626485e-05    3.889094964491968e-05    4.842083840430136e-01    -8.709063423840164e-01   
4.064000000000000e+09    4.795549013228899e-01    -8.753910102092248e-01   2.600193753299511e-05    -1.063639594018429e-05   1.447470225929686e-04    1.176473698278690e-04    4.840957050527216e-01    -8.707259200034231e-01   
4.065000000000000e+09    4.791261147146278e-01    -8.764131475943878e-01   1.057389930736482e-04    -1.869083814200072e-05   -2.695842718696703e-05   -6.282530745167759e-06   4.835362438231032e-01    -8.707083249390165e-01   
4.066000000000000e+09    4.782779277425063e-01    -8.774431966919535e-01   1.422311372970088e-05    4.228745336033836e-05    8.937050921736341e-05    -1.441235041898133e-05   4.832413030927701e-01    -8.704956206202930e-01   
4.067000000000000e+09    4.772507681442762e-01    -8.781618852186972e-01   1.189822082232380e-04    2.887186085430952e-04    -2.316687278103216e-04   -8.934159584192076e-06   4.826573922657428e-01    -8.701946761328242e-01   
4.068000000000000e+09    4.766373815906237e-01    -8.786669753169729e-01   -6.286795547832942e-05   -1.053128112979926e-04   -2.789345603824864e-05   -1.013168675256011e-04   4.820355622171304e-01    -8.700302705019001e-01   
4.069000000000000e+09    4.761588157399645e-01    -8.796040710324383e-01   4.949661167869971e-06    6.606978090657295e-05    1.344300989992748e-04    -6.300950802073474e-05   4.814745747012493e-01    -8.697461829874656e-01   
4.070000000000000e+09    4.753867184174981e-01    -8.803092116404728e-01   1.209665399349113e-04    2.174659184006097e-04    1.041189308164659e-04    1.523579767364444e-05    4.806771257582780e-01    -8.695204514130028e-01   
4.071000000000000e+09    4.744458876005747e-01    -8.808114903888361e-01   -1.672458017389442e-05   -1.421308416298435e-04   -6.531814213814507e-05   6.544968505197720e-05    4.799313979479516e-01    -8.689604169710849e-01   
4.072000000000000e+09    4.739089906965073e-01    -8.814615077809812e-01   4.473916311192295e-07    5.986220777187806e-05    -1.263430427170042e-05   -2.418176291441961e-04   4.786529965945082e-01    -8.688410148197465e-01   
4.073000000000000e+09    4.729121830239597e-01    -8.822004640793631e-01   -3.565220373749147e-05   6.547707284116589e-06    -4.140394595548117e-05   6.339951209191186e-05    4.777662101366454e-01    -8.684978663485264e-01   
4.074000000000000e+09    4.721028525391672e-01    -8.829824930565811e-01   1.092513313919919e-05    -8.662491237107165e-05   -5.971019199762906e-06   1.836853752781848e-04    4.765899540086153e-01    -8.680468048334793e-01   
4.075000000000000e+09    4.715982113180008e-01    -8.839116040916283e-01   1.507106175198887e-04    4.708726594660275e-06    1.022222887664889e-04    9.067470589031578e-05    4.757749804518486e-01    -8.677593153653301e-01   
4.076000000000000e+09    4.708337362436287e-01    -8.843284821693772e-01   5.926398377523679e-05    4.590561711852063e-05    3.099884202858509e-05    2.978252689134988e-05    4.743600896581189e-01    -8.675574258177390e-01   
4.077000000000000e+09    4.698857463180571e-01    -8.851494066134669e-01   -1.842707778765310e-05   6.458274163581305e-05    -1.212031893975065e-05   1.156065259547497e-05    4.731354750012329e-01    -8.677543105630247e-01   
4.078000000000000e+09    4.690621046094727e-01    -8.860649787511156e-01   -6.944118373657468e-05   3.879513998658047e-06    4.768358337951169e-05    -1.362246466172442e-04   4.716706694887771e-01    -8.670160699078806e-01   
4.079000000000000e+09    4.686778560354639e-01    -8.868738784355439e-01   -2.983965559703200e-05   -6.216868672592580e-05   2.263102430982821e-04    1.860191593962055e-04    4.702979285254470e-01    -8.669553900144145e-01   
4.080000000000000e+09    4.679906974296452e-01    -8.873880732752019e-01   -1.696536313718159e-04   -1.217007257567021e-04   -1.946919331152773e-05   1.149977775661209e-04    4.688002596085900e-01    -8.672728284108983e-01   
4.081000000000000e+09    4.670424161362903e-01    -8.881030334295967e-01   -1.180616165337379e-05   1.608537182707239e-04    3.034375423270938e-05    6.255489714784402e-05    4.669931699585572e-01    -8.670924707009893e-01   
4.082000000000000e+09    4.662320461152233e-01    -8.884236017232068e-01   -3.755783537433215e-05   -4.987716748579552e-05   -1.611199441733518e-05   1.076310367787485e-04    4.654602986543192e-01    -8.668340654720207e-01   
4.083000000000000e+09    4.654228834662692e-01    -8.896127619846563e-01   -8.064740040681692e-05   1.678948609118030e-05    9.976674020230645e-05    1.152132180345418e-05    4.635365918590946e-01    -8.672642402023639e-01   
4.084000000000000e+09    4.646285341204037e-01    -8.902750790993723e-01   2.748657424186885e-05    1.059439647508432e-05    -4.364528725425033e-05   -5.356646808147958e-05   4.618199075300258e-01    -8.674932492526495e-01   
