[Version] 2.0
! Rohde & Schwarz Vector Network Analyzer
! Rohde-Schwarz,ZNL20-2Port,1323001220200009,1.71.1.10-23.02.1.238
! 
! Port Assignments:
! Nominal Port -> Actual Test Port
! --------------------------------
!   1 -> 1
!   2 -> 2

! Created: GMT+2 2025-01-16 20:22:07

# Hz S RI R 50

[Number of Ports] 2
[Two-Port Data Order] 21_12
[Number of Frequencies] 16001

[Network Data] 
! freq[Hz]               S11[Re]                  S11[Im]                  S21[Re]                  S21[Im]                  S12[Re]                  S12[Im]                  S22[Re]                  S22[Im]                  
4.000000000000000e+09    5.515120824070551e-01    -8.357088627634750e-01   3.517907973795128e-05    5.583580591509267e-05    7.776862603257169e-05    6.914755128638263e-05    5.426481311206759e-01    -8.147981930652831e-01   
4.001000000000000e+09    5.505312642690675e-01    -8.365418544674781e-01   -1.314586024165157e-04   -1.349161774630027e-05   -9.508935703190847e-05   7.326835802965188e-05    5.407835653728290e-01    -8.157020241037989e-01   
4.002000000000000e+09    5.495636875408706e-01    -8.373811409289221e-01   -1.313765890227451e-04   1.032205670596387e-04    3.481093702529990e-05    -9.010094565390025e-05   5.383606126406608e-01    -8.166891362659479e-01   
4.003000000000000e+09    5.481472178026580e-01    -8.384724459633571e-01   -1.876221716051194e-04   -2.333141295028857e-04   1.264233094310768e-04    4.683382715408668e-05    5.363222606218085e-01    -8.177377306699223e-01   
4.004000000000000e+09    5.473073187401205e-01    -8.391208480601101e-01   -1.700185793455973e-04   -3.675583877750208e-06   5.743572092879776e-05    5.522667048802214e-06    5.342969126212542e-01    -8.190638723814877e-01   
4.005000000000000e+09    5.459367371938616e-01    -8.404250110038533e-01   1.051369243971646e-04    1.612046928635523e-04    -7.501573357956799e-05   -4.444695671815103e-05   5.323690808835182e-01    -8.201152030731199e-01   
4.006000000000000e+09    5.445576863653708e-01    -8.410301981816949e-01   7.320008971244601e-06    1.101326324199533e-04    -4.154136997990644e-05   5.339537621468754e-05    5.303507842505657e-01    -8.215221867625780e-01   
4.007000000000000e+09    5.436117827777384e-01    -8.417589326871372e-01   -1.245698418774371e-04   -6.105536026959455e-06   8.966289139553595e-05    -6.509681983595643e-05   5.285853895215923e-01    -8.226467341203914e-01   
4.008000000000000e+09    5.423451603000079e-01    -8.424519095841311e-01   -6.663329066712613e-05   2.068760374681084e-05    -9.931200659477475e-05   1.418466723656614e-04    5.267100670331148e-01    -8.237880073623850e-01   
4.009000000000000e+09    5.409395785997290e-01    -8.430621485928863e-01   -2.229790647020433e-05   5.233782707430577e-05    1.739140351759106e-04    2.246013957768080e-05    5.250591079167098e-01    -8.251577542822931e-01   
4.010000000000000e+09    5.397394769739624e-01    -8.444147029479301e-01   -3.821394874276350e-05   -1.653026465215276e-04   3.730785087195034e-05    -1.012494846942811e-04   5.229453975824607e-01    -8.265348364782930e-01   
4.011000000000000e+09    5.390971763283685e-01    -8.453012276901367e-01   -1.010149082101449e-04   1.432634940268635e-04    1.305508158204341e-05    1.247888776728549e-04    5.211451939351873e-01    -8.279091603747747e-01   
4.012000000000000e+09    5.374714202087104e-01    -8.457186370813994e-01   2.096480450504148e-05    -9.428190646093034e-06   1.782160130783947e-04    -1.043816341104192e-04   5.192348786788334e-01    -8.293023569853494e-01   
4.013000000000000e+09    5.368145813391862e-01    -8.465097513580198e-01   -4.716694717482052e-05   7.913232155686909e-05    -1.609387889437652e-05   -4.293763908391759e-05   5.182035230465144e-01    -8.306006784169911e-01   
4.014000000000000e+09    5.354132679673750e-01    -8.467682869485047e-01   3.425385955556163e-05    -1.416378951234980e-04   1.725970852741648e-04    1.855083895939705e-04    5.161681449504421e-01    -8.318181509383513e-01   
4.015000000000000e+09    5.340226166014230e-01    -8.478300861560067e-01   2.231971383498185e-04    2.230411548459154e-04    -1.548622455709299e-05   -1.200935274733656e-04   5.146857239726174e-01    -8.333868017759607e-01   
4.016000000000000e+09    5.331801974758111e-01    -8.483464964296974e-01   1.214846648167483e-04    -2.004231340997882e-04   1.474653984595433e-04    8.060287625439963e-06    5.132671128463909e-01    -8.347561253435587e-01   
4.017000000000000e+09    5.320715046442706e-01    -8.489018901817145e-01   3.999718336493092e-05    -8.792186220453327e-05   -7.270132226562102e-05   -1.204551902366890e-04   5.116898274771540e-01    -8.360384196079668e-01   
4.018000000000000e+09    5.309547634933420e-01    -8.495346337077734e-01   4.332096551417927e-05    7.047258386941779e-05    1.245625152513907e-04    -5.692577184785471e-05   5.104428599674433e-01    -8.375833196691046e-01   
4.019000000000000e+09    5.298797755726714e-01    -8.501468273552829e-01   -1.027609493021052e-04   -1.795766795544047e-04   3.482198579397272e-05    1.786468903581143e-05    5.088771277063883e-01    -8.390516427849498e-01   
4.020000000000000e+09    5.285521686717990e-01    -8.504140349826240e-01   3.173383034466442e-05    -2.111156627580230e-04   -3.386280339234023e-05   1.347737065572268e-04    5.076412202007334e-01    -8.402675319198362e-01   
4.021000000000000e+09    5.273339939980171e-01    -8.508871051801200e-01   6.384820933342810e-05    -1.414763360984935e-04   1.622385828796327e-04    1.490822338757479e-04    5.063425481935004e-01    -8.413195818418613e-01   
4.022000000000000e+09    5.261383204506259e-01    -8.515477236275867e-01   -1.822627151731746e-04   6.630670390643394e-05    -2.484888150930584e-04   -1.717888837234496e-04   5.054393020089425e-01    -8.428430306627873e-01   
4.023000000000000e+09    5.251035603199090e-01    -8.520813034594882e-01   9.071109799877685e-05    -2.586072239097889e-05   8.212729158546795e-05    5.470738987294151e-05    5.041581112166287e-01    -8.439133361604974e-01   
4.024000000000000e+09    5.239800779233356e-01    -8.525824997280098e-01   -7.796076692644110e-06   -1.649143808946021e-04   1.508215034768961e-04    -1.406963042589326e-05   5.030009531949876e-01    -8.451533175395238e-01   
4.025000000000000e+09    5.229667237018611e-01    -8.530230120459047e-01   -2.749913717474539e-05   8.399408260349644e-05    -1.179401741152148e-05   8.283989314487945e-05    5.017519042428723e-01    -8.463701871272714e-01   
4.026000000000000e+09    5.215868235576817e-01    -8.534345619262229e-01   8.652996727880942e-05    9.450639634629833e-05    -5.553997970229501e-05   2.117349500648461e-05    5.009321177046002e-01    -8.477164503455621e-01   
4.027000000000000e+09    5.205256143304460e-01    -8.534368958472300e-01   5.879254389931635e-05    -4.341529029659462e-06   -5.165448127866652e-05   -2.485374271671402e-05   5.003366743181930e-01    -8.483916927061197e-01   
4.028000000000000e+09    5.193748198222092e-01    -8.540341752128128e-01   2.768232170301835e-04    3.090865232544155e-06    1.833494953951699e-04    1.649830593700752e-04    4.990347831391320e-01    -8.497047413958667e-01   
4.029000000000000e+09    5.181642137716912e-01    -8.546012076436101e-01   2.066194359328117e-04    1.190624724798696e-04    1.326269250121985e-04    5.456987851392330e-05    4.983127960706610e-01    -8.505026639895983e-01   
4.030000000000000e+09    5.170173588623492e-01    -8.548100151480624e-01   9.525213671441078e-05    7.666773498760915e-05    1.089629488134750e-04    -9.777611360055487e-06   4.975819236307588e-01    -8.521099593358374e-01   
4.031000000000000e+09    5.159610707868979e-01    -8.551450019646387e-01   6.763269496466538e-05    6.258884227722432e-05    -2.475394605129939e-05   -1.502437525311870e-04   4.968941224368331e-01    -8.527656568390175e-01   
4.032000000000000e+09    5.143997223235768e-01    -8.554932840107028e-01   -2.037388164163642e-04   -3.060476279208625e-05   1.548195158048553e-04    -6.448900232494212e-06   4.957223481221124e-01    -8.538326562419980e-01   
4.033000000000000e+09    5.133344947845880e-01    -8.561055666681064e-01   3.337016964674807e-06    -3.442840623364768e-05   -3.566351652030045e-05   -6.532454165913894e-05   4.950983925955414e-01    -8.545991359568186e-01   
4.034000000000000e+09    5.119979418583736e-01    -8.563302164865616e-01   -4.729882901245903e-06   1.005691182790798e-05    -9.497300843243596e-06   1.303306924805271e-04    4.944740329263401e-01    -8.555786672138236e-01   
4.035000000000000e+09    5.108038798108834e-01    -8.567037097874411e-01   5.417936756868446e-05    2.968347367753198e-05    -1.156503656530767e-04   -9.537376173594991e-05   4.940367233060288e-01    -8.564746573518306e-01   
4.036000000000000e+09    5.097498817865423e-01    -8.572439772254750e-01   -3.041401186978375e-05   -1.470399940922576e-05   -1.347293618835398e-04   4.417177032529435e-05    4.932011437876352e-01    -8.574244095503707e-01   
4.037000000000000e+09    5.081889684573735e-01    -8.574976682851561e-01   1.812746483721571e-05    7.136361149631664e-05    7.175778042902832e-05    2.989375009706339e-05    4.926539703497180e-01    -8.583118542629168e-01   
4.038000000000000e+09    5.070343545146706e-01    -8.582485246130475e-01   -1.041866746951828e-04   -7.000242435773032e-05   -9.732794474356524e-05   -4.065905719661440e-06   4.920629758200595e-01    -8.588943130831914e-01   
4.039000000000000e+09    5.058617959877693e-01    -8.582992520389191e-01   -9.563586625195973e-05   -1.056854242688886e-04   7.450914916640231e-05    -3.207800783468579e-06   4.911392773077529e-01    -8.599859739983435e-01   
4.040000000000000e+09    5.045753110806588e-01    -8.589535963013636e-01   -6.011486965666123e-05   1.287081451922544e-04    -2.635417336122748e-05   3.143192875366280e-05    4.905917892364949e-01    -8.608916590931170e-01   
4.041000000000000e+09    5.033053840058582e-01    -8.595420613543190e-01   6.954805141538210e-05    -1.424053564033312e-05   8.148900069269240e-05    1.037031367587451e-04    4.901736490652468e-01    -8.616090597814245e-01   
4.042000000000000e+09    5.020541988983581e-01    -8.602055320908426e-01   -8.398409869217204e-05   -2.086449779600970e-05   1.299650666842579e-04    1.830889707589741e-05    4.897565595806491e-01    -8.623836321150702e-01   
4.043000000000000e+09    5.006528555414486e-01    -8.603404609602606e-01   9.761787338761722e-05    1.921698013145129e-05    -4.991384517969938e-05   -1.361064204067950e-04   4.893132091392922e-01    -8.628817433718785e-01   
4.044000000000000e+09    4.995308349264500e-01    -8.612754846431206e-01   3.205392924988746e-05    -2.086670323609713e-05   1.325400402338199e-04    1.082565413764540e-04    4.888301943416241e-01    -8.637767891055370e-01   
4.045000000000000e+09    4.983717072993134e-01    -8.615890547949732e-01   6.706404010435582e-05    1.142569764921886e-04    -1.431066874643331e-04   6.423134716887220e-05    4.885489007545302e-01    -8.643730779855031e-01   
4.046000000000000e+09    4.972279191334372e-01    -8.624162962787109e-01   4.926576419638296e-05    9.744803813143966e-06    -2.695357248631360e-05   1.227102295820877e-05    4.877526358626181e-01    -8.650899906398399e-01   
4.047000000000000e+09    4.957685461249982e-01    -8.629336792722161e-01   -1.164377759488686e-04   1.353265967410379e-04    9.337380545129030e-05    -1.844201179066039e-05   4.876069335817330e-01    -8.656483754031983e-01   
4.048000000000000e+09    4.949329826206145e-01    -8.636881668472360e-01   -1.576505712001858e-04   -4.872307577551026e-07   -2.997826059006672e-05   -2.208793976024946e-05   4.872535955043117e-01    -8.666685609677166e-01   
4.049000000000000e+09    4.937534083661480e-01    -8.643791015094970e-01   -8.107277494685140e-05   -1.444661026851694e-04   -1.576033717024260e-04   1.768983895130896e-04    4.870456699345712e-01    -8.671094865123751e-01   
4.050000000000000e+09    4.925063573997994e-01    -8.651062881158981e-01   -5.471116526380034e-05   1.507620227457910e-04    1.127033258357845e-04    -7.085105043583768e-05   4.868726688952191e-01    -8.674410282431751e-01   
4.051000000000000e+09    4.917632756646184e-01    -8.658903486398234e-01   2.886827191110669e-05    3.580045503577266e-05    3.106689898517789e-05    8.992320879984768e-05    4.865135461040056e-01    -8.681954355811112e-01   
4.052000000000000e+09    4.906165753286582e-01    -8.667017339133166e-01   9.630506717856025e-05    -1.235542917655977e-04   -6.760765357820018e-05   -8.690556851602103e-06   4.863342155872653e-01    -8.686197447275493e-01   
4.053000000000000e+09    4.894554152087005e-01    -8.674536508548124e-01   1.382899932172736e-04    5.361223656473011e-05    -1.116094793036239e-04   2.453503494876144e-04    4.860107187562949e-01    -8.692729504589856e-01   
4.054000000000000e+09    4.886331527937616e-01    -8.680412748984178e-01   -1.812299517725293e-05   -2.035702769064200e-06   -2.092669555546923e-05   1.095040767278495e-05    4.860580217155795e-01    -8.699061027912267e-01   
4.055000000000000e+09    4.877826863836185e-01    -8.685248527402893e-01   -8.243629030943834e-05   -5.808555627043562e-05   1.576208154754413e-04    9.166514823928028e-05    4.858768389361031e-01    -8.703071703643060e-01   
4.056000000000000e+09    4.865954330499089e-01    -8.694846827103686e-01   2.773702951215265e-06    5.322688777798036e-05    7.392816638327412e-05    8.032964408514352e-05    4.857532089503526e-01    -8.703183331821491e-01   
4.057000000000000e+09    4.857128346551253e-01    -8.700725483694326e-01   1.387261734252260e-04    -7.019381477915685e-05   -1.592751731220877e-04   1.049776523297049e-04    4.857849479441589e-01    -8.707429886478663e-01   
4.058000000000000e+09    4.845503244611379e-01    -8.709729115124919e-01   -1.055096872911518e-04   1.993007191513055e-05    1.617869310630007e-06    4.410605037867680e-05    4.855583205810213e-01    -8.707955709316539e-01   
4.059000000000000e+09    4.839006074039230e-01    -8.718374152003266e-01   -5.726641557896297e-05   -8.436802717742427e-05   1.096421414908540e-05    -9.948328532939555e-05   4.852292570698147e-01    -8.708845569120870e-01   
4.060000000000000e+09    4.826640333372210e-01    -8.724470068401334e-01   2.135303839074632e-05    -4.796916095703990e-05   -4.515680217280190e-05   -3.682154003079553e-06   4.850692542181184e-01    -8.711570977072461e-01   
4.061000000000000e+09    4.819841006360481e-01    -8.734259680891379e-01   -6.118432458652857e-05   -1.870627351030258e-05   -4.704474551894969e-06   -1.085839571156624e-04   4.846541896067771e-01    -8.712737781487070e-01   
4.062000000000000e+09    4.813809839504884e-01    -8.742008765584713e-01   1.678945834880146e-05    1.441898769292009e-04    6.123737222319700e-05    -1.384875589903417e-04   4.844054063539901e-01    -8.710708842487953e-01   
4.063000000000000e+09    4.804923613348139e-01    -8.751691837625345e-01   1.304080850613585e-04    1.680233680741285e-04    -6.284258476335820e-05   1.234518276026316e-04    4.840212804722309e-01    -8.713126274292762e-01   
4.064000000000000e+09    4.798235764831568e-01    -8.753036820422817e-01   -7.203591753493831e-05   -2.712682460395358e-06   -2.580162400947849e-05   -5.770775498668209e-05   4.840532691815269e-01    -8.709873562433886e-01   
4.065000000000000e+09    4.789503248999217e-01    -8.764457116606087e-01   1.883484963556054e-04    2.080606654606415e-04    2.919873174357578e-05    4.013560732379800e-05    4.834816895166571e-01    -8.707041866327696e-01   
4.066000000000000e+09    4.781548080363049e-01    -8.770779889773156e-01   -7.824815234018283e-05   -7.511201677528955e-06   -7.910545137494352e-05   -3.723863752799883e-05   4.831831761495921e-01    -8.706382645750538e-01   
4.067000000000000e+09    4.771188786309910e-01    -8.779290692106844e-01   -1.198580170452442e-05   9.608957715905737e-05    6.430271725936873e-05    -1.198054207212695e-04   4.825915911971022e-01    -8.701805888590907e-01   
4.068000000000000e+09    4.766683597640894e-01    -8.784369251874194e-01   2.728737480365120e-05    1.161043195206351e-05    -8.850503564574984e-05   -1.177817387946726e-04   4.818961375749475e-01    -8.697311173988446e-01   
4.069000000000000e+09    4.760874852571197e-01    -8.797117852113430e-01   -8.402663445423802e-05   -4.221539465056969e-05   1.675823584224023e-05    3.562862465191803e-05    4.813648884926741e-01    -8.696873776228182e-01   
4.070000000000000e+09    4.749165618106642e-01    -8.802290735007295e-01   7.155954138325276e-05    -7.411172653407349e-05   6.663150760272273e-05    -7.646668840735050e-05   4.802867462569030e-01    -8.691640891086242e-01   
4.071000000000000e+09    4.747822058063044e-01    -8.809842668767569e-01   9.629493365377022e-05    5.476792710956630e-05    -1.144059253672672e-04   -5.878349701816761e-05   4.800291676021364e-01    -8.689744232537365e-01   
4.072000000000000e+09    4.734953513862475e-01    -8.813874338544878e-01   1.662349083436413e-05    1.460910399261609e-04    -9.998729864979771e-05   -7.002357698430042e-05   4.787642021796323e-01    -8.689390875883565e-01   
4.073000000000000e+09    4.730758647727783e-01    -8.822170608700889e-01   8.006675470942594e-06    1.248920735761451e-05    9.490928454012189e-05    -1.834412979017915e-05   4.779319516762313e-01    -8.685406585114912e-01   
4.074000000000000e+09    4.721982146399797e-01    -8.830636641565351e-01   1.592422555040433e-05    9.196869542041213e-05    1.220911497043794e-04    -2.133472029141243e-04   4.767925499710904e-01    -8.682126974030652e-01   
4.075000000000000e+09    4.715834228949461e-01    -8.839456606647779e-01   -1.941922949545186e-05   1.161926253583314e-04    6.736971842196918e-06    3.777515557103795e-05    4.756039494827264e-01    -8.677291383446136e-01   
4.076000000000000e+09    4.708439685602985e-01    -8.843576688341135e-01   -3.332824089113641e-05   -2.199963699323928e-05   3.622972286904875e-05    -4.550176998710695e-05   4.743977217963284e-01    -8.675509584326297e-01   
4.077000000000000e+09    4.700599370968944e-01    -8.850924494153712e-01   3.857930548634665e-05    -8.154018837541307e-05   5.661718710401225e-05    -4.640956372073140e-05   4.730581112356457e-01    -8.672821168530597e-01   
4.078000000000000e+09    4.692110430462572e-01    -8.858555943955679e-01   -1.396573788302971e-04   4.655329996099615e-05    -4.526052915834184e-05   9.797448357630788e-06    4.715105597814146e-01    -8.669554059868574e-01   
4.079000000000000e+09    4.684396774117149e-01    -8.869628721710514e-01   -4.343188052908413e-05   2.833925753691292e-06    -1.288963345351347e-05   -2.590298645372430e-05   4.701903292709088e-01    -8.669971878377021e-01   
4.080000000000000e+09    4.678283190503599e-01    -8.876288170345406e-01   1.436792943938932e-04    6.983684434354618e-06    -1.288746918103372e-04   2.618979541728896e-05    4.684895692559978e-01    -8.671883995642379e-01   
4.081000000000000e+09    4.670398473806665e-01    -8.878797669080546e-01   7.267420068025356e-05    1.021395951695147e-04    1.141583563845033e-04    5.981438468672279e-05    4.671070589939486e-01    -8.669351956988660e-01   
4.082000000000000e+09    4.668208669656881e-01    -8.885220237869758e-01   1.359399546266125e-04    5.797774362344841e-05    -1.495408962059184e-04   1.728752891884701e-04    4.653061427531416e-01    -8.670161351627244e-01   
4.083000000000000e+09    4.653737413827045e-01    -8.892602986317897e-01   -7.234696752124911e-05   1.451910902800500e-04    -3.551993769279227e-05   -4.499960473089517e-05   4.636277239571073e-01    -8.670603681154794e-01   
4.084000000000000e+09    4.648175955937756e-01    -8.902436859260487e-01   -5.846600518687850e-05   -9.385052285683720e-05   1.430044838442945e-04    2.008448014844436e-04    4.617444457081591e-01    -8.673527419634854e-01   
