[Version] 2.0
! Rohde & Schwarz Vector Network Analyzer
! Rohde-Schwarz,ZNL20-2Port,1323001220200009,1.71.1.10-23.02.1.238
! 
! Port Assignments:
! Nominal Port -> Actual Test Port
! --------------------------------
!   1 -> 1
!   2 -> 2

! Created: GMT+2 2025-01-16 20:22:28

# Hz S RI R 50

[Number of Ports] 2
[Two-Port Data Order] 21_12
[Number of Frequencies] 16001

[Network Data] 
! freq[Hz]               S11[Re]                  S11[Im]                  S21[Re]                  S21[Im]                  S12[Re]                  S12[Im]                  S22[Re]                  S22[Im]                  
4.000000000000000e+09    5.520192241630394e-01    -8.356438773541489e-01   8.630550474578025e-05    1.322254670574640e-05    -1.171176132369572e-04   1.407226362720807e-04    5.427377105617958e-01    -8.145594458711781e-01   
4.001000000000000e+09    5.504356825358608e-01    -8.367356566867344e-01   -4.909496247920885e-05   5.191389119267968e-05    1.447345814379260e-04    2.561207119997717e-04    5.408021253738903e-01    -8.157120353158223e-01   
4.002000000000000e+09    5.494609181369081e-01    -8.375478483875779e-01   3.131189089914652e-05    -9.633584768803204e-05   -8.287715498622923e-05   -2.365249107761204e-05   5.381593922486321e-01    -8.167549135443645e-01   
4.003000000000000e+09    5.481595536946738e-01    -8.383370912827429e-01   -1.263957231657206e-04   5.052752549845051e-05    -2.198989206548891e-05   3.105731845150666e-06    5.365938398061658e-01    -8.178895917645257e-01   
4.004000000000000e+09    5.473136497675573e-01    -8.390775718816541e-01   -1.269559652922264e-05   -4.929170785839219e-05   1.710192857624579e-04    9.575481481754030e-05    5.347686352006562e-01    -8.189556868720853e-01   
4.005000000000000e+09    5.455392215772488e-01    -8.402555735452238e-01   -5.219583290279158e-05   1.866085695679725e-04    2.091008113753871e-05    3.459496179983745e-05    5.326505863910114e-01    -8.198833169813946e-01   
4.006000000000000e+09    5.448441063016375e-01    -8.408408371783560e-01   -1.892295065335375e-04   6.103237448674100e-05    1.243091419698360e-05    -4.297530991306369e-05   5.307211089436578e-01    -8.211468091374492e-01   
4.007000000000000e+09    5.438790233594465e-01    -8.417756241742174e-01   3.196862096554593e-05    1.601372551804428e-04    1.283508295937057e-05    -1.849987869729471e-04   5.289624762548292e-01    -8.226853330349080e-01   
4.008000000000000e+09    5.424588218305241e-01    -8.425224144937770e-01   9.148222550353962e-05    1.557913943742783e-04    4.893464916022646e-05    -5.663357574057804e-06   5.269632389788340e-01    -8.237864101287091e-01   
4.009000000000000e+09    5.412079403019957e-01    -8.434491174596831e-01   1.868396675416200e-04    4.503444469387533e-05    -1.800678616524698e-04   -3.209484008567741e-05   5.253685329066818e-01    -8.250073671806069e-01   
4.010000000000000e+09    5.402097320598789e-01    -8.437804604374390e-01   3.110263612651597e-05    -1.973140540210685e-05   -1.634960914223195e-04   -1.550583350066379e-04   5.227719737335013e-01    -8.265994226572385e-01   
4.011000000000000e+09    5.390416773133052e-01    -8.449937537602147e-01   2.538354151726657e-05    -4.698609768588071e-06   9.839505302328873e-06    3.068680643759988e-05    5.212351451016434e-01    -8.278084330250084e-01   
4.012000000000000e+09    5.374493326345879e-01    -8.458471513789695e-01   8.807957602998778e-05    7.901798307301086e-05    3.112458501588679e-06    -8.060665923373839e-05   5.197179645396715e-01    -8.292823636551016e-01   
4.013000000000000e+09    5.363813336520623e-01    -8.466830834136313e-01   1.530493266542904e-04    -7.523428754096405e-05   -5.655431298230673e-05   -5.890271476503005e-05   5.182443936620628e-01    -8.303895457861011e-01   
4.014000000000000e+09    5.350080312406723e-01    -8.469254276982918e-01   1.476738750748749e-04    -5.545213272048260e-05   -1.921309189488235e-04   -1.019139953588561e-04   5.165711477616539e-01    -8.320900085356067e-01   
4.015000000000000e+09    5.341429183397827e-01    -8.477722742096100e-01   2.369565877099947e-05    -1.278036145277515e-04   2.426246208940919e-05    1.199935188603238e-04    5.147963706658200e-01    -8.331805613042743e-01   
4.016000000000000e+09    5.330644437641335e-01    -8.482874463434729e-01   -4.113847601081818e-05   -9.332613375208597e-05   -2.167284432446107e-05   1.066558989826727e-04    5.133363453942813e-01    -8.348806474106201e-01   
4.017000000000000e+09    5.320264513378193e-01    -8.490097631597638e-01   -1.145500316201781e-04   -1.606701583765782e-05   1.234480670562337e-04    5.122366373792728e-05    5.118966251121092e-01    -8.361686557121458e-01   
4.018000000000000e+09    5.310264572003990e-01    -8.495219745300893e-01   -1.100201969819742e-04   1.159733279308495e-05    2.156854329041289e-05    -5.682401439135455e-05   5.106800158595655e-01    -8.374089251998236e-01   
4.019000000000000e+09    5.297996966063395e-01    -8.497173009927509e-01   -3.509279211233760e-05   1.037086422371551e-04    4.647836464812586e-05    -1.730775484898577e-04   5.088621252102458e-01    -8.388855603474134e-01   
4.020000000000000e+09    5.285530388174757e-01    -8.505776226663675e-01   -4.588560319115489e-05   -1.768562478766627e-04   -1.058678573338884e-04   2.635633439361123e-05    5.075967381710704e-01    -8.402651066781714e-01   
4.021000000000000e+09    5.274408601652287e-01    -8.509283144707342e-01   6.422038137712304e-05    1.384301082461621e-05    6.577258065516817e-05    -8.619644956962880e-06   5.065424105652566e-01    -8.410310324565311e-01   
4.022000000000000e+09    5.258961093191366e-01    -8.517414579824060e-01   1.458720250944607e-04    -1.055326830421876e-04   -7.700200279702842e-05   -4.809468943085017e-05   5.053072674579884e-01    -8.426917007418959e-01   
4.023000000000000e+09    5.250965299305808e-01    -8.522384032620648e-01   1.411013354288996e-05    -9.888137311080461e-05   1.819730828484132e-04    6.406617899305076e-05    5.040470499164084e-01    -8.437209961205989e-01   
4.024000000000000e+09    5.240033062284817e-01    -8.525010339974886e-01   5.365859336431202e-05    2.467741689259686e-05    -1.450059179374951e-04   1.793184485448965e-04    5.031923623301929e-01    -8.451761709799407e-01   
4.025000000000000e+09    5.230284749780608e-01    -8.529555236504125e-01   8.328853105003998e-05    7.938302494447727e-05    9.286410608395733e-05    1.435878996233633e-04    5.020269002538522e-01    -8.465731279149533e-01   
4.026000000000000e+09    5.218382377749550e-01    -8.532617848252199e-01   1.539588326303644e-04    5.171561641892013e-05    -3.045362499074699e-05   -7.455819939487281e-05   5.008267721994882e-01    -8.473920511717535e-01   
4.027000000000000e+09    5.205115762436318e-01    -8.535975273895674e-01   -1.154473215334056e-04   9.919779947588386e-06    -1.753312091462935e-04   8.118045459640573e-05    5.002664252682338e-01    -8.484185780287107e-01   
4.028000000000000e+09    5.193735873811760e-01    -8.537484755829886e-01   4.036071123359071e-05    -5.064904612790511e-05   -3.198075765391855e-05   1.741852188296195e-04    4.989442611064164e-01    -8.498366559039877e-01   
4.029000000000000e+09    5.184317919613013e-01    -8.545550437323113e-01   -1.034963574487617e-04   1.876701960795588e-04    -4.767727491056593e-05   -1.510934986021382e-04   4.983048194456033e-01    -8.505811807807554e-01   
4.030000000000000e+09    5.172776658307590e-01    -8.548141186167599e-01   -2.301518321848709e-05   -1.131045911311963e-04   5.679155694629681e-05    5.639659571783047e-05    4.972640231712437e-01    -8.517061492488364e-01   
4.031000000000000e+09    5.159451368580833e-01    -8.550701150278853e-01   1.775619411904376e-04    1.220460028610776e-04    5.622963513238721e-05    -6.522202289660497e-05   4.968587464976092e-01    -8.525829526052722e-01   
4.032000000000000e+09    5.145956449883384e-01    -8.554221502495738e-01   1.721023453488692e-04    1.132938045128353e-04    4.527500125186550e-06    -1.162623711550944e-04   4.960782398035286e-01    -8.535349798260977e-01   
4.033000000000000e+09    5.133617713985027e-01    -8.558134425639702e-01   5.539244992169222e-05    2.306731437843470e-04    6.446394337543893e-05    -2.147117607858114e-04   4.951878664370591e-01    -8.543352222884524e-01   
4.034000000000000e+09    5.122416030846187e-01    -8.564502774238232e-01   -1.021452865478333e-04   5.276469881727470e-05    -8.978856067347645e-05   4.926323822857972e-05    4.946875846324487e-01    -8.557591968712792e-01   
4.035000000000000e+09    5.108022140914791e-01    -8.566091737078589e-01   5.209444448100819e-05    1.566839003912412e-04    1.003198024484436e-04    -4.699723742339974e-05   4.941552512465571e-01    -8.562010389580267e-01   
4.036000000000000e+09    5.096255948691522e-01    -8.571780410231881e-01   5.083705432814492e-05    9.566750700025129e-05    -8.642449270391311e-05   -3.204271257142196e-05   4.932569871095810e-01    -8.571183471393526e-01   
4.037000000000000e+09    5.081977699977743e-01    -8.576701118957509e-01   -5.255409744055343e-05   1.301619187957147e-05    -4.341240097750768e-05   -6.599339343361487e-05   4.925946246806969e-01    -8.581318144828378e-01   
4.038000000000000e+09    5.073330846349789e-01    -8.581460883777831e-01   -3.439325772993708e-05   -1.321113075571083e-04   -1.468690950093827e-06   1.081818185755877e-04    4.921470165463542e-01    -8.590439450096367e-01   
4.039000000000000e+09    5.060008293210497e-01    -8.581322038878277e-01   -1.053175545021746e-04   -5.097867117406370e-05   -1.747372483935903e-04   4.492688569144236e-05    4.913517212435638e-01    -8.597981264273061e-01   
4.040000000000000e+09    5.046289328529624e-01    -8.589055495791600e-01   3.006807763657099e-05    9.286839735010613e-05    7.385313244641402e-05    1.093280518278918e-05    4.908158564145337e-01    -8.603931993701522e-01   
4.041000000000000e+09    5.033841483628583e-01    -8.592568102553126e-01   -1.409572228731259e-04   1.342579410186538e-04    -7.160358980410588e-05   -9.329151574236763e-05   4.903825821234200e-01    -8.613853750652523e-01   
4.042000000000000e+09    5.020450793294950e-01    -8.600683793367468e-01   2.353888272222955e-05    -7.458499014014783e-06   1.290113528591972e-04    1.593053409103027e-05    4.899759142256273e-01    -8.622452480258809e-01   
4.043000000000000e+09    5.007851192142493e-01    -8.602894215061122e-01   7.641440006182246e-05    8.625021649569807e-05    -6.607924760813203e-05   -7.062572529160056e-05   4.893007423645960e-01    -8.628299759794316e-01   
4.044000000000000e+09    4.995554300123379e-01    -8.610857719707967e-01   -5.195592180237835e-05   1.178991332303782e-04    8.171916295799415e-05    -2.039195739995152e-04   4.888489407131747e-01    -8.637375357138607e-01   
4.045000000000000e+09    4.983611723356071e-01    -8.616719283362987e-01   5.487200427407351e-05    -5.754097097465035e-05   -1.403439189493815e-04   -1.174436161111940e-04   4.885846417380287e-01    -8.644278365073096e-01   
4.046000000000000e+09    4.971502830732056e-01    -8.622537890715412e-01   -5.488809142279912e-05   1.069127476981356e-04    -1.936420176686210e-04   8.066430113829911e-05    4.879907314192998e-01    -8.651016972689042e-01   
4.047000000000000e+09    4.958727606219973e-01    -8.631160828108621e-01   3.459509323554320e-06    1.027698690822295e-05    -6.284264389510696e-05   -6.382183486967369e-05   4.875402007742888e-01    -8.655687250783363e-01   
4.048000000000000e+09    4.949808999490911e-01    -8.636268863248630e-01   5.950704249048888e-05    -6.543915763772607e-05   2.398829712574860e-04    -1.398034821480334e-04   4.873438866776136e-01    -8.664459282491781e-01   
4.049000000000000e+09    4.937305508495175e-01    -8.643081626562691e-01   2.499446026561025e-04    -8.980597435568220e-05   -7.748370976937773e-05   -4.497379998786157e-05   4.872469604136815e-01    -8.672409911741279e-01   
4.050000000000000e+09    4.927741953217924e-01    -8.650750446584645e-01   6.346288107531917e-05    6.059293452680120e-05    8.659690029566259e-05    1.476252040565314e-05    4.869984908320450e-01    -8.677956606411535e-01   
4.051000000000000e+09    4.915609671865821e-01    -8.658631919739395e-01   -4.348265230542764e-05   -1.063382560345235e-04   -5.785819644004479e-05   1.804736815643882e-04    4.864607035214339e-01    -8.680994706152581e-01   
4.052000000000000e+09    4.907304893942602e-01    -8.667325502042905e-01   1.342579850389350e-04    -4.307620573846509e-05   2.243910527014375e-05    -1.321371768030100e-04   4.864827476014294e-01    -8.687035598043238e-01   
4.053000000000000e+09    4.895921741938145e-01    -8.672598971872111e-01   -5.381535061097698e-05   1.525076555923110e-04    -1.450469878027589e-04   2.739633913623857e-05    4.862245129424637e-01    -8.693292307857861e-01   
4.054000000000000e+09    4.885815075205635e-01    -8.677660847693923e-01   5.014748285752865e-06    -3.010238887320525e-05   9.080982184160130e-06    6.535293979330398e-06    4.861509272641031e-01    -8.696919594085785e-01   
4.055000000000000e+09    4.876348853391044e-01    -8.686304611478360e-01   -8.945275640566965e-05   -9.171750393512444e-05   -3.040366660372757e-05   -1.058735014786037e-04   4.857579489376627e-01    -8.703310392446455e-01   
4.056000000000000e+09    4.866101194444181e-01    -8.694133850270069e-01   -1.128752876523435e-04   -3.526698368683541e-05   1.208335247721065e-04    1.648890998892193e-04    4.857247249639958e-01    -8.701220045879988e-01   
4.057000000000000e+09    4.857499630163309e-01    -8.700436902456560e-01   1.676819388088403e-04    1.316839326850107e-04    1.559554881527690e-04    -4.665282187548088e-06   4.855518197805305e-01    -8.705902369111786e-01   
4.058000000000000e+09    4.847874978298755e-01    -8.707631424865715e-01   -1.496589535018865e-04   3.293940190771447e-05    4.813916533168384e-05    2.978326374896667e-05    4.853901078805403e-01    -8.708545367678339e-01   
4.059000000000000e+09    4.839197379678084e-01    -8.718205155532168e-01   -6.665409598590231e-05   -8.862956822296095e-05   5.884537537629798e-05    1.900887648902553e-04    4.853672792211521e-01    -8.712140390094497e-01   
4.060000000000000e+09    4.831859944365526e-01    -8.725747710560359e-01   7.585282746807552e-05    -2.741855170516887e-05   8.991161712254274e-05    1.981829260154527e-04    4.850907344279626e-01    -8.710501271575825e-01   
4.061000000000000e+09    4.821387333857025e-01    -8.734612783607841e-01   -9.138443526214962e-05   -1.337446007344174e-04   -9.374763850016418e-05   1.629588600371418e-05    4.850234567785972e-01    -8.713064510693638e-01   
4.062000000000000e+09    4.813461593644473e-01    -8.738995609893394e-01   1.271001856291814e-04    -1.918870443026307e-04   -1.329277104141859e-04   -3.833763143383544e-05   4.846061515911504e-01    -8.710491803187183e-01   
4.063000000000000e+09    4.806672576002936e-01    -8.749737903385232e-01   -1.572556442091984e-04   -1.780197323793608e-05   -2.114371317155311e-05   3.373652631940364e-04    4.842371928715347e-01    -8.710959582829489e-01   
4.064000000000000e+09    4.797232090365481e-01    -8.753369120016292e-01   -1.193920916949422e-04   1.184297634195714e-05    3.210966934917575e-05    -5.876089286424176e-05   4.841499835243048e-01    -8.708934537805060e-01   
4.065000000000000e+09    4.789616511456485e-01    -8.763158187792612e-01   6.391863366557301e-05    -2.575040371227688e-05   -1.110572566311600e-04   3.111564010589249e-05    4.836992215214498e-01    -8.706991774308817e-01   
4.066000000000000e+09    4.782223517506277e-01    -8.772893820122968e-01   8.865182679368414e-05    1.464610657957997e-04    2.533508702035072e-05    -3.403689145807145e-05   4.834231511909289e-01    -8.706079341530134e-01   
4.067000000000000e+09    4.773835522951304e-01    -8.779974856734194e-01   -2.325346491441655e-05   3.255517708113085e-05    -7.368303287891542e-05   -4.299156361488645e-05   4.828120907422762e-01    -8.701011790838922e-01   
4.068000000000000e+09    4.765775644450603e-01    -8.786271608341492e-01   -1.052241805988203e-04   2.056969728170041e-04    -1.161947509851123e-04   1.404581230485335e-04    4.821301358601194e-01    -8.698000823678614e-01   
4.069000000000000e+09    4.761233279272226e-01    -8.795001929809679e-01   -3.470606122372048e-05   -5.358035565108540e-05   -3.796244351974317e-05   -2.769199606654602e-05   4.816716530545406e-01    -8.693806662838587e-01   
4.070000000000000e+09    4.751234163477701e-01    -8.802237012369261e-01   7.049123554089568e-05    1.086807860970987e-05    6.791945463628846e-06    -2.572523065027939e-05   4.809261081122235e-01    -8.691991911127711e-01   
4.071000000000000e+09    4.749569153599644e-01    -8.806881035246626e-01   6.052731712502754e-05    7.142617077057416e-05    -6.390246083311994e-05   -2.162124046196498e-04   4.798418707701612e-01    -8.690534044074311e-01   
4.072000000000000e+09    4.736862709793854e-01    -8.814530564867032e-01   5.081990839556082e-05    -1.407904062774034e-04   9.896092207503986e-05    -1.173670384440269e-04   4.787312512377030e-01    -8.686441204635806e-01   
4.073000000000000e+09    4.732127240644066e-01    -8.821144811108813e-01   3.766152200337042e-05    2.063894541814706e-05    -7.074450853982125e-05   9.568131884039408e-05    4.781103937575499e-01    -8.683645845519139e-01   
4.074000000000000e+09    4.724051887401992e-01    -8.830598548825870e-01   6.929599162868031e-05    -2.026051294350636e-05   7.279504255935683e-06    5.548724974550882e-05    4.770477050453211e-01    -8.684090803097358e-01   
4.075000000000000e+09    4.717472118800025e-01    -8.838909961090395e-01   -1.198107977784513e-04   2.522217972246634e-05    1.205710781112386e-04    3.230036749767023e-05    4.757360589307893e-01    -8.675284035811174e-01   
4.076000000000000e+09    4.709271720939144e-01    -8.844648844448501e-01   -8.464533579881494e-05   2.193081287750992e-04    1.482740098738853e-04    2.454188064871044e-05    4.745625144278312e-01    -8.675586012880112e-01   
4.077000000000000e+09    4.699556545179916e-01    -8.851583788795694e-01   -6.581859340736548e-05   -8.016559651176200e-05   2.891835411631907e-05    -6.102359716585352e-05   4.730295268879030e-01    -8.673461678795464e-01   
4.078000000000000e+09    4.692391829194988e-01    -8.859422743644670e-01   -9.094557357266670e-05   1.178156590693529e-04    1.887853271501027e-05    -3.335376235721040e-05   4.718299644427145e-01    -8.670048978648673e-01   
4.079000000000000e+09    4.686623159616100e-01    -8.869726899349192e-01   9.715463250672047e-05    -9.697234798226852e-05   2.991743150180053e-05    1.703640656457339e-05    4.705140331350252e-01    -8.671225168744635e-01   
4.080000000000000e+09    4.678552412977014e-01    -8.871033491522348e-01   1.146580623671113e-04    1.420626081458102e-04    1.577394789336843e-04    -1.144454612308145e-04   4.688370639607593e-01    -8.667337039073113e-01   
4.081000000000000e+09    4.671638550325016e-01    -8.882870186016046e-01   6.213838220470703e-05    4.270563654951890e-05    -6.841399356889804e-05   -5.327766883177851e-05   4.671671150543265e-01    -8.667635598250436e-01   
4.082000000000000e+09    4.665711535026186e-01    -8.885861378155769e-01   9.120365650378654e-05    -3.654210095768766e-05   -1.265140281020256e-04   -8.017416792215900e-05   4.652990227553809e-01    -8.668315541228639e-01   
4.083000000000000e+09    4.658650982972773e-01    -8.897585454305391e-01   2.026640300587135e-05    -5.540669262186969e-05   -4.033979929285865e-05   5.935492114165510e-05    4.636989797833893e-01    -8.672524080747220e-01   
4.084000000000000e+09    4.649648998398708e-01    -8.903835522840186e-01   -9.659845364439376e-06   8.714316259642515e-05    1.539140659288621e-05    4.447583556868913e-05    4.619245003326694e-01    -8.672201766745843e-01   
