[Version] 2.0
! Rohde & Schwarz Vector Network Analyzer
! Rohde-Schwarz,ZNL20-2Port,1323001220200009,1.71.1.10-23.02.1.238
! 
! Port Assignments:
! Nominal Port -> Actual Test Port
! --------------------------------
!   1 -> 1
!   2 -> 2

! Created: GMT+2 2025-01-16 20:22:48

# Hz S RI R 50

[Number of Ports] 2
[Two-Port Data Order] 21_12
[Number of Frequencies] 16001

[Network Data] 
! freq[Hz]               S11[Re]                  S11[Im]                  S21[Re]                  S21[Im]                  S12[Re]                  S12[Im]                  S22[Re]                  S22[Im]                  
4.000000000000000e+09    5.520029278070751e-01    -8.356457809039786e-01   -1.178509062108256e-04   1.330888712098038e-04    -2.640144306674771e-05   1.262521608777689e-04    5.427544032892487e-01    -8.149233652745101e-01   
4.001000000000000e+09    5.504229267289193e-01    -8.367798424787718e-01   2.172442753854377e-04    5.149432243671908e-05    1.529904346349063e-04    -3.889662423007799e-05   5.407185070097125e-01    -8.155461889976103e-01   
4.002000000000000e+09    5.492310110451916e-01    -8.374131611127011e-01   9.773850165525219e-05    -6.590126279089139e-05   5.269351249335536e-06    -1.009663755482624e-04   5.384004980570117e-01    -8.166122903081880e-01   
4.003000000000000e+09    5.482276284299119e-01    -8.384548533693000e-01   -6.862947979285436e-05   -1.095881770449755e-04   -1.007446472353656e-05   -5.242234508430917e-05   5.365475628761240e-01    -8.177363493323482e-01   
4.004000000000000e+09    5.472120651426442e-01    -8.390054990013516e-01   -2.008165470931093e-04   -2.206617175856547e-04   -2.498346834441143e-05   -1.524527817690741e-04   5.348066799440889e-01    -8.191359628364541e-01   
4.005000000000000e+09    5.459840101066351e-01    -8.399635211451830e-01   1.766842034765785e-04    -5.179641589098652e-05   -9.051732663657243e-05   -3.064951753443285e-05   5.325794186234309e-01    -8.199291133864491e-01   
4.006000000000000e+09    5.447194157065749e-01    -8.407249624178393e-01   -1.029407381795907e-04   -1.194385204178544e-05   8.541463193935506e-05    7.732069117781322e-05    5.302650324501321e-01    -8.213058831934519e-01   
4.007000000000000e+09    5.438475145037770e-01    -8.421775701788534e-01   -1.853489233236870e-04   -1.369886075365044e-04   -1.739449381160572e-04   1.039537111348765e-04    5.288642962172558e-01    -8.227022449048877e-01   
4.008000000000000e+09    5.424466146112473e-01    -8.425965233123829e-01   -6.836938465464660e-05   5.649218970205229e-05    -7.485858814314685e-05   -1.809454954321537e-04   5.267836251844407e-01    -8.235967340559088e-01   
4.009000000000000e+09    5.413399167909247e-01    -8.435356808273425e-01   -3.477032969278361e-05   -1.162040741228269e-04   -9.651476770933711e-05   -1.276084597719449e-04   5.250292491858445e-01    -8.250760128700516e-01   
4.010000000000000e+09    5.401346908338170e-01    -8.441856584626065e-01   5.715969640360826e-05    6.837001080114536e-05    1.745290885118067e-04    -2.646248233580455e-04   5.229640708235177e-01    -8.266396019970844e-01   
4.011000000000000e+09    5.388944547527845e-01    -8.450801524739648e-01   -3.945338422716903e-05   2.293201434831689e-04    3.239955312488926e-05    1.393781382314111e-04    5.212401269271744e-01    -8.277005806433303e-01   
4.012000000000000e+09    5.379119030462339e-01    -8.457041853053027e-01   1.325286072445393e-04    -4.069932822861512e-05   4.330431504648153e-05    2.312660613638259e-05    5.194691388127171e-01    -8.290773908832174e-01   
4.013000000000000e+09    5.364897259689803e-01    -8.462733673994123e-01   -1.593922566264575e-05   -3.557818940911317e-05   -1.873702164317760e-04   1.294167664539001e-04    5.179758594155800e-01    -8.305149011226073e-01   
4.014000000000000e+09    5.354958933298173e-01    -8.469417012560690e-01   -2.041117289631436e-05   -1.179073604896949e-05   1.142692458226496e-04    1.373453483568948e-05    5.164628575625040e-01    -8.315917906057242e-01   
4.015000000000000e+09    5.348065979084992e-01    -8.476032261295749e-01   -1.992701952102620e-04   -1.225198961429577e-04   5.909236360525484e-05    -1.012231724630972e-04   5.149246672715708e-01    -8.333050992444498e-01   
4.016000000000000e+09    5.330970247735216e-01    -8.483013100739918e-01   -1.094344201409619e-04   -9.004650655599814e-05   1.551220293312439e-04    1.102309937653047e-04    5.134558672415284e-01    -8.350828624158608e-01   
4.017000000000000e+09    5.322187221662552e-01    -8.488735843506242e-01   2.304131857058858e-05    1.639789603340103e-05    1.369139142937647e-05    6.768113467764522e-05    5.119350524365690e-01    -8.361134551315202e-01   
4.018000000000000e+09    5.307461766944019e-01    -8.494962259307560e-01   4.950231067738342e-05    -2.844199389835832e-05   3.774632481565823e-05    -2.193068992841241e-04   5.107057485713143e-01    -8.374754827922554e-01   
4.019000000000000e+09    5.296114583414302e-01    -8.499164237559779e-01   1.166354537480802e-05    -5.374557037829145e-05   9.785366369349135e-05    -1.360448623176360e-04   5.088497609300430e-01    -8.387226546419506e-01   
4.020000000000000e+09    5.282839054846459e-01    -8.504923489925788e-01   1.430762547018647e-05    -9.264171063257473e-05   5.837637403271566e-05    1.493555858202905e-04    5.076290610164375e-01    -8.401722337748025e-01   
4.021000000000000e+09    5.277158629751169e-01    -8.510914653463600e-01   -7.597254246237241e-05   2.702672907911690e-05    7.262897203248559e-05    -3.871203254041771e-05   5.065600267996674e-01    -8.413539277673517e-01   
4.022000000000000e+09    5.263772448256631e-01    -8.515521543864515e-01   -1.234925458743791e-04   -2.014332972202557e-04   -1.226655169429204e-04   -3.268683941220261e-05   5.054714732432415e-01    -8.425397515954269e-01   
4.023000000000000e+09    5.252211346592304e-01    -8.521978826942861e-01   -9.705107846900333e-05   8.150205622903916e-05    -1.132224462652168e-06   -8.120200506724976e-05   5.045926694308284e-01    -8.440801242145873e-01   
4.024000000000000e+09    5.242895961301007e-01    -8.524419253545843e-01   -4.042556495673665e-05   3.935875774939928e-05    5.695413982203665e-05    1.629148880459387e-04    5.030049707959806e-01    -8.451680191313686e-01   
4.025000000000000e+09    5.229126578186331e-01    -8.529260725365164e-01   -1.057333990334119e-04   6.503627343058067e-05    -6.596460772318386e-05   -3.303039664591405e-06   5.021972023986008e-01    -8.460916170864460e-01   
4.026000000000000e+09    5.218359839797250e-01    -8.532859004325806e-01   -5.821125675969473e-05   1.556837680850038e-05    -1.713777425716825e-04   3.987339494068180e-05    5.011374608020507e-01    -8.472082554552635e-01   
4.027000000000000e+09    5.208036593068023e-01    -8.535842103318146e-01   3.819744483358904e-05    9.237642282900984e-05    -1.313232156775880e-04   -1.551480069250737e-05   5.001272159830323e-01    -8.481880238388753e-01   
4.028000000000000e+09    5.196979002152863e-01    -8.538786489640284e-01   -5.033211000653824e-05   -1.144852815941243e-04   -2.406790909886246e-04   -3.923652034041928e-05   4.991718963492291e-01    -8.498476008329350e-01   
4.029000000000000e+09    5.185023536753869e-01    -8.548951873044131e-01   1.365728926646546e-05    1.184111668542856e-04    1.033264369736641e-04    1.377242464437533e-04    4.981575086413839e-01    -8.506891356098851e-01   
4.030000000000000e+09    5.173171494309114e-01    -8.548296532596411e-01   -8.028375279437515e-05   -5.824314601521353e-05   2.311670257029316e-05    -4.041391878116863e-05   4.971929677653633e-01    -8.515284227667667e-01   
4.031000000000000e+09    5.160066992894476e-01    -8.552004481358519e-01   -1.358161237095729e-04   2.081051980403541e-05    9.001157169372798e-05    1.249664227523922e-04    4.968737677752648e-01    -8.525393447471594e-01   
4.032000000000000e+09    5.149555930021351e-01    -8.554658007506368e-01   1.019045867781187e-04    9.620118041708715e-05    1.932351129938924e-04    -1.119486606577438e-04   4.959761992714631e-01    -8.537641309803355e-01   
4.033000000000000e+09    5.135730717236412e-01    -8.558593534228732e-01   -1.478509141132101e-04   4.065810200235498e-05    -5.425470093796120e-05   1.345574842968868e-04    4.951603703846323e-01    -8.544829738486807e-01   
4.034000000000000e+09    5.120261911651462e-01    -8.562809581105238e-01   1.567205651602036e-05    1.790125513730862e-04    -4.671271237424856e-05   -8.999047030096522e-06   4.945024446974035e-01    -8.553929164106479e-01   
4.035000000000000e+09    5.110178519220702e-01    -8.569624948430097e-01   -2.452995244106014e-05   1.678362263160203e-05    -1.087095198161186e-05   2.104216097088920e-05    4.939982951888170e-01    -8.564130740736882e-01   
4.036000000000000e+09    5.098918985283449e-01    -8.569585953531029e-01   -3.151744113817247e-05   9.350123638598607e-05    -1.965886372059312e-05   -7.764014326753637e-05   4.933195116008647e-01    -8.570744521461305e-01   
4.037000000000000e+09    5.086375841761388e-01    -8.575174703497600e-01   -4.273211869077496e-05   -4.347605187129985e-05   1.584663991428705e-04    3.790762890578142e-05    4.927377069895389e-01    -8.582381533762204e-01   
4.038000000000000e+09    5.071419779110612e-01    -8.579878679185453e-01   3.829130109441857e-05    -1.869859856615268e-04   -7.532498530071810e-05   1.512297798123117e-04    4.921952486873052e-01    -8.590092481682935e-01   
4.039000000000000e+09    5.059958317852197e-01    -8.584106304425868e-01   2.392431842217108e-04    -1.985811359268252e-04   -1.636048889767553e-04   -2.626017490205444e-05   4.915486973702825e-01    -8.597520663810929e-01   
4.040000000000000e+09    5.047214440317895e-01    -8.587132584249999e-01   6.442578107260333e-05    1.340846273870411e-05    2.475188733736705e-05    -2.873528693026991e-05   4.908066948017875e-01    -8.605345412712314e-01   
4.041000000000000e+09    5.031825457463220e-01    -8.591212310804897e-01   8.295978180065731e-05    1.323333680500894e-04    -2.979372303734288e-05   5.686207342622899e-05    4.902970685128996e-01    -8.614680683954303e-01   
4.042000000000000e+09    5.020628611273781e-01    -8.599431246101321e-01   1.038273521066603e-04    1.090515653632793e-04    -4.137499041421339e-05   -3.129867969872501e-05   4.900789953783497e-01    -8.624058522352512e-01   
4.043000000000000e+09    5.010879811011363e-01    -8.605564669492716e-01   -3.941844081763136e-05   1.252168817852839e-04    6.043189204018407e-05    -1.225177029829077e-04   4.892729374265004e-01    -8.630335956218343e-01   
4.044000000000000e+09    4.995012022510705e-01    -8.611022980471355e-01   7.405478176284799e-05    -1.461312680559103e-04   6.203243304871115e-05    2.253613883517053e-05    4.889715398113080e-01    -8.636464030260042e-01   
4.045000000000000e+09    4.984372249461134e-01    -8.613728614256335e-01   -4.321400412620811e-05   6.370482661567985e-06    5.576635899303591e-05    4.250774491861547e-04    4.884855237997471e-01    -8.643766500571772e-01   
4.046000000000000e+09    4.972591308331540e-01    -8.621427066529631e-01   -4.041853851432842e-05   3.583027476208108e-05    2.207453557566413e-05    8.341060585685920e-05    4.882205574353997e-01    -8.649855265857127e-01   
4.047000000000000e+09    4.961697000132455e-01    -8.630388183202106e-01   4.551321477900155e-05    9.700741974728594e-06    -5.465047848752720e-05   3.618556881696031e-05    4.879677021924291e-01    -8.658720780032800e-01   
4.048000000000000e+09    4.950218000975448e-01    -8.634659639064978e-01   2.931036779982326e-05    -1.128911078867828e-04   -3.516178818509243e-05   -1.595381336371659e-04   4.875665777587697e-01    -8.661558335582029e-01   
4.049000000000000e+09    4.936911305052136e-01    -8.642359649192594e-01   1.449714515854479e-04    4.402953588032699e-05    -4.936693283108386e-05   -1.284128529965865e-05   4.871528287916158e-01    -8.672231798272404e-01   
4.050000000000000e+09    4.927229608435920e-01    -8.649339867836783e-01   6.944502316174978e-07    1.390075219613151e-05    -7.622579510097792e-05   -4.659934252673695e-05   4.870588914413100e-01    -8.674699712112742e-01   
4.051000000000000e+09    4.916147639607044e-01    -8.656996260657641e-01   -9.779757444324055e-05   1.293106514897089e-04    4.334486892357195e-05    -4.457686835441638e-05   4.865252607219917e-01    -8.678645763507725e-01   
4.052000000000000e+09    4.907742414272792e-01    -8.665123210333529e-01   6.271939508904935e-05    5.800005363458375e-05    -4.136344408347808e-05   4.913208453741874e-07    4.862918217193685e-01    -8.688591993851013e-01   
4.053000000000000e+09    4.893860551791830e-01    -8.671091268824739e-01   6.279370646504232e-05    7.911986480055118e-05    1.664144058264205e-04    -3.910678115255125e-07   4.862407449526994e-01    -8.693015609921100e-01   
4.054000000000000e+09    4.885549679106760e-01    -8.678445245397447e-01   5.964480121497085e-05    -2.530233103623342e-05   -9.104373038183134e-05   1.030978074832067e-04    4.862497090600418e-01    -8.698449171358611e-01   
4.055000000000000e+09    4.878027620961020e-01    -8.685982786898689e-01   4.159056359585807e-06    9.588290508871044e-05    -1.783565784871778e-06   1.494168773562637e-04    4.858108758939416e-01    -8.701327496337694e-01   
4.056000000000000e+09    4.866754812615494e-01    -8.695294714739409e-01   1.047845233244859e-05    -6.118509726949663e-05   -7.488410897065705e-05   -5.376141202824020e-05   4.857919116799135e-01    -8.703770403604668e-01   
4.057000000000000e+09    4.858526352833076e-01    -8.702413124322873e-01   1.976244134885625e-05    1.564807696242775e-06    3.482759150376385e-05    -1.334237515908695e-04   4.857883335647558e-01    -8.706253867185433e-01   
4.058000000000000e+09    4.846076660803232e-01    -8.707626274306159e-01   -5.903751032308485e-05   1.339397023844503e-04    3.667646349837657e-05    -8.145551416758031e-05   4.856812063651472e-01    -8.709119368738076e-01   
4.059000000000000e+09    4.840029042254465e-01    -8.719202126647687e-01   8.442649022113348e-05    -1.194430440453287e-04   -1.092601096610518e-05   -8.105839811244984e-05   4.854258395625490e-01    -8.710423436282605e-01   
4.060000000000000e+09    4.831405062409480e-01    -8.723728402001418e-01   4.653178571933511e-05    6.057713465256245e-05    7.397237466403829e-05    1.494331849442109e-04    4.853305551158820e-01    -8.710449729190849e-01   
4.061000000000000e+09    4.821439022513999e-01    -8.733779472204347e-01   -5.581164092644446e-05   8.956877845766912e-06    -3.810485569915318e-05   -2.203832469671983e-05   4.848170810474025e-01    -8.710458022618389e-01   
4.062000000000000e+09    4.815549750926464e-01    -8.740158664786079e-01   9.828782066858507e-06    -2.180021081008807e-04   -6.394111656616155e-05   -1.313327813177213e-04   4.846438086094986e-01    -8.709784485226117e-01   
4.063000000000000e+09    4.808490883875972e-01    -8.747853504804733e-01   -4.319441582049215e-05   -7.871760722660057e-05   2.465733653632731e-05    6.166288929640666e-05    4.841026250340662e-01    -8.711375227479260e-01   
4.064000000000000e+09    4.798160103764145e-01    -8.755814745918438e-01   -3.674203603863484e-05   3.863109028279741e-05    1.350297589112444e-04    6.831598271630891e-05    4.841818706071616e-01    -8.708072008126925e-01   
4.065000000000000e+09    4.791182249517003e-01    -8.762550309805608e-01   -2.784944372860619e-05   3.032367148213973e-05    1.127132742530505e-04    -9.000869729690327e-05   4.836791514244664e-01    -8.707120439887046e-01   
4.066000000000000e+09    4.785057055905183e-01    -8.771315433471542e-01   1.199124368701768e-04    -6.258736255207427e-05   7.882486797221929e-06    -3.283921542199817e-04   4.832900129516825e-01    -8.705443540270700e-01   
4.067000000000000e+09    4.774428511904367e-01    -8.780151847724175e-01   -5.628392481702131e-05   -1.063937724542010e-04   4.903622072003244e-05    -1.527124928491892e-04   4.825039881978847e-01    -8.700174235613138e-01   
4.068000000000000e+09    4.767517602780411e-01    -8.787282815751530e-01   2.384404064921011e-04    1.434018914577583e-04    -1.432353108442332e-07   -7.966940152053237e-05   4.823661352817772e-01    -8.698263599215214e-01   
4.069000000000000e+09    4.762271450699421e-01    -8.792107587773712e-01   3.679142123960688e-05    -7.521146758052323e-05   -6.179332670503474e-05   1.116042422837322e-08    4.815522513043666e-01    -8.694120110023804e-01   
4.070000000000000e+09    4.750873804982776e-01    -8.798158428947798e-01   -1.237769143479890e-04   7.247682168918508e-05    -7.228291930999687e-05   -1.212429317777177e-04   4.805684691083055e-01    -8.691208190454394e-01   
4.071000000000000e+09    4.747167071810858e-01    -8.808099064374764e-01   5.674344068756206e-05    5.772350341164396e-05    2.957873288667789e-05    -1.128212810001773e-05   4.799843139739580e-01    -8.690032855891292e-01   
4.072000000000000e+09    4.737899017867258e-01    -8.814258520778679e-01   1.260664319964278e-05    2.856559479555452e-06    -2.051767315287006e-05   -4.018605396539729e-05   4.789195467496929e-01    -8.684578269811748e-01   
4.073000000000000e+09    4.732238483773103e-01    -8.822014568628942e-01   6.416260471330563e-05    3.433567048508418e-05    2.872067671598781e-05    2.508300537922735e-04    4.781808080166899e-01    -8.683011657221550e-01   
4.074000000000000e+09    4.725908793553649e-01    -8.830930592959771e-01   -8.099024793865685e-05   1.488394961541788e-05    2.058388105736455e-05    8.543687763456578e-05    4.770263860705212e-01    -8.679528864843222e-01   
4.075000000000000e+09    4.717418119338571e-01    -8.841102067692882e-01   -3.108149751609991e-05   -1.583403961892814e-04   2.688999913550597e-05    -1.899327923734235e-06   4.756904936139506e-01    -8.677215745721903e-01   
4.076000000000000e+09    4.709794471980179e-01    -8.844729536579400e-01   -1.632958418191440e-04   7.484436980920664e-05    -9.249025728394457e-05   -7.954430382730493e-05   4.747425339700962e-01    -8.676058948784027e-01   
4.077000000000000e+09    4.701919148252736e-01    -8.855458595338911e-01   -9.122366297364438e-05   -1.540969062643596e-04   -1.527685840067759e-04   1.399816157524228e-05    4.732958371695259e-01    -8.671359152299583e-01   
4.078000000000000e+09    4.692085862259295e-01    -8.859114901664414e-01   2.421516099147793e-05    6.486686768625404e-05    -6.636507740368685e-05   1.069184420641551e-04    4.717132877819332e-01    -8.671276077109628e-01   
4.079000000000000e+09    4.688464445023737e-01    -8.866572562667405e-01   -6.033426064007570e-05   7.221654701313371e-05    -4.171154825807111e-05   3.218139609816129e-05    4.703459720416159e-01    -8.670850860727399e-01   
4.080000000000000e+09    4.679734853059110e-01    -8.874653169856506e-01   -5.692990202702109e-05   4.679363209756572e-05    9.779903507976720e-06    6.209017486029512e-05    4.686451287970705e-01    -8.669099215856297e-01   
4.081000000000000e+09    4.672995741739205e-01    -8.881903815475879e-01   -7.349727349772398e-05   2.520413342298207e-05    1.199530920409592e-04    -1.881913808182333e-06   4.669442210174048e-01    -8.670959466585327e-01   
4.082000000000000e+09    4.666604899862543e-01    -8.883233928582198e-01   1.979369686696853e-05    2.698639942068804e-05    1.653029887737467e-04    -1.279386919369789e-05   4.653791568683458e-01    -8.668865182836680e-01   
4.083000000000000e+09    4.653606936177115e-01    -8.894051015727836e-01   5.615186631821414e-05    -2.457719355202098e-04   -8.998839465127350e-05   -7.912159971490883e-05   4.636463258541517e-01    -8.669286602695915e-01   
4.084000000000000e+09    4.650743881744432e-01    -8.902579201420099e-01   -1.122479412035843e-04   1.395263043099739e-04    -5.734306388656163e-05   -1.794723509847548e-04   4.615950687641252e-01    -8.672510717523200e-01   
