[Version] 2.0
! Rohde & Schwarz Vector Network Analyzer
! Rohde-Schwarz,ZNL20-2Port,1323001220200009,1.71.1.10-23.02.1.238
! 
! Port Assignments:
! Nominal Port -> Actual Test Port
! --------------------------------
!   1 -> 1
!   2 -> 2

! Created: GMT+2 2025-01-16 20:23:07

# Hz S RI R 50

[Number of Ports] 2
[Two-Port Data Order] 21_12
[Number of Frequencies] 16001

[Network Data] 
! freq[Hz]               S11[Re]                  S11[Im]                  S21[Re]                  S21[Im]                  S12[Re]                  S12[Im]                  S22[Re]                  S22[Im]                  
4.000000000000000e+09    5.521257321149112e-01    -8.356408038636153e-01   2.929067218498497e-05    -1.466819161615996e-04   -2.208178508370721e-05   -3.742517206323591e-05   5.429587965002247e-01    -8.142047231093490e-01   
4.001000000000000e+09    5.504678514173208e-01    -8.364870891397980e-01   6.955402132814620e-05    -1.046653404981725e-04   2.767917402250890e-05    1.319527287327122e-05    5.403922241426125e-01    -8.158548421585111e-01   
4.002000000000000e+09    5.498082926997500e-01    -8.373361740379438e-01   -9.612882101063697e-05   1.810073990186760e-04    1.688621844566727e-05    -2.117559558167254e-04   5.386463526378603e-01    -8.167336450840615e-01   
4.003000000000000e+09    5.487865153285946e-01    -8.382825133576005e-01   -1.951838629679669e-04   -2.866225807495533e-05   -3.043748954671834e-05   7.756027637773816e-05    5.363789205159241e-01    -8.177626518107611e-01   
4.004000000000000e+09    5.471406448970223e-01    -8.390116729496860e-01   -1.947787445203885e-04   1.537826025602586e-05    3.978884057661379e-05    -5.044384370476606e-05   5.344783302929403e-01    -8.191124111194188e-01   
4.005000000000000e+09    5.459073968104260e-01    -8.398871919836425e-01   6.321362016760808e-05    7.224326602878557e-05    7.260350447188451e-05    1.133240346912630e-04    5.327475400074442e-01    -8.200282132257986e-01   
4.006000000000000e+09    5.448576562712135e-01    -8.409430554066472e-01   -2.150095421340370e-05   5.642296578417886e-05    1.659922579687697e-04    9.118705362123727e-06    5.306656662021413e-01    -8.211808699418476e-01   
4.007000000000000e+09    5.435745525724469e-01    -8.416760387920068e-01   -4.349013109473732e-05   -2.626121008168011e-05   8.902480310603249e-05    6.887402736517892e-06    5.284775317882363e-01    -8.227594743015175e-01   
4.008000000000000e+09    5.426353626345146e-01    -8.425603786620813e-01   -3.359253348786121e-05   -1.041091477296752e-04   -1.135463564844179e-04   9.156630636382193e-06    5.270203583896598e-01    -8.236865085703751e-01   
4.009000000000000e+09    5.415549509232880e-01    -8.432375797274916e-01   -9.131705776944525e-05   1.526298152256783e-04    -2.773437403828404e-04   -8.031141971723545e-05   5.249291114480826e-01    -8.251600458339327e-01   
4.010000000000000e+09    5.397911968854739e-01    -8.438799020231510e-01   1.742735382221878e-04    -2.561994567085315e-06   3.217136132335338e-05    2.590757395658860e-04    5.230063119700656e-01    -8.266219964492206e-01   
4.011000000000000e+09    5.390492117655479e-01    -8.449869592819967e-01   -9.861789910890576e-05   -1.685758095755891e-05   -2.530743848188545e-05   -1.230628542653777e-04   5.214073521785444e-01    -8.276201745724019e-01   
4.012000000000000e+09    5.378312494587681e-01    -8.457255648852916e-01   1.839761023697096e-04    7.090066876356116e-05    5.633057849141202e-05    -7.522316817642997e-05   5.195082552598119e-01    -8.290111268263166e-01   
4.013000000000000e+09    5.366042921830827e-01    -8.458734479364122e-01   -1.497588443761847e-04   -1.897350868157396e-04   1.634326296338184e-04    9.730933179630018e-05    5.178515545320821e-01    -8.307234329828596e-01   
4.014000000000000e+09    5.353027903416961e-01    -8.469456052889865e-01   -5.330847848094266e-05   5.984089529776513e-05    -4.379013487170207e-05   2.332458458216888e-05    5.162778127485327e-01    -8.319476583857444e-01   
4.015000000000000e+09    5.341765827889184e-01    -8.477399030800365e-01   1.391844863360310e-04    7.888177723222860e-05    -1.062531352767280e-04   1.274749247400743e-04    5.147663482540035e-01    -8.335264048730997e-01   
4.016000000000000e+09    5.331609120464963e-01    -8.484024931378308e-01   -8.595800523725686e-05   -1.225314701265077e-04   -9.415324408899118e-05   -3.070781805763661e-05   5.130218004235685e-01    -8.347706288442804e-01   
4.017000000000000e+09    5.323005120317247e-01    -8.487576919734987e-01   -1.880392948466648e-04   -1.404653580487081e-05   8.488469444843335e-05    -1.797885124719992e-04   5.114641854294637e-01    -8.360361205600407e-01   
4.018000000000000e+09    5.305838460465397e-01    -8.495272039548825e-01   -1.577463460713457e-04   1.282765431845280e-05    2.986659074018413e-05    3.963299589884565e-05    5.104535791081807e-01    -8.374252508762455e-01   
4.019000000000000e+09    5.299364179677633e-01    -8.498028674360821e-01   -7.595613685323059e-05   -1.019547010281639e-04   -2.784812845482194e-05   -8.440687755438393e-05   5.090191403461641e-01    -8.388453562664963e-01   
4.020000000000000e+09    5.287853343402665e-01    -8.505151668673295e-01   6.950219233745763e-05    -2.579002249571446e-05   8.158338649790178e-05    -6.572173941111200e-05   5.075605772485930e-01    -8.401042562628604e-01   
4.021000000000000e+09    5.272992135820568e-01    -8.510385522657827e-01   -1.056622622397790e-04   -4.875643248195800e-05   1.473669298966821e-04    -1.023951698057611e-04   5.061840296491940e-01    -8.410011600824684e-01   
4.022000000000000e+09    5.258989817154056e-01    -8.514001537094836e-01   1.155530696491945e-04    2.705488940702295e-05    -1.304843111418879e-04   1.715655606840396e-04    5.054395762237791e-01    -8.425235136158384e-01   
4.023000000000000e+09    5.252104596917249e-01    -8.520166100379502e-01   7.220737664601891e-05    -2.989870906634116e-05   2.036688114813037e-04    8.137107378856295e-05    5.044413981747358e-01    -8.436762490106885e-01   
4.024000000000000e+09    5.240513144977211e-01    -8.524793748053046e-01   2.381852860318289e-04    2.227874112991235e-04    -7.694414832172962e-06   -1.895020535140956e-05   5.031131026984724e-01    -8.450686595201998e-01   
4.025000000000000e+09    5.228388898502456e-01    -8.527646629209519e-01   3.241024897232306e-06    1.454724108805490e-04    -6.342092167206919e-05   -1.103317506712967e-05   5.022109007902985e-01    -8.463123372057514e-01   
4.026000000000000e+09    5.219147750746469e-01    -8.531602101719780e-01   2.586353864713879e-04    2.787691384189405e-05    -7.923230572383792e-05   -3.589424569588955e-05   5.005392769021100e-01    -8.473573916032862e-01   
4.027000000000000e+09    5.205578072848565e-01    -8.535397471554321e-01   -1.207994000326514e-04   6.454617300608258e-05    7.976505612120812e-05    1.077144561163548e-05    5.000803678239854e-01    -8.483299547715339e-01   
4.028000000000000e+09    5.196366933279906e-01    -8.537806748654113e-01   1.260989737994118e-04    1.345075330901978e-04    6.424206609554676e-05    -1.325718929282230e-04   4.990104036041782e-01    -8.493247915610344e-01   
4.029000000000000e+09    5.183686930986955e-01    -8.544765660258793e-01   -3.481213210330817e-05   2.558772527067954e-04    1.348413045152892e-04    -7.153936084038251e-05   4.981255081176907e-01    -8.506400724121378e-01   
4.030000000000000e+09    5.172120218156391e-01    -8.549135706394625e-01   1.080204243124423e-04    7.383160752538207e-05    -9.848785398747246e-05   -7.119968000544638e-05   4.975534999770435e-01    -8.517558539887109e-01   
4.031000000000000e+09    5.160196075234754e-01    -8.551228175277503e-01   4.870124115367453e-05    -3.188269382303464e-04   5.825556183390357e-05    -4.039133319543579e-05   4.967643453384099e-01    -8.527483852853958e-01   
4.032000000000000e+09    5.146123723105588e-01    -8.556340675535764e-01   1.153605132960365e-04    6.066077221118591e-06    -2.025349458363702e-04   1.289307062186194e-04    4.958601067160282e-01    -8.535886065204349e-01   
4.033000000000000e+09    5.136018374593176e-01    -8.558594823716702e-01   4.145906897503343e-05    2.495750369398355e-06    -1.054670112962281e-04   -3.261252536881910e-04   4.950208817063598e-01    -8.545749687652172e-01   
4.034000000000000e+09    5.121140252851877e-01    -8.563460429798155e-01   2.747373680774895e-04    -9.250982582598681e-05   -8.206950632348726e-05   6.680288545576416e-06    4.945226016855274e-01    -8.556799169000988e-01   
4.035000000000000e+09    5.108985816606032e-01    -8.567153511866931e-01   -3.910446633693823e-05   -1.366077285870180e-04   6.050809323814982e-05    9.646077255428040e-05    4.939424279163199e-01    -8.565185049346800e-01   
4.036000000000000e+09    5.096105037972808e-01    -8.571029351019208e-01   -3.468349644249194e-05   2.167164251674308e-04    -1.758495311258920e-05   1.673373624436741e-05    4.933873215531841e-01    -8.572813475209845e-01   
4.037000000000000e+09    5.084443273923998e-01    -8.576547168726399e-01   1.874198732443567e-04    4.380563627315847e-05    -5.100062587797894e-05   1.411071528443041e-05    4.927144060672037e-01    -8.580579873507717e-01   
4.038000000000000e+09    5.070336447278131e-01    -8.579480384340262e-01   9.959766258549925e-06    6.605351946562024e-05    1.010024734667155e-04    1.961469844652048e-04    4.918651928429299e-01    -8.591571179844869e-01   
4.039000000000000e+09    5.058723266528775e-01    -8.584960456678834e-01   -2.957234910883304e-05   4.067026327142100e-05    -5.925849712182163e-05   -8.416755198192133e-05   4.914050182689340e-01    -8.598220421044144e-01   
4.040000000000000e+09    5.044729879327297e-01    -8.588804856094868e-01   -6.766706554129224e-06   3.830349933981614e-05    4.701559331988870e-05    -1.160113168474745e-04   4.907975789168051e-01    -8.604065659499419e-01   
4.041000000000000e+09    5.032485688409247e-01    -8.594665465471104e-01   2.706983301671202e-04    4.168419515575847e-05    3.068770935469378e-05    -5.529869710077330e-05   4.903542427733156e-01    -8.617279708959066e-01   
4.042000000000000e+09    5.020552178291309e-01    -8.599712535070263e-01   -5.828750396198087e-05   -3.716625085858608e-05   1.412135643530291e-04    5.692382372852357e-05    4.897632661402370e-01    -8.620466426204144e-01   
4.043000000000000e+09    5.009435503568308e-01    -8.605872314425173e-01   2.146030459256623e-05    1.921599642701613e-04    6.776215823872631e-05    -4.286143564858446e-05   4.894158460723427e-01    -8.628954143532682e-01   
4.044000000000000e+09    4.996233640398499e-01    -8.608892495997708e-01   2.160686093198361e-05    -6.873429767036281e-06   2.040419838997145e-04    -1.403246027941500e-04   4.888496857019291e-01    -8.636552315601509e-01   
4.045000000000000e+09    4.983542292518255e-01    -8.614604307641820e-01   2.739871016929843e-04    -8.481340818060183e-05   3.363469551321893e-05    2.420812308482587e-05    4.885353180919083e-01    -8.645163619697510e-01   
4.046000000000000e+09    4.972073980267804e-01    -8.623160495690634e-01   -1.583796257032101e-05   -1.476281864621179e-04   1.151355665412085e-04    1.866462003948476e-05    4.881149442865530e-01    -8.650787670182345e-01   
4.047000000000000e+09    4.959858474476990e-01    -8.629540216935090e-01   1.206745116122879e-04    1.104156191964486e-04    1.010708433307434e-04    3.303062470595889e-05    4.876493578844133e-01    -8.655400418308138e-01   
4.048000000000000e+09    4.949395811939155e-01    -8.635866871976443e-01   1.266764872988704e-04    -2.660471047072273e-05   4.411678182026455e-05    -6.064679486437726e-05   4.875356952914606e-01    -8.665374643054498e-01   
4.049000000000000e+09    4.935346616252648e-01    -8.644585362811126e-01   2.786576570843670e-05    5.901144572813770e-07    -9.896750235539959e-05   -1.303505577586276e-05   4.872410902220718e-01    -8.670621855208116e-01   
4.050000000000000e+09    4.927366764630656e-01    -8.649328821113429e-01   6.532271481781420e-05    6.617417703587415e-05    9.072331821642643e-05    5.092302334801585e-05    4.871431765719432e-01    -8.676473299605629e-01   
4.051000000000000e+09    4.918929123961001e-01    -8.658517011526082e-01   1.880808878546058e-04    -1.595601305619286e-05   -1.186609039517832e-04   -6.632895172032265e-05   4.864523140562680e-01    -8.683411361879145e-01   
4.052000000000000e+09    4.908174130606065e-01    -8.665429629243678e-01   -1.348715021616582e-04   -5.887528473274225e-05   3.795335838025479e-05    1.356443398054858e-04    4.863968161641306e-01    -8.686860041203712e-01   
4.053000000000000e+09    4.896697787226974e-01    -8.674435941647242e-01   -1.068432252944505e-04   5.025648552584083e-06    1.046841723691515e-04    -1.697865314973126e-04   4.864458623198004e-01    -8.692237456186253e-01   
4.054000000000000e+09    4.886444553760858e-01    -8.678279959872828e-01   1.377356225181299e-05    1.927177411078436e-04    3.289062658839597e-05    1.581898447461360e-04    4.860014044543521e-01    -8.695905794798745e-01   
4.055000000000000e+09    4.876078083046865e-01    -8.688529021405080e-01   9.222314370507524e-05    -3.150389774089800e-05   9.610641347869164e-05    -7.131058095935055e-06   4.858347065743658e-01    -8.701900943983616e-01   
4.056000000000000e+09    4.867325620132094e-01    -8.693813628162482e-01   -1.850014303469579e-04   4.084531286808523e-05    3.369474558805993e-06    3.260073176408065e-05    4.855539924046157e-01    -8.705100111747596e-01   
4.057000000000000e+09    4.858663390686913e-01    -8.701483527196725e-01   -6.707814127107381e-06   3.896872593532989e-06    -1.238061227720628e-04   -1.875613628724047e-05   4.856840540272053e-01    -8.704534463672579e-01   
4.058000000000000e+09    4.845788072374834e-01    -8.706894627077978e-01   -8.177810230879605e-05   6.675413487902955e-05    5.783916382837438e-05    3.706633610354119e-05    4.852884816082877e-01    -8.707581794910915e-01   
4.059000000000000e+09    4.839321000218975e-01    -8.717649530277015e-01   -9.292312818106123e-05   -2.524422936024281e-04   2.356952079690291e-05    1.522129710435317e-04    4.852114992827726e-01    -8.710325001585205e-01   
4.060000000000000e+09    4.832857499961887e-01    -8.724274878571817e-01   -5.916763291879311e-05   -4.931357911623929e-05   -1.163413275865017e-04   2.718654211280798e-05    4.849569333801896e-01    -8.710617082992282e-01   
4.061000000000000e+09    4.820846754667957e-01    -8.734080383004442e-01   2.035825541827317e-06    -3.875101345086399e-05   7.207188146721294e-05    -6.563224241206991e-05   4.847041486198361e-01    -8.710468535780047e-01   
4.062000000000000e+09    4.814805958461629e-01    -8.738175713502220e-01   1.095797460642399e-04    -1.005517079758115e-04   3.147523433600304e-05    -4.223612006172288e-05   4.845872394112731e-01    -8.711456444683149e-01   
4.063000000000000e+09    4.805892113748598e-01    -8.750334589044674e-01   -1.181920467085050e-04   -6.895942243980616e-06   -1.816229911353585e-05   1.659358686876659e-05    4.840032416039022e-01    -8.710563976710669e-01   
4.064000000000000e+09    4.799649177927973e-01    -8.755339738753497e-01   -6.447407957744948e-05   -2.398174311221567e-04   1.486073790756832e-04    8.869777820429026e-05    4.841309475489963e-01    -8.705595836666233e-01   
4.065000000000000e+09    4.790898175418867e-01    -8.763664261566410e-01   -8.085048341444826e-05   -9.373126152312407e-05   -4.509647495711013e-06   -1.887237956556183e-05   4.836638421766701e-01    -8.707585829833927e-01   
4.066000000000000e+09    4.784343732833724e-01    -8.773136472089571e-01   -6.955410193966327e-05   7.500199000645188e-05    8.962921357017109e-05    -1.094089899860182e-04   4.832822925417432e-01    -8.707371830997572e-01   
4.067000000000000e+09    4.775443557257976e-01    -8.779716036544899e-01   -5.934711105907863e-05   -7.712024594300133e-06   -1.198232475542217e-04   -9.852544877011766e-05   4.825823147985040e-01    -8.702888688494479e-01   
4.068000000000000e+09    4.769858583188899e-01    -8.784347669031312e-01   9.374527448334736e-05    1.655673710463071e-04    -9.392402108506347e-05   3.756515044758560e-05    4.820353583541275e-01    -8.697275313382323e-01   
4.069000000000000e+09    4.763875424756316e-01    -8.793997503279763e-01   -1.410856535791453e-04   2.866208787047574e-05    -3.486328245576593e-05   1.250578144410206e-05    4.815122236811332e-01    -8.696468563633711e-01   
4.070000000000000e+09    4.751396569794689e-01    -8.800544499759977e-01   7.430560499770191e-05    4.549020992159922e-05    4.294246929226362e-05    8.680432184029754e-05    4.806380966748153e-01    -8.690989154260298e-01   
4.071000000000000e+09    4.746838506887874e-01    -8.806970209964496e-01   8.167597070806682e-05    -9.187306676740337e-05   -1.520699857109754e-04   6.985918719676264e-05    4.798565797525594e-01    -8.690185632612076e-01   
4.072000000000000e+09    4.737726472872394e-01    -8.814754106343611e-01   -1.289303674029454e-04   -4.319325836792842e-05   8.219940931499997e-05    -7.341053821364245e-05   4.791726761058461e-01    -8.687064885638627e-01   
4.073000000000000e+09    4.731862912357445e-01    -8.822446286760303e-01   6.856017075965947e-05    -8.302271819498583e-05   4.864960280191387e-05    -6.859187739287857e-05   4.779876744473406e-01    -8.684904607635968e-01   
4.074000000000000e+09    4.723246439661694e-01    -8.826740724228196e-01   -1.041804015840567e-04   -9.779904320254328e-05   -5.446836939519923e-05   1.568288438522752e-05    4.770616642724358e-01    -8.682106136899389e-01   
4.075000000000000e+09    4.717759567986924e-01    -8.839564364141782e-01   6.442711752702552e-05    -5.074197973150005e-05   4.013968469087288e-05    1.089116604537631e-05    4.757057390375650e-01    -8.675662575696311e-01   
4.076000000000000e+09    4.711060708250478e-01    -8.843368921685870e-01   8.445831850263533e-05    2.025694962847566e-04    -4.865640657976423e-05   1.930598820642580e-05    4.745997025911947e-01    -8.677832962418007e-01   
4.077000000000000e+09    4.703469980153986e-01    -8.850956823019074e-01   -2.822985776668133e-05   -2.162023626250995e-04   7.837462835711843e-05    5.966746373286419e-05    4.729761430535458e-01    -8.670294729464232e-01   
4.078000000000000e+09    4.696926024890431e-01    -8.860420780425143e-01   -8.915379557023512e-05   1.080882471210535e-04    -2.977240585478800e-05   -1.133793368025604e-05   4.718320538080804e-01    -8.670349894945347e-01   
4.079000000000000e+09    4.687307460175024e-01    -8.869528702802021e-01   1.015220481198085e-05    1.540953696017890e-05    2.648005321947941e-05    -4.607545304610777e-05   4.703380942266739e-01    -8.670241809290287e-01   
4.080000000000000e+09    4.681558005050846e-01    -8.872879290952534e-01   9.499627994270469e-05    1.678368705923581e-04    4.196147042074427e-05    -2.711567646525950e-05   4.686795967279142e-01    -8.670587004616216e-01   
4.081000000000000e+09    4.672134216992885e-01    -8.879309369998130e-01   9.136112757926484e-06    3.698115954893013e-06    5.776688892502170e-05    1.601672856446144e-04    4.671169691351844e-01    -8.670793884863841e-01   
4.082000000000000e+09    4.661623245393426e-01    -8.885993216176933e-01   -8.223584962456973e-05   1.332897971805796e-05    -1.179393427418935e-05   3.047231039950400e-05    4.654905747034237e-01    -8.667867682804756e-01   
4.083000000000000e+09    4.655968901512017e-01    -8.894729124865369e-01   -1.078461508760866e-04   1.408795921799373e-05    5.215709052121759e-05    -1.065788454349669e-04   4.637890276035956e-01    -8.672846829544925e-01   
4.084000000000000e+09    4.650490079004503e-01    -8.900500697608310e-01   2.038914060890511e-04    -1.446022173943769e-04   1.324267536078326e-04    2.136069211031608e-06    4.618775668970563e-01    -8.672671472845366e-01   
