[Version] 2.0
! Rohde & Schwarz Vector Network Analyzer
! Rohde-Schwarz,ZNL20-2Port,1323001220200009,1.71.1.10-23.02.1.238
! 
! Port Assignments:
! Nominal Port -> Actual Test Port
! --------------------------------
!   1 -> 1
!   2 -> 2

! Created: GMT+2 2025-01-16 20:23:25

# Hz S RI R 50

[Number of Ports] 2
[Two-Port Data Order] 21_12
[Number of Frequencies] 16001

[Network Data] 
! freq[Hz]               S11[Re]                  S11[Im]                  S21[Re]                  S21[Im]                  S12[Re]                  S12[Im]                  S22[Re]                  S22[Im]                  
4.000000000000000e+09    5.521777525509879e-01    -8.357840912613894e-01   1.739576286588205e-04    1.921733969458511e-04    4.195923777673764e-05    -1.060480546014978e-04   5.428029107937963e-01    -8.143136032371801e-01   
4.001000000000000e+09    5.505697093581504e-01    -8.370113826548492e-01   -1.742063126297611e-04   8.069198283311404e-06    1.205417980022091e-04    -5.765308259762222e-05   5.406599794149199e-01    -8.158091246938574e-01   
4.002000000000000e+09    5.497781901664511e-01    -8.374180615361639e-01   -2.083954332322162e-05   -1.590940586329520e-05   -1.728249944396916e-05   -5.999278068693914e-05   5.386183878832037e-01    -8.163190756467040e-01   
4.003000000000000e+09    5.485738990067281e-01    -8.384948364070592e-01   3.492458186565895e-05    -1.922374503139933e-04   1.909172648444400e-04    -1.648422616421605e-06   5.366880033309624e-01    -8.176957891159293e-01   
4.004000000000000e+09    5.473271831056039e-01    -8.390234430887251e-01   -2.110499468884433e-05   -1.449944849166684e-04   1.321573215000795e-04    1.223321186670694e-04    5.346474733297886e-01    -8.188909382417825e-01   
4.005000000000000e+09    5.460853601486237e-01    -8.399722488420065e-01   4.225106101762430e-05    -3.274922886046010e-05   5.545818212632118e-05    4.720722445829875e-05    5.327040690294174e-01    -8.199848363560069e-01   
4.006000000000000e+09    5.450225708843380e-01    -8.407483231470504e-01   -1.165316196978329e-04   1.267856877073718e-04    1.008928978649615e-04    4.113827008782542e-06    5.306658987914665e-01    -8.209413799253409e-01   
4.007000000000000e+09    5.438143622268231e-01    -8.420110467169553e-01   -2.144561429492078e-04   -5.647280692837961e-05   -9.271289478524978e-05   5.912908895328332e-05    5.287342195556669e-01    -8.223630487732794e-01   
4.008000000000000e+09    5.426014098738576e-01    -8.427290163977471e-01   3.378572650252084e-05    -1.989817960546222e-05   -1.093656776501269e-04   9.158745090542288e-05    5.266984189507319e-01    -8.236379441410387e-01   
4.009000000000000e+09    5.412947196356914e-01    -8.433512395241637e-01   -1.990627025597325e-04   7.466324983395088e-05    -6.025597362252576e-05   9.092127941227029e-05    5.249207716826814e-01    -8.251822371718295e-01   
4.010000000000000e+09    5.400365270636091e-01    -8.442756407537149e-01   1.768664344802020e-04    3.177857008174672e-05    -2.568005932068275e-05   1.030743375509419e-04    5.232319859658406e-01    -8.263731918534416e-01   
4.011000000000000e+09    5.390631554997659e-01    -8.449170396296534e-01   9.345837177565643e-05    -6.410495364099562e-05   2.951935335545047e-05    -5.269718272888999e-05   5.210851989264023e-01    -8.276706904366224e-01   
4.012000000000000e+09    5.378477926303045e-01    -8.453224335234689e-01   1.969637368366335e-04    -4.026853906542662e-06   3.118454278215506e-05    -3.729101503999289e-05   5.195452709413311e-01    -8.290245384461677e-01   
4.013000000000000e+09    5.364644766733191e-01    -8.463441990434725e-01   6.336231023390380e-06    4.022717097068245e-05    -1.022877616881098e-04   1.980038394662565e-04    5.180977553433486e-01    -8.304837487086911e-01   
4.014000000000000e+09    5.354995705735793e-01    -8.468253809837710e-01   -6.587417024983933e-05   1.639855677921240e-04    -5.272871970220575e-05   1.731814604632124e-04    5.162079945732432e-01    -8.318086094615001e-01   
4.015000000000000e+09    5.340218081860595e-01    -8.478193315570257e-01   1.646368510247453e-04    1.316847968330170e-04    1.344748312973540e-04    -4.482177655086163e-05   5.146727373722084e-01    -8.333633527544194e-01   
4.016000000000000e+09    5.331586339632540e-01    -8.482681019208774e-01   4.497388511254862e-05    8.384265337507699e-06    -1.266772112059254e-04   -6.751587691761073e-05   5.132645963167675e-01    -8.346391747607709e-01   
4.017000000000000e+09    5.321612855874002e-01    -8.487373246134191e-01   -2.382425213032545e-04   -9.130631279441335e-05   -2.060093207214010e-04   -1.131062881275893e-04   5.116511967763241e-01    -8.360743844410892e-01   
4.018000000000000e+09    5.307841926557896e-01    -8.494940002058745e-01   1.513334689715218e-04    -2.308240766464527e-04   1.663113158990082e-04    -2.404153247438089e-04   5.103971576031843e-01    -8.375204581935469e-01   
4.019000000000000e+09    5.298328069183197e-01    -8.498874353238806e-01   -1.789533140244866e-04   -1.823774772291520e-04   -1.665560444312664e-04   1.487630074482320e-05    5.091225334484252e-01    -8.386130138781054e-01   
4.020000000000000e+09    5.286334818134868e-01    -8.507346937320298e-01   -1.783809744561216e-05   -2.550786440720982e-04   -9.025384214389182e-06   -3.443405092644490e-05   5.076109099365024e-01    -8.397151707224840e-01   
4.021000000000000e+09    5.273919486321675e-01    -8.507698682591339e-01   8.663939873506773e-05    -1.074381378533258e-04   4.543490154471461e-05    9.908752555312792e-05    5.066001494770417e-01    -8.410373903978847e-01   
4.022000000000000e+09    5.260652481977766e-01    -8.517170941968449e-01   -1.073553558584159e-04   9.766913514815072e-05    -1.079475177375706e-04   2.041389380769562e-04    5.051638886820894e-01    -8.426067906148289e-01   
4.023000000000000e+09    5.253105285789232e-01    -8.520495753789910e-01   6.954156158251295e-05    -1.077707336346082e-04   -3.221235871086203e-05   1.327993048509679e-04    5.039837810151726e-01    -8.438059025475846e-01   
4.024000000000000e+09    5.240581097105764e-01    -8.522826782043237e-01   -1.514239888036543e-04   -1.507166831998501e-04   8.757010961633228e-05    -6.806228085968360e-05   5.031476183725136e-01    -8.448508495420485e-01   
4.025000000000000e+09    5.231222162394392e-01    -8.529833405711907e-01   2.625348868580435e-04    -2.375036141192073e-04   1.976226599637208e-05    3.194134990209424e-05    5.020159192707500e-01    -8.459824876112861e-01   
4.026000000000000e+09    5.218321661978631e-01    -8.532197223222259e-01   -5.634289410223571e-05   -3.540834704788536e-05   -5.143484922272781e-05   -7.601757156337061e-05   5.008853797718740e-01    -8.472913777570794e-01   
4.027000000000000e+09    5.205526365680303e-01    -8.534701397080029e-01   8.432866516448776e-05    1.553399080021715e-04    9.936207464720403e-05    -4.720982477456388e-05   5.001174017036207e-01    -8.484612744390145e-01   
4.028000000000000e+09    5.194458277971123e-01    -8.540301769399571e-01   9.302713993605167e-05    -7.640196963741036e-05   -1.988659038025022e-06   9.644729951770521e-06    4.990734975817578e-01    -8.496346533867851e-01   
4.029000000000000e+09    5.182465076243813e-01    -8.544151228261269e-01   -1.878727881288536e-05   2.355176617129721e-04    9.231403497949516e-05    -8.800770962313864e-05   4.983224074704126e-01    -8.504990386401297e-01   
4.030000000000000e+09    5.172598353825709e-01    -8.547254557613437e-01   3.240642864000121e-05    2.319865107260279e-04    3.857271837023385e-05    -2.258424931319182e-05   4.975443505833507e-01    -8.516606734646325e-01   
4.031000000000000e+09    5.160063404076743e-01    -8.551977633189987e-01   2.188123525438574e-05    1.099633488098389e-04    2.103866427487798e-04    -6.906530102236137e-05   4.966266702359179e-01    -8.526776992639389e-01   
4.032000000000000e+09    5.146208306118215e-01    -8.557209469761528e-01   1.017002712604273e-04    4.585537213939680e-05    6.052230911109704e-05    6.305520379592490e-05    4.958309496807579e-01    -8.536177083165846e-01   
4.033000000000000e+09    5.136384909609399e-01    -8.556569939441878e-01   -1.044634760352430e-04   2.524594701156115e-04    7.763594689920100e-05    5.021029672758617e-05    4.950874445721251e-01    -8.545425531530746e-01   
4.034000000000000e+09    5.120386411104866e-01    -8.562715564267156e-01   -3.547958745443610e-05   -2.064259915338591e-05   -2.026678889553075e-04   -3.852272690494010e-05   4.943003169869591e-01    -8.555166246396884e-01   
4.035000000000000e+09    5.112584348066986e-01    -8.569745767348066e-01   -7.454737914689396e-05   -9.367711359758566e-05   -1.318707383568754e-04   8.238860994206167e-05    4.940263197521643e-01    -8.564068237859424e-01   
4.036000000000000e+09    5.097850199647214e-01    -8.573258338890632e-01   1.874482359140161e-04    -8.142879130785342e-05   2.108397892689089e-05    4.508208347469189e-05    4.930878072505213e-01    -8.573742043404582e-01   
4.037000000000000e+09    5.082206050749951e-01    -8.577287357100291e-01   -7.022104901887271e-05   -1.030071697914844e-04   -2.873808767748475e-05   1.202416102805457e-04    4.927576022841244e-01    -8.581513320072341e-01   
4.038000000000000e+09    5.070087902853020e-01    -8.579929150759399e-01   -1.163262431045312e-04   -8.948073421510553e-05   7.742883095996410e-05    -2.249966431993237e-05   4.920390915368934e-01    -8.588209756000127e-01   
4.039000000000000e+09    5.061490838259063e-01    -8.583496806967060e-01   -1.489755675762192e-05   5.566034481124431e-06    -1.299638760068538e-04   -1.207915663099498e-04   4.915422536719248e-01    -8.600341203975155e-01   
4.040000000000000e+09    5.048195422479951e-01    -8.589248833795083e-01   4.951049789765047e-05    -7.896965609018856e-05   2.936478184513551e-06    -3.738594873372785e-05   4.908323656998185e-01    -8.602372274363731e-01   
4.041000000000000e+09    5.033882190701542e-01    -8.591900303211636e-01   6.422560401695841e-05    -9.036331588572422e-05   6.614599390020965e-05    -1.096372382574874e-04   4.902955701402831e-01    -8.615626078988237e-01   
4.042000000000000e+09    5.024074353062367e-01    -8.598705641996356e-01   -3.986189924867728e-07   6.681141814071320e-05    -4.880594760313841e-05   1.899326419547541e-04    4.900490674221659e-01    -8.623268581021321e-01   
4.043000000000000e+09    5.008881512474577e-01    -8.604683009956261e-01   1.858166794097017e-05    -5.413056439888470e-05   1.576647698129233e-04    -9.629613927186799e-05   4.892988093867980e-01    -8.626906070158904e-01   
4.044000000000000e+09    4.996505460838015e-01    -8.607357481799661e-01   1.093488352425520e-04    -2.473938979082466e-05   1.776731265524222e-04    -5.285760094907129e-06   4.891085142231613e-01    -8.638028905316122e-01   
4.045000000000000e+09    4.983301734688219e-01    -8.619195732420557e-01   3.771080391764734e-06    -9.622247579417401e-05   2.149483921898979e-04    2.206008769609534e-05    4.883500613444308e-01    -8.643055356141748e-01   
4.046000000000000e+09    4.972549258449822e-01    -8.625366575428087e-01   -1.459077064633289e-04   -9.192623263833716e-05   -1.618915777352923e-04   9.198672480632432e-05    4.879315961979129e-01    -8.649621822139764e-01   
4.047000000000000e+09    4.962647064609031e-01    -8.628391990589180e-01   1.011357011344720e-04    -3.457876768757902e-05   4.477378916251371e-05    -3.514232477726769e-05   4.875318375323769e-01    -8.654946934642075e-01   
4.048000000000000e+09    4.949230786350667e-01    -8.637004792552964e-01   8.672841871329306e-05    -6.731708938965852e-05   -5.047906272394107e-05   -4.670315413690426e-05   4.874835514233596e-01    -8.663711965725663e-01   
4.049000000000000e+09    4.938548100285116e-01    -8.642974025072465e-01   9.564551411453841e-06    1.631559449514466e-04    -7.374895868088067e-05   6.972334439236328e-05    4.870612889072288e-01    -8.671643583123340e-01   
4.050000000000000e+09    4.927758452694831e-01    -8.650026916513530e-01   1.109872314668497e-05    1.122171990666652e-06    1.678679283486217e-05    1.484932015789869e-04    4.869981431291642e-01    -8.677047494434906e-01   
4.051000000000000e+09    4.918358752948948e-01    -8.657470852703245e-01   3.795301374124630e-05    1.790183343909356e-04    1.099162465631251e-04    8.966351897252686e-05    4.865843830777665e-01    -8.680935789921045e-01   
4.052000000000000e+09    4.906350378572758e-01    -8.664395401742075e-01   1.128536287564044e-04    -2.664646400346344e-04   8.364046000429726e-05    -4.714440637539557e-05   4.860403482876981e-01    -8.685867407967042e-01   
4.053000000000000e+09    4.896898916589720e-01    -8.672578640755157e-01   6.241109967823504e-05    -1.195058049925294e-04   1.886327764433728e-04    -8.851006379294076e-05   4.862245531034106e-01    -8.692741583981244e-01   
4.054000000000000e+09    4.885377668070314e-01    -8.679085833132910e-01   -1.345896431500734e-04   2.927509733848598e-04    3.829420177352487e-05    9.184658064046007e-05    4.859891723466507e-01    -8.695533817774956e-01   
4.055000000000000e+09    4.879540043756943e-01    -8.687138393097015e-01   -5.959689106634828e-05   1.045142313347496e-04    1.545345390159382e-04    -5.901866460527983e-05   4.858724418214972e-01    -8.701754433103084e-01   
4.056000000000000e+09    4.866057100919813e-01    -8.695403454849672e-01   -2.713445632350042e-04   3.781752815431805e-06    1.317299301879661e-04    2.661190996416068e-05    4.857972259868925e-01    -8.704739727532231e-01   
4.057000000000000e+09    4.857149899952002e-01    -8.701521120278928e-01   -7.612691854559276e-05   1.556845572195043e-04    -8.491764766016572e-05   -1.308518537301263e-04   4.855907831587291e-01    -8.705536266564226e-01   
4.058000000000000e+09    4.846443320440173e-01    -8.709826913919753e-01   4.944056756875455e-06    -1.501191864153848e-04   2.688970348114998e-05    -6.078247855264765e-05   4.855606056499443e-01    -8.708511711084194e-01   
4.059000000000000e+09    4.838537388726456e-01    -8.716751722020168e-01   -1.147054447639178e-05   1.398064957705161e-04    1.381882719761274e-04    -3.188083676953394e-05   4.851659520063454e-01    -8.712343457405514e-01   
4.060000000000000e+09    4.830386806609764e-01    -8.725850020128167e-01   -9.810159975266073e-05   5.373930714841826e-05    -5.828531151811211e-05   2.115574438340607e-04    4.850881520367442e-01    -8.710748809893346e-01   
4.061000000000000e+09    4.822300728240278e-01    -8.733450420990920e-01   -4.785660252322365e-06   -1.174244227274325e-05   3.705751219367580e-06    -1.098341439775312e-04   4.849035131032646e-01    -8.710428531667184e-01   
4.062000000000000e+09    4.812429761686374e-01    -8.739104422662664e-01   -1.323565534980940e-04   -1.060222547511956e-05   -3.278788387965635e-05   -1.357193006388025e-05   4.846447036255747e-01    -8.711338269956819e-01   
4.063000000000000e+09    4.804881753134955e-01    -8.747353616543859e-01   -3.743083794182288e-05   -1.488307312426718e-05   -1.963582172404998e-06   1.341640067339165e-05    4.843817462840643e-01    -8.709233894303916e-01   
4.064000000000000e+09    4.798270067572016e-01    -8.756303449975590e-01   -2.620208201557989e-05   1.144865153568340e-04    8.674221572165480e-05    5.893618209744774e-06    4.843760830857520e-01    -8.709223456168868e-01   
4.065000000000000e+09    4.791970171591483e-01    -8.762358570727041e-01   -2.994624673289531e-05   -1.057075620474694e-04   3.734211181920181e-05    2.191395280527705e-05    4.837458146663377e-01    -8.707044296151862e-01   
4.066000000000000e+09    4.781838694407083e-01    -8.773488393833798e-01   2.192429608304369e-05    7.714857769413651e-05    -5.938896571808197e-05   -1.745251283380590e-04   4.833840994129633e-01    -8.705573834110419e-01   
4.067000000000000e+09    4.772310311459984e-01    -8.777694067765490e-01   1.341341833320165e-04    2.108784517955651e-04    4.403057832071992e-06    -4.259809639641550e-05   4.826822621242847e-01    -8.703419799849382e-01   
4.068000000000000e+09    4.767705571425976e-01    -8.785756556233009e-01   4.415100057656805e-05    4.150392687556330e-05    8.918914436159493e-05    -8.853233730739335e-05   4.820827965819390e-01    -8.696624415164537e-01   
4.069000000000000e+09    4.761723092351507e-01    -8.794601249450833e-01   -4.987800476958380e-05   -1.334744566257397e-04   -5.327851398858268e-06   1.983405623694345e-04    4.816569381290153e-01    -8.696301315239960e-01   
4.070000000000000e+09    4.754990302373669e-01    -8.801113399278407e-01   1.367081192616837e-04    1.676001033175173e-04    -7.585347796349645e-05   1.824450027945612e-05    4.806447067430887e-01    -8.691981006977110e-01   
4.071000000000000e+09    4.746545791068811e-01    -8.809304671480273e-01   -8.760297260997215e-05   -1.619311933601351e-04   -2.626854239031490e-04   -1.593369290040301e-04   4.799785163892255e-01    -8.690387429841920e-01   
4.072000000000000e+09    4.734697314707332e-01    -8.816693913905778e-01   -2.500514532689017e-04   -1.524281005403131e-04   3.389202215846763e-05    -7.147300049815466e-05   4.789451301128028e-01    -8.684890614871027e-01   
4.073000000000000e+09    4.730637848663500e-01    -8.820978080348804e-01   1.518929206917238e-04    2.562785749571890e-04    3.452513761396061e-05    -3.798741648087306e-05   4.781540853773522e-01    -8.682755392567174e-01   
4.074000000000000e+09    4.725754019300725e-01    -8.828581404820547e-01   -1.066013838840849e-04   1.413699874864097e-04    -4.940542711754414e-05   9.473063550964806e-05    4.771292636238658e-01    -8.681723199867932e-01   
4.075000000000000e+09    4.717276357319269e-01    -8.837050193575463e-01   1.039151964294119e-04    7.461617857635298e-05    -2.051516651746335e-05   6.157936678276332e-05    4.758213528496436e-01    -8.678042341202333e-01   
4.076000000000000e+09    4.707512581001203e-01    -8.842853017561917e-01   4.508692517289607e-05    1.575461458447029e-04    5.848923570764982e-05    1.099438701010819e-04    4.747139152432660e-01    -8.676100390822273e-01   
4.077000000000000e+09    4.700902293643767e-01    -8.852918224462850e-01   3.869956967848785e-06    -3.917076896104156e-05   -7.915070646257950e-05   -3.918037488806412e-05   4.731904395898321e-01    -8.673076209545059e-01   
4.078000000000000e+09    4.691570260597379e-01    -8.859314734867552e-01   -4.078381389971168e-06   -1.166584851573153e-05   -7.531907923289356e-05   -1.356560577146246e-04   4.718811318397690e-01    -8.671941056729449e-01   
4.079000000000000e+09    4.688645765610041e-01    -8.868774461283279e-01   -3.564948366483791e-05   6.358406898355822e-05    7.680815726191114e-05    -2.693922772271606e-05   4.702964762939917e-01    -8.668061232240638e-01   
4.080000000000000e+09    4.677868576387011e-01    -8.873998505222169e-01   9.696452907677155e-05    -2.496901767940793e-06   2.653346053809181e-05    8.865835278406246e-05    4.688180924308248e-01    -8.669710100246864e-01   
4.081000000000000e+09    4.671015721174134e-01    -8.883710648862725e-01   -1.293531604383309e-04   -2.075592984915925e-05   8.087599434985206e-05    -2.627681659208950e-05   4.669485757750628e-01    -8.670204332850706e-01   
4.082000000000000e+09    4.665473333054774e-01    -8.886753641380605e-01   6.142394262472434e-05    -5.533220060758710e-05   2.938191686089532e-05    -4.900628362810258e-05   4.653657663739089e-01    -8.669718726806989e-01   
4.083000000000000e+09    4.657929926733221e-01    -8.895672411122425e-01   5.405419316655664e-05    1.525635362676305e-04    1.563668344323025e-05    -4.535991340492758e-06   4.638362836452927e-01    -8.671836280658836e-01   
4.084000000000000e+09    4.650206594205966e-01    -8.902634334792634e-01   4.674977686002979e-05    -8.544262437446692e-05   2.893768769608711e-05    -1.518069718644657e-04   4.618143575978608e-01    -8.673100811774470e-01   
