[Version] 2.0
! Rohde & Schwarz Vector Network Analyzer
! Rohde-Schwarz,ZNL20-2Port,1323001220200009,1.71.1.10-23.02.1.238
! 
! Port Assignments:
! Nominal Port -> Actual Test Port
! --------------------------------
!   1 -> 1
!   2 -> 2

! Created: GMT+2 2025-01-16 20:29:07

# Hz S RI R 50

[Number of Ports] 2
[Two-Port Data Order] 21_12
[Number of Frequencies] 16001

[Network Data] 
! freq[Hz]               S11[Re]                  S11[Im]                  S21[Re]                  S21[Im]                  S12[Re]                  S12[Im]                  S22[Re]                  S22[Im]                  
4.000000000000000e+09    5.521797053197252e-01    -8.358287665805724e-01   7.084915070838643e-06    7.481553594965164e-05    7.245647950912311e-06    -1.704615359587270e-05   5.433828566588580e-01    -8.144018663838927e-01   
4.001000000000000e+09    5.508537660318288e-01    -8.366636253558978e-01   1.960312377708405e-04    -8.474083422550341e-05   -2.415332042259058e-05   2.422833735570695e-04    5.410647433124057e-01    -8.155194543336917e-01   
4.002000000000000e+09    5.499047582221218e-01    -8.372970214103812e-01   1.113055062229963e-04    -1.295989642899910e-05   4.139259210992632e-06    -1.137229363467898e-04   5.390156610508418e-01    -8.165208915918175e-01   
4.003000000000000e+09    5.484944023957470e-01    -8.381875734621468e-01   -4.354823798365288e-05   -9.585248567677941e-05   1.042735223976385e-04    -4.561998192861970e-05   5.373823276191522e-01    -8.174475501234048e-01   
4.004000000000000e+09    5.476655780048028e-01    -8.391919685513829e-01   -5.827752438322126e-05   1.493790552215368e-04    3.694882695294575e-06    -1.549574449081256e-04   5.351305231487550e-01    -8.186888078050952e-01   
4.005000000000000e+09    5.462816070514951e-01    -8.397421642694927e-01   1.660109801150546e-04    -9.729864052927407e-06   2.060949531675924e-04    8.917000768653536e-05    5.332935926103997e-01    -8.198536685481408e-01   
4.006000000000000e+09    5.454436204864457e-01    -8.402952740229269e-01   -2.272977876434281e-05   1.650195929036209e-04    1.177208491318785e-04    -1.510158867869704e-05   5.311395229152492e-01    -8.209062844004824e-01   
4.007000000000000e+09    5.443656474430746e-01    -8.415590135344683e-01   -2.788608860461106e-05   -1.850172755870157e-05   7.282652352344837e-05    8.045571538118986e-05    5.294152315890825e-01    -8.222476965553555e-01   
4.008000000000000e+09    5.427472272497355e-01    -8.426965919015525e-01   -1.316124462378932e-04   6.465290106430226e-05    -2.208897733078633e-04   3.546293354283617e-05    5.275417855406370e-01    -8.236000057203429e-01   
4.009000000000000e+09    5.417164599990734e-01    -8.431644614001726e-01   -1.349515776278133e-04   -1.329421077390373e-04   -2.156678844722455e-04   -1.354162222551568e-04   5.259014490918100e-01    -8.251212897866639e-01   
4.010000000000000e+09    5.408142886593703e-01    -8.439102273240285e-01   1.290167307512694e-04    1.762033512479549e-04    -8.192175378911827e-05   2.677986906863093e-05    5.237625791003715e-01    -8.263127402661384e-01   
4.011000000000000e+09    5.391291990341883e-01    -8.449181414951452e-01   -1.514929819142862e-05   7.389016259968677e-05    8.704180299860398e-05    -2.058511640979863e-04   5.218612068815572e-01    -8.276291181171600e-01   
4.012000000000000e+09    5.381554857114531e-01    -8.454937759738973e-01   1.039933271877704e-04    -2.738800476213953e-04   -1.047282556128045e-04   -1.100588498908142e-04   5.201597716733547e-01    -8.290461136157742e-01   
4.013000000000000e+09    5.372491394982968e-01    -8.458498911516336e-01   -1.070717039490566e-04   5.880030051208437e-05    1.735914292855366e-04    1.407998997402762e-04    5.185992663461584e-01    -8.305216129554213e-01   
4.014000000000000e+09    5.357842464608522e-01    -8.467436338653731e-01   2.420265919087083e-04    6.993611547785063e-05    -1.430132784370010e-04   8.668072185090384e-05    5.166576199509315e-01    -8.318328646842486e-01   
4.015000000000000e+09    5.345227062500251e-01    -8.475994767529154e-01   -1.378842608848404e-04   1.692083099804793e-04    -3.191462347388166e-05   6.137028921736417e-06    5.150784392197209e-01    -8.329003558167474e-01   
4.016000000000000e+09    5.337024449454085e-01    -8.480541820992744e-01   -4.829690969252746e-05   2.277323690566423e-04    5.824252806770888e-05    7.724235664724176e-05    5.138777139211449e-01    -8.348242967925510e-01   
4.017000000000000e+09    5.326173048615562e-01    -8.488404514644045e-01   -6.658747805014295e-05   -3.449034587668036e-05   1.163601382660609e-04    1.779051177023304e-04    5.124374456385901e-01    -8.362375960380524e-01   
4.018000000000000e+09    5.311574246575329e-01    -8.495638373731990e-01   1.030691708824659e-04    1.213946359731951e-04    1.805872927230013e-05    4.990427495955738e-05    5.111939580652711e-01    -8.370711493890475e-01   
4.019000000000000e+09    5.303470749795099e-01    -8.496460047687223e-01   1.932850087659260e-04    -3.691046082528324e-05   -1.367206499086033e-04   6.668875810322285e-05    5.096409235964399e-01    -8.387515091802901e-01   
4.020000000000000e+09    5.288772425814020e-01    -8.506173031423226e-01   -1.183107113011360e-04   -6.548933919635219e-05   6.156624478016670e-05    8.541783579570071e-05    5.079716397171372e-01    -8.398269193608008e-01   
4.021000000000000e+09    5.278958943485517e-01    -8.509298416860139e-01   3.463336407536714e-05    -1.174434865524371e-04   1.670119954220564e-04    -8.969902396991029e-06   5.069703046113039e-01    -8.408693143689182e-01   
4.022000000000000e+09    5.265027642170197e-01    -8.518034520528142e-01   -1.536384146454983e-05   1.081827104855297e-05    3.622896395603811e-05    3.074791374022615e-05    5.058921335160017e-01    -8.422263999758820e-01   
4.023000000000000e+09    5.257880830802860e-01    -8.519197616920410e-01   -5.932258601717776e-05   -2.564149612955241e-04   -1.182861215747981e-04   -1.781702175615071e-04   5.046714292715390e-01    -8.438600842208785e-01   
4.024000000000000e+09    5.248049411238220e-01    -8.523062592873717e-01   -1.744376293046748e-04   -8.467819133873359e-05   -9.943167485016100e-05   -4.612046240760793e-05   5.037016178667799e-01    -8.446896751849665e-01   
4.025000000000000e+09    5.230961860563353e-01    -8.529526181115799e-01   -6.475581013054599e-05   1.120177954281311e-04    -9.856790199435496e-05   -2.703516758489910e-06   5.024950304904697e-01    -8.459986403257337e-01   
4.026000000000000e+09    5.220165673351741e-01    -8.529085593489096e-01   -5.713771661864639e-05   -5.485360506382050e-05   4.340562263583568e-05    -2.048662614751952e-06   5.017108573755030e-01    -8.473377006693159e-01   
4.027000000000000e+09    5.211715094603721e-01    -8.534897117542082e-01   1.026974694153605e-04    6.327913303995495e-05    -3.594163936780353e-04   -3.411837458579303e-05   5.007731803412175e-01    -8.482000335162740e-01   
4.028000000000000e+09    5.196221471594245e-01    -8.537761419390966e-01   3.837736270467313e-05    1.250031579896634e-04    -9.390947642547044e-05   2.701758714224192e-05    4.998033254592199e-01    -8.492022967904880e-01   
4.029000000000000e+09    5.187665442831381e-01    -8.544517642912220e-01   1.704381854356279e-05    -6.494087060194798e-07   5.836977426604455e-05    2.565733794217592e-04    4.988892726915199e-01    -8.503943867636490e-01   
4.030000000000000e+09    5.176312588832167e-01    -8.546414229175753e-01   2.860269129885448e-05    6.168889078949158e-05    -1.671189998553385e-05   -6.244022237161982e-06   4.981350922405537e-01    -8.515436821813619e-01   
4.031000000000000e+09    5.164203160552945e-01    -8.551706330173400e-01   1.127602549074752e-04    9.189073439703101e-05    6.062720412860292e-05    -4.295117454613054e-05   4.975002399772874e-01    -8.525412585624218e-01   
4.032000000000000e+09    5.149955492642435e-01    -8.556132253114336e-01   -5.058838660570941e-05   4.556254887259313e-06    -8.516261614995511e-05   1.540652901309449e-06    4.966941770415589e-01    -8.535122515149681e-01   
4.033000000000000e+09    5.138548582354295e-01    -8.555032757135882e-01   1.788289123005018e-05    -1.331485402802745e-04   1.352657075863589e-04    -2.004984266217939e-05   4.957556382075436e-01    -8.542895022209062e-01   
4.034000000000000e+09    5.127640209516078e-01    -8.561372796392922e-01   -2.261565684781899e-05   8.281020277675581e-05    -5.185411545759629e-05   -2.001294177317931e-05   4.951513368207388e-01    -8.553264497748108e-01   
4.035000000000000e+09    5.111004456581429e-01    -8.567437889188423e-01   9.858164584686783e-05    1.044480838100252e-04    1.601501405969828e-04    -2.088120424231476e-05   4.944261906355326e-01    -8.561540683184675e-01   
4.036000000000000e+09    5.100485366056156e-01    -8.570897449697367e-01   -2.818999178990277e-04   5.104336184075061e-05    1.545473211513892e-04    -8.344317174448189e-06   4.939593654125845e-01    -8.571407771958061e-01   
4.037000000000000e+09    5.088247905580252e-01    -8.574128752607779e-01   -7.634693636432273e-05   1.620399203270937e-04    1.213310320115187e-04    -2.663228302789098e-05   4.932770469571770e-01    -8.581041148654548e-01   
4.038000000000000e+09    5.074074419363583e-01    -8.578682099126991e-01   -1.795901047474288e-06   1.442879009150266e-04    7.471118716586509e-05    -7.834466576549236e-05   4.926568633670924e-01    -8.589140423575164e-01   
4.039000000000000e+09    5.063371031611750e-01    -8.582431472487658e-01   -9.514485916526731e-05   5.824604499163521e-05    -1.670115605843722e-04   6.417965056014865e-05    4.922486900751288e-01    -8.596439243016918e-01   
4.040000000000000e+09    5.049908181897654e-01    -8.586892207999296e-01   -3.236319999727085e-05   4.311513666516314e-06    1.279544039424252e-04    -1.342754175299989e-04   4.915102807051787e-01    -8.604303519983145e-01   
4.041000000000000e+09    5.036027728293272e-01    -8.592658211310911e-01   6.294568213555591e-05    -8.670836691417067e-05   3.079096274093832e-05    -1.193319173404489e-04   4.908528252330762e-01    -8.613249246997842e-01   
4.042000000000000e+09    5.024410365306813e-01    -8.599477000201420e-01   -5.339342600494310e-05   -3.962824442066132e-05   -3.617809436445412e-05   1.363680643327990e-04    4.905434031706487e-01    -8.621361665291416e-01   
4.043000000000000e+09    5.010594823551671e-01    -8.603199379434495e-01   -3.993796833149120e-05   1.877213954872232e-04    3.110560040383053e-05    -3.448692362370821e-05   4.901207169269929e-01    -8.628173945093061e-01   
4.044000000000000e+09    4.999728675317548e-01    -8.610421561587118e-01   -1.401791185635740e-04   2.180817866136183e-05    -7.989119786751126e-05   5.553953355900134e-05    4.892832969269309e-01    -8.637660408691631e-01   
4.045000000000000e+09    4.987310468459062e-01    -8.614777787550446e-01   2.825804975250674e-05    4.729325734762248e-05    2.538662686965084e-05    9.284293468465691e-05    4.892209535502344e-01    -8.640303335396358e-01   
4.046000000000000e+09    4.975170317595219e-01    -8.620221898706765e-01   -2.075526257236271e-05   2.158853616366969e-05    -4.844825868912860e-06   9.828783049835544e-06    4.890364029594202e-01    -8.648426814334093e-01   
4.047000000000000e+09    4.964536509551168e-01    -8.629161182499342e-01   -2.020639724113427e-06   1.143155711659026e-04    -1.022452091354660e-04   -1.240950888929212e-04   4.884471055269003e-01    -8.654188492695842e-01   
4.048000000000000e+09    4.951437249089814e-01    -8.633845892845726e-01   1.272653175368314e-04    4.686189518571106e-06    1.047211193856583e-04    6.793359495337056e-05    4.882025992964422e-01    -8.661315286136393e-01   
4.049000000000000e+09    4.940603222439254e-01    -8.643260347598203e-01   -1.169094522404395e-05   -3.981807464399086e-05   4.429524473785229e-05    1.381478879366114e-04    4.878240589529207e-01    -8.669991510165981e-01   
4.050000000000000e+09    4.932816150942464e-01    -8.648979801257677e-01   1.241278512769565e-05    1.170311735116016e-05    -9.496567395042285e-05   1.115399086533364e-04    4.876689792677017e-01    -8.673546194193537e-01   
4.051000000000000e+09    4.918557772087950e-01    -8.655640283103271e-01   8.847701906438507e-05    9.454047119441710e-05    -1.026642176026677e-04   -8.165093091904200e-05   4.873004566137032e-01    -8.681471212499201e-01   
4.052000000000000e+09    4.907953208868551e-01    -8.665284639949119e-01   6.608538896380481e-05    -8.897153015714774e-05   4.791745287581042e-05    2.602970924073989e-05    4.869446088213478e-01    -8.685233489752371e-01   
4.053000000000000e+09    4.898984343543596e-01    -8.672292897293173e-01   -2.081534449474393e-04   2.043753959246544e-04    -6.445310364560455e-05   1.017584149042494e-04    4.870642047084038e-01    -8.687065562855607e-01   
4.054000000000000e+09    4.888810964145369e-01    -8.679373652220864e-01   -2.213198262386482e-05   2.222186112067502e-04    1.664920171772262e-04    -1.331855350202764e-04   4.869972795052920e-01    -8.692295251722195e-01   
4.055000000000000e+09    4.880827608399245e-01    -8.684964195331522e-01   1.880363334504175e-04    -3.949180771611389e-05   1.771863983574615e-04    1.568759495294256e-04    4.867191157918640e-01    -8.697289237863667e-01   
4.056000000000000e+09    4.870211215970942e-01    -8.693761299094493e-01   -9.681110310832352e-05   1.052561882418866e-04    -8.876395370023695e-08   -1.276622266353062e-04   4.863002439568021e-01    -8.700553925486495e-01   
4.057000000000000e+09    4.861243897330533e-01    -8.700085282251561e-01   -1.726164656191684e-05   -1.614687904205576e-05   -1.019896143696773e-04   5.671641069831428e-05    4.862775730887016e-01    -8.704598072684935e-01   
4.058000000000000e+09    4.846917707795676e-01    -8.708176557431974e-01   -4.653570448380098e-05   1.997044352586690e-04    -4.387419620147027e-05   1.980328551410168e-05    4.864370912346691e-01    -8.704166812834742e-01   
4.059000000000000e+09    4.841416359259670e-01    -8.716403004051674e-01   -4.907909140766067e-05   -5.154916848193208e-05   1.191501176118668e-04    -7.475678587106148e-05   4.860149305206944e-01    -8.705967874637724e-01   
4.060000000000000e+09    4.834134910494807e-01    -8.724566016420163e-01   2.124970766812160e-05    3.255984602753474e-05    8.683863240884809e-05    4.975690231336811e-05    4.861164533087888e-01    -8.712118744926914e-01   
4.061000000000000e+09    4.824857082221308e-01    -8.732201570192242e-01   1.689560138404959e-05    7.120266060892093e-05    -1.642556859774042e-04   1.951959131009427e-04    4.858893532195780e-01    -8.710554173697448e-01   
4.062000000000000e+09    4.817324341700611e-01    -8.739011036364962e-01   1.742502768431687e-04    3.079395213644939e-05    -5.403147498426728e-05   -5.327043956845823e-05   4.853220080603682e-01    -8.709322340814908e-01   
4.063000000000000e+09    4.808024986377276e-01    -8.747991364041479e-01   -7.041450928938392e-05   1.188079768476067e-04    -4.503193543924984e-05   -1.551055369930652e-05   4.849040725979841e-01    -8.707968899995655e-01   
4.064000000000000e+09    4.800987785505147e-01    -8.751253652048164e-01   -1.118832697652329e-04   -5.320897281786996e-05   8.337281045556343e-05    -1.460794981272197e-04   4.847420906204742e-01    -8.707978269182001e-01   
4.065000000000000e+09    4.793713874354513e-01    -8.762159823942604e-01   2.278719104105658e-04    1.397642062223429e-04    4.378300500563926e-05    6.446595381144705e-05    4.846766483283482e-01    -8.704131309859682e-01   
4.066000000000000e+09    4.783864831628897e-01    -8.769949284076126e-01   1.637803974773942e-04    1.277942653519773e-04    3.436516760686039e-05    6.734303709925541e-05    4.840350612199951e-01    -8.701423843311782e-01   
4.067000000000000e+09    4.777364731663412e-01    -8.778458998181367e-01   -9.071945034138364e-06   -1.074259162230702e-05   -4.144463391129461e-05   1.797881457380219e-04    4.835222330365398e-01    -8.698374908736272e-01   
4.068000000000000e+09    4.773694869513870e-01    -8.786396445647097e-01   -8.702299126804908e-06   8.308833004799383e-06    7.295430420217917e-05    -1.435883341059179e-04   4.831134106079991e-01    -8.697141171829985e-01   
4.069000000000000e+09    4.765374867761377e-01    -8.792115843468691e-01   -1.033799893845771e-04   -1.752626030010486e-04   -3.697140443956884e-07   5.356757961531605e-05    4.821139360430064e-01    -8.691845913605519e-01   
4.070000000000000e+09    4.754085495475260e-01    -8.799912648664104e-01   6.745559497723055e-05    -9.522277547547983e-06   -1.589622052472189e-05   -5.761070207249066e-05   4.814958691863822e-01    -8.689189894654862e-01   
4.071000000000000e+09    4.751108941935981e-01    -8.803166560050903e-01   1.435421269787079e-04    1.140914804909862e-05    -2.037286981397035e-04   -9.257795689055427e-05   4.807228888721336e-01    -8.687621327160767e-01   
4.072000000000000e+09    4.739735347154698e-01    -8.814654207590451e-01   -1.550181611265871e-04   1.026016009495183e-04    -9.055666142612300e-05   -1.272272822851828e-04   4.798327559524536e-01    -8.682935677948640e-01   
4.073000000000000e+09    4.734927341613502e-01    -8.823781595285154e-01   1.149160139577602e-05    1.397141804004993e-04    -5.272331770555705e-05   -1.601655227981743e-05   4.788143905456553e-01    -8.680936229541886e-01   
4.074000000000000e+09    4.728840918973838e-01    -8.830272073186760e-01   -4.252715196702902e-06   1.612259582675698e-05    9.192347094110861e-05    -5.473144802775537e-05   4.777402752966588e-01    -8.678432500991002e-01   
4.075000000000000e+09    4.719004810491009e-01    -8.837994041408080e-01   -7.910750431090090e-06   9.123667325214362e-05    1.069973012140079e-04    1.351660683534775e-05    4.764794117511787e-01    -8.676281480817588e-01   
4.076000000000000e+09    4.710489461596383e-01    -8.845053448085873e-01   8.372163602056271e-05    1.439607608121157e-05    -8.250952674818104e-05   1.276642991493035e-04    4.753733345021819e-01    -8.672131855796505e-01   
4.077000000000000e+09    4.705269196522454e-01    -8.852143712246500e-01   -8.182204857654152e-05   -4.063200540554934e-05   -1.405522666364699e-04   -5.421828909065913e-07   4.740829683220347e-01    -8.671063692487344e-01   
4.078000000000000e+09    4.699025231645598e-01    -8.859076516850560e-01   8.982951601552996e-05    -3.636133338890424e-05   -1.284182249198075e-04   1.989030400119093e-05    4.725962256921957e-01    -8.667863682201367e-01   
4.079000000000000e+09    4.691955773960657e-01    -8.865878907476422e-01   -1.568616953185063e-05   -8.683339412824430e-06   -4.800388997391254e-05   6.507784336427031e-06    4.709824964109539e-01    -8.667713826532589e-01   
4.080000000000000e+09    4.681119588265391e-01    -8.872999849245184e-01   -1.048844810171637e-04   1.379872774746627e-04    1.556949282524233e-04    8.873288092583935e-05    4.695412484467522e-01    -8.667285224645377e-01   
4.081000000000000e+09    4.675043803319165e-01    -8.883065768594188e-01   4.250444561940602e-05    -1.457277350508543e-04   -1.866113872099911e-05   1.020292792648242e-04    4.679110869557588e-01    -8.667707708386928e-01   
4.082000000000000e+09    4.670280956407826e-01    -8.884333361192265e-01   -1.092009572460382e-05   4.541113210835633e-06    9.175517739336888e-05    -1.009187397217222e-05   4.664105604903222e-01    -8.666646882889749e-01   
4.083000000000000e+09    4.659685620239105e-01    -8.893306274460968e-01   -1.280298500508446e-04   -2.750670618148247e-05   5.534761376355490e-05    -4.980247136023411e-05   4.642976381827785e-01    -8.668356163757513e-01   
4.084000000000000e+09    4.655691644471026e-01    -8.903438611561129e-01   -1.217176154425266e-04   -6.447209564035611e-05   -1.451097578040605e-05   -6.541951191934701e-05   4.624850000789886e-01    -8.667609424433603e-01   
