[Version] 2.0
! Rohde & Schwarz Vector Network Analyzer
! Rohde-Schwarz,ZNL20-2Port,1323001220200009,1.71.1.10-23.02.1.238
! 
! Port Assignments:
! Nominal Port -> Actual Test Port
! --------------------------------
!   1 -> 1
!   2 -> 2

! Created: GMT+2 2025-01-16 20:30:50

# Hz S RI R 50

[Number of Ports] 2
[Two-Port Data Order] 21_12
[Number of Frequencies] 16001

[Network Data] 
! freq[Hz]               S11[Re]                  S11[Im]                  S21[Re]                  S21[Im]                  S12[Re]                  S12[Im]                  S22[Re]                  S22[Im]                  
4.000000000000000e+09    5.538309787159995e-01    -8.342982178432146e-01   5.378304869811035e-05    -1.331872553868592e-05   -2.850199747339649e-05   7.088244034925809e-05    5.444352743151659e-01    -8.133533580703889e-01   
4.001000000000000e+09    5.521340213621180e-01    -8.352529459812565e-01   6.008865654594906e-05    2.413482672862191e-04    9.968037157166866e-05    -1.290725322705585e-04   5.425414974073025e-01    -8.147123598068956e-01   
4.002000000000000e+09    5.515916996141830e-01    -8.358579219201465e-01   -1.235439192452560e-04   1.378819724587310e-04    -1.039630581997959e-04   6.833349181454193e-05    5.405472383517392e-01    -8.153380151959191e-01   
4.003000000000000e+09    5.502448557456525e-01    -8.365070573002685e-01   -9.510126284965779e-05   1.818545834456199e-05    3.072212480039047e-04    1.498374137069495e-05    5.383909629467223e-01    -8.166354392739036e-01   
4.004000000000000e+09    5.491568110863863e-01    -8.378902678744917e-01   1.325351758188706e-04    -3.907657229637604e-05   -6.753220875634851e-05   -1.120379130631963e-04   5.365556701250379e-01    -8.179387302298519e-01   
4.005000000000000e+09    5.479215028309257e-01    -8.387586346813701e-01   -1.952618435908055e-05   -1.341730344783363e-04   2.973741687580577e-05    4.363011309908520e-06    5.347700724543571e-01    -8.188666203416566e-01   
4.006000000000000e+09    5.470902399578320e-01    -8.395512595002073e-01   5.914212196147741e-05    -1.225445404117899e-04   -1.856341369686841e-04   3.690004736542570e-05    5.326762869415653e-01    -8.200339043763708e-01   
4.007000000000000e+09    5.455926945447767e-01    -8.401322742710279e-01   -1.998603844060480e-04   1.194071280053153e-04    1.021114926390428e-04    1.641673159422757e-04    5.308540628598759e-01    -8.213657321079730e-01   
4.008000000000000e+09    5.448394019185338e-01    -8.413901741348606e-01   1.329863462473348e-04    -8.469891044727900e-05   -1.968822400629708e-04   -6.722849799980044e-05   5.288387306810413e-01    -8.226321171815052e-01   
4.009000000000000e+09    5.431011415119120e-01    -8.419738440511061e-01   6.529493290983544e-05    -3.954340457717671e-05   1.230955445359246e-05    1.296295454579094e-04    5.266473345363764e-01    -8.239428387856981e-01   
4.010000000000000e+09    5.417587064959120e-01    -8.429922146990870e-01   8.869769526784911e-05    4.682014708300143e-05    1.598050403603084e-04    -1.304483505273700e-04   5.249641364860524e-01    -8.258270564020819e-01   
4.011000000000000e+09    5.407731225692468e-01    -8.434071851537814e-01   3.497393346184578e-05    -8.647771970678373e-05   -8.087291216788130e-05   -1.076888804200299e-05   5.232749152188262e-01    -8.269822411058234e-01   
4.012000000000000e+09    5.398833805187846e-01    -8.444085994276082e-01   6.993250727086958e-05    -5.760667067941340e-05   -5.595993268629893e-05   -4.135936527202904e-05   5.216061900215654e-01    -8.280486306099165e-01   
4.013000000000000e+09    5.384952230663561e-01    -8.444741997083275e-01   -6.022035543112910e-05   -1.962076826613600e-05   2.119143782698780e-04    -8.789694406492244e-05   5.199375961999733e-01    -8.296896872793144e-01   
4.014000000000000e+09    5.369726289699273e-01    -8.457034071599212e-01   1.401204502866172e-04    2.546153507992049e-05    -1.176776352491679e-04   4.328332385289888e-05    5.181573092532423e-01    -8.309860175314498e-01   
4.015000000000000e+09    5.358943081706583e-01    -8.463228210450972e-01   1.449889398154453e-04    1.083728501150102e-04    -9.950828705604766e-05   -1.441683241504466e-04   5.168478868798952e-01    -8.323568555450737e-01   
4.016000000000000e+09    5.351117110585526e-01    -8.472166509131369e-01   6.019582525906709e-05    -1.469534339467083e-04   -3.594758160783846e-05   1.040213335228122e-04    5.152639599508626e-01    -8.338687530091731e-01   
4.017000000000000e+09    5.339415818439377e-01    -8.473176017832286e-01   8.277112828065190e-05    1.319136817323186e-04    -1.637357944721279e-04   -4.059134396625358e-05   5.137092096415947e-01    -8.351320383789136e-01   
4.018000000000000e+09    5.328104573403220e-01    -8.480317912843561e-01   -1.215729175019389e-05   -9.351065264359125e-05   5.957061055618265e-05    5.502070708508711e-05    5.125123428948077e-01    -8.363796431174632e-01   
4.019000000000000e+09    5.314487540653134e-01    -8.483811496455387e-01   -3.794331088761701e-05   5.066101965975927e-05    -1.567398405457774e-04   4.833015005088360e-05    5.108346485675380e-01    -8.377642991119026e-01   
4.020000000000000e+09    5.301388403704335e-01    -8.491781698466495e-01   -5.487636483722453e-05   2.251760807931975e-05    -2.109604617564872e-04   1.327690377204687e-04    5.097033785214807e-01    -8.390216368734522e-01   
4.021000000000000e+09    5.293276895830911e-01    -8.495189292012552e-01   8.331743719022874e-05    -1.811722658087382e-04   6.817157418888978e-05    4.888077670671855e-05    5.083793967449564e-01    -8.403345476556172e-01   
4.022000000000000e+09    5.280760402491328e-01    -8.502011439358169e-01   3.332978007448814e-05    1.087115988395584e-04    -1.234224324507055e-04   -2.109577488195734e-05   5.072672856479499e-01    -8.414874858276338e-01   
4.023000000000000e+09    5.271982862576293e-01    -8.505026230895882e-01   -3.291179463191832e-05   1.474583517018154e-04    -1.344324122253578e-04   7.304451704585195e-05    5.063792969422418e-01    -8.428803539765271e-01   
4.024000000000000e+09    5.258938411984134e-01    -8.512590899504141e-01   -9.774728669580022e-05   1.469324865122172e-04    2.943186296819017e-05    1.360162532250886e-04    5.051643850554550e-01    -8.442069486153289e-01   
4.025000000000000e+09    5.246334728419162e-01    -8.514168524638488e-01   -1.812402274604892e-04   -6.034418255530672e-05   -1.529486283597836e-04   -2.175433131899132e-04   5.041002069155484e-01    -8.450479359766524e-01   
4.026000000000000e+09    5.233239240695813e-01    -8.517402167784478e-01   4.413592015167253e-05    1.542344700181625e-04    -1.061815464459964e-04   -8.663861676381505e-05   5.031822519014344e-01    -8.464967273779033e-01   
4.027000000000000e+09    5.224631216286764e-01    -8.523201705886788e-01   -1.423385957874735e-04   -8.819747977991051e-05   4.771343183292973e-05    -5.120503106660201e-05   5.022088531925248e-01    -8.471944868261565e-01   
4.028000000000000e+09    5.210741635917948e-01    -8.526933509624068e-01   -1.064887921552233e-04   -3.042915786276255e-05   1.044421295155447e-04    1.880046565520710e-04    5.010824402031290e-01    -8.487256889192986e-01   
4.029000000000000e+09    5.197123603484656e-01    -8.534892765553860e-01   -1.401166817278265e-04   2.627445436762183e-04    2.069223942351607e-07    -8.221076232293685e-05   5.002161077618993e-01    -8.496217595198341e-01   
4.030000000000000e+09    5.188233984138659e-01    -8.536153997007386e-01   -4.337558516489384e-05   -1.154238249664516e-05   3.153758970286308e-04    -7.848145624995146e-05   4.994914043790351e-01    -8.506651895595024e-01   
4.031000000000000e+09    5.178339969640956e-01    -8.538948013778865e-01   4.372784983946647e-05    8.365930617945556e-05    -9.393059237316027e-05   -7.825819800088767e-05   4.990525843604841e-01    -8.516164409912051e-01   
4.032000000000000e+09    5.163618258000697e-01    -8.543033901244238e-01   -1.459893845912788e-04   1.292015442774819e-04    -1.850111434339708e-04   -6.489049942976965e-05   4.981588228947826e-01    -8.527875432278432e-01   
4.033000000000000e+09    5.152572682251705e-01    -8.546594111833186e-01   7.130505647292052e-05    1.392093703777811e-04    -1.777993445680236e-04   -1.745270750638353e-04   4.973020156130883e-01    -8.534987820491720e-01   
4.034000000000000e+09    5.138117304373025e-01    -8.550333651176717e-01   -2.347461424916647e-04   -2.377796244213644e-06   -1.222427565066401e-04   1.719320900331469e-04    4.965495853474786e-01    -8.544414090293895e-01   
4.035000000000000e+09    5.126211387947832e-01    -8.557025108229969e-01   3.319768603671411e-05    -2.218327840443719e-04   1.277845244691749e-04    -6.754892886481133e-05   4.959717000680294e-01    -8.553232860822036e-01   
4.036000000000000e+09    5.114091546520434e-01    -8.559007048723937e-01   -4.394582153928495e-05   4.555848828736746e-05    8.847156859564667e-05    -2.511059518834182e-04   4.955065606745292e-01    -8.562494483933384e-01   
4.037000000000000e+09    5.101420135357946e-01    -8.564647103189590e-01   -1.442666339652234e-04   6.846743314367655e-05    -1.197457569814062e-04   9.391525332719943e-05    4.948112219794739e-01    -8.572742655989800e-01   
4.038000000000000e+09    5.090781778236271e-01    -8.567708823143195e-01   -6.503596128829280e-05   -8.199200935284254e-05   -2.006066778765249e-05   2.735311121849713e-05    4.941692341890696e-01    -8.580110620169128e-01   
4.039000000000000e+09    5.076331266369682e-01    -8.572034020174567e-01   5.356324793456915e-05    -2.198628495444817e-04   6.395186831303877e-05    2.823698597256231e-05    4.937491860135350e-01    -8.588019689353066e-01   
4.040000000000000e+09    5.063084846628633e-01    -8.579034071132097e-01   1.018540555198490e-04    8.530946359205207e-05    7.300091926401872e-05    -2.565279050603183e-05   4.929063913874142e-01    -8.593186392730633e-01   
4.041000000000000e+09    5.050818763643764e-01    -8.581999835976611e-01   -2.205362451761359e-05   -7.380615644536336e-05   8.346684520953700e-06    -8.649349324396550e-05   4.922706211081673e-01    -8.605110914199073e-01   
4.042000000000000e+09    5.035970411580429e-01    -8.590157412940358e-01   2.309475234761847e-07    -5.608687558317220e-05   9.862514302428858e-05    1.482547768501386e-04    4.920545012164816e-01    -8.612152449066983e-01   
4.043000000000000e+09    5.024739562975342e-01    -8.594905546957693e-01   -1.558271748694614e-05   3.427159789804187e-04    -8.164451284149091e-05   3.675030071067671e-06    4.914825709248530e-01    -8.618873868250587e-01   
4.044000000000000e+09    5.013484391599434e-01    -8.602104748729299e-01   -1.253779312807539e-04   -1.042915633084043e-04   7.879799121914162e-05    8.371136158587696e-05    4.912756692632939e-01    -8.628130126922969e-01   
4.045000000000000e+09    4.999475973710526e-01    -8.605427959051172e-01   9.539162413400279e-05    -1.646529574100537e-04   9.193175359189555e-05    9.570309713110186e-05    4.907937762733617e-01    -8.634833704318364e-01   
4.046000000000000e+09    4.988326073497066e-01    -8.611345471183217e-01   9.247213773440159e-05    -2.365217573811472e-04   -2.089306962202613e-05   1.353924126086004e-06    4.904250297193085e-01    -8.638114829724121e-01   
4.047000000000000e+09    4.979703679839881e-01    -8.619091643516318e-01   -7.070250595451879e-05   1.487011040580752e-04    1.267721838092247e-05    6.808901646215842e-06    4.900597229564496e-01    -8.644628852228069e-01   
4.048000000000000e+09    4.966951684146025e-01    -8.625148136363727e-01   1.109722764385811e-05    -1.274504730031005e-05   -6.962712938262683e-05   -7.399674636428259e-05   4.898592722828007e-01    -8.654938388147438e-01   
4.049000000000000e+09    4.953396633363742e-01    -8.633772626112950e-01   4.302374094201144e-05    1.260307186574706e-04    1.360852649591690e-04    6.288207410254997e-06    4.893192926613782e-01    -8.659476042939556e-01   
4.050000000000000e+09    4.945443018361132e-01    -8.641329082156995e-01   1.878853248281944e-05    4.984815873296338e-05    1.473118421161874e-04    -6.631061623771836e-05   4.892995983135646e-01    -8.665818151633835e-01   
4.051000000000000e+09    4.935450241723788e-01    -8.647637137012663e-01   -2.884805487179983e-06   -1.270546218064392e-04   -1.272064344883097e-04   -4.479882965733506e-05   4.890186493145434e-01    -8.668993999924824e-01   
4.052000000000000e+09    4.925665849035768e-01    -8.655151045763068e-01   1.250905297965249e-04    -8.318157188106030e-05   -1.039560689602769e-04   6.906625635127348e-05    4.884996586618953e-01    -8.676871848611442e-01   
4.053000000000000e+09    4.913330398663782e-01    -8.660580568067309e-01   -4.814538684665477e-05   -7.365739162098091e-05   -1.252417393344767e-04   3.778200926292168e-05    4.883346823399525e-01    -8.681100044088287e-01   
4.054000000000000e+09    4.904024227824404e-01    -8.669253255215499e-01   4.814993502221465e-05    -1.523825323591115e-04   4.159059572548587e-05    1.841583641763511e-05    4.883992786940785e-01    -8.684762805567576e-01   
4.055000000000000e+09    4.896144098452236e-01    -8.676116001994776e-01   -9.948065212714062e-05   -3.094763518013057e-05   1.322071114243040e-04    5.029246948201982e-05    4.885091686994689e-01    -8.689924690054541e-01   
4.056000000000000e+09    4.884445083945154e-01    -8.684484140247625e-01   -7.295572729745765e-05   -1.365935503708496e-04   -1.106832401756094e-04   3.037085047343556e-05    4.879414142656720e-01    -8.692743404774881e-01   
4.057000000000000e+09    4.875900801892399e-01    -8.692836009400923e-01   5.071838105294407e-05    1.557087515376491e-04    2.213955689041416e-05    4.133433764313627e-05    4.877546485835771e-01    -8.692897327202349e-01   
4.058000000000000e+09    4.865555951099317e-01    -8.698456578563191e-01   -2.704200147828270e-05   1.480296846725630e-04    1.074035688220455e-05    -1.218466138959756e-04   4.877588823098307e-01    -8.698176364784694e-01   
4.059000000000000e+09    4.857550956002117e-01    -8.708609547516337e-01   -2.075893204582030e-04   -3.286511261808773e-05   -1.815428982878684e-05   4.712784041033023e-05    4.875217984776375e-01    -8.698629127728676e-01   
4.060000000000000e+09    4.850398168040622e-01    -8.714760126745804e-01   -8.668479791120952e-05   8.657677146605944e-05    -2.980364932181997e-05   -4.223120536515332e-05   4.873313360308288e-01    -8.698061846549447e-01   
4.061000000000000e+09    4.838054027317648e-01    -8.724490359474788e-01   -3.810217856110838e-05   1.085046597558556e-04    -5.048840210170161e-05   1.749689463813554e-04    4.872563306011429e-01    -8.701141703087224e-01   
4.062000000000000e+09    4.835134777109572e-01    -8.731536620236923e-01   1.308333894572698e-04    -8.746068209705963e-05   -1.701940199714135e-05   7.572976200277034e-06    4.870771253970931e-01    -8.697265420411545e-01   
4.063000000000000e+09    4.827017478163848e-01    -8.737318878182998e-01   -1.434117676773576e-04   -5.469792349218538e-05   -1.671552773364810e-05   -1.500180305515324e-04   4.867469334286098e-01    -8.699760628212511e-01   
4.064000000000000e+09    4.817138502252966e-01    -8.744314754889344e-01   -1.013586978368022e-04   -2.317270472066054e-05   -9.542064791224255e-05   -2.072036649641250e-04   4.862524613150567e-01    -8.695642204021439e-01   
4.065000000000000e+09    4.810534319204004e-01    -8.751374762724150e-01   5.670521758364498e-05    5.055026373155489e-05    4.166615744445884e-05    -5.408679799136823e-06   4.859627155728469e-01    -8.693997505863984e-01   
4.066000000000000e+09    4.802074017407202e-01    -8.759474834611085e-01   1.096583494401684e-05    2.554925596538213e-05    1.521717031770148e-04    -8.461491101688408e-05   4.857605499348148e-01    -8.693416805286655e-01   
4.067000000000000e+09    4.792309284684764e-01    -8.769143650983483e-01   -1.347948104192422e-04   2.296546809884230e-04    3.276063166022398e-05    -3.644251868650521e-05   4.847208583703691e-01    -8.689133094278152e-01   
4.068000000000000e+09    4.786836766750848e-01    -8.773449711237373e-01   1.278351755655936e-04    8.033218354871276e-05    -1.935369628707529e-04   -6.194094071914773e-05   4.842485553186508e-01    -8.686185895203585e-01   
4.069000000000000e+09    4.779372650327385e-01    -8.783586534431039e-01   4.458798994542104e-06    -2.486489133786821e-04   -2.813674854251040e-05   5.269619359892884e-05    4.836306865836293e-01    -8.684133332246665e-01   
4.070000000000000e+09    4.770959692042698e-01    -8.789571074936771e-01   4.162192178182890e-06    1.123551236724791e-04    -1.154060216269480e-05   -1.696530348926731e-05   4.827690624531862e-01    -8.679009474018043e-01   
4.071000000000000e+09    4.767980570325993e-01    -8.795920909877364e-01   2.441110998833082e-05    2.939569974248609e-05    -2.299813150105274e-04   3.240714622232826e-05    4.822742541631494e-01    -8.677966625905684e-01   
4.072000000000000e+09    4.759166030622181e-01    -8.804239322513666e-01   8.759769516389476e-05    -1.137490830442736e-05   -5.222097964712276e-05   1.987498017575191e-06    4.812240594823091e-01    -8.672993192800882e-01   
4.073000000000000e+09    4.750388765681679e-01    -8.813809190148054e-01   2.330033827608429e-05    3.574780443433824e-05    -7.173773343575436e-05   7.466303877904231e-05    4.803888853096941e-01    -8.669113905938280e-01   
4.074000000000000e+09    4.741644818542624e-01    -8.819541189507041e-01   2.375830510020564e-05    7.681201419661177e-06    -5.092172924195887e-05   -5.449215992870889e-05   4.789689519623327e-01    -8.669090720928945e-01   
4.075000000000000e+09    4.735622624883558e-01    -8.828496081518017e-01   -1.021465556277162e-04   -1.186953811861934e-05   5.488815222404116e-05    6.740934270134349e-05    4.779641522220198e-01    -8.665554609885256e-01   
4.076000000000000e+09    4.727378814281801e-01    -8.835684488204445e-01   6.726325783306761e-05    5.156924339768134e-05    -2.839637763412521e-05   -2.754714633058401e-05   4.767937705685591e-01    -8.665825442833134e-01   
4.077000000000000e+09    4.720561904036610e-01    -8.840302701960133e-01   4.688287179074779e-05    -1.014348236188885e-04   -5.774050244482977e-05   -2.803244987232647e-05   4.750238053514411e-01    -8.659373784464549e-01   
4.078000000000000e+09    4.713918718128424e-01    -8.845866244561407e-01   -2.635392532071821e-05   8.112930617996225e-05    -7.488498208792471e-05   5.186535280980216e-06    4.741600862803411e-01    -8.659088076856089e-01   
4.079000000000000e+09    4.706700253219598e-01    -8.856600342785474e-01   -7.403498954578017e-05   -4.523701920641326e-05   -7.071307960885132e-05   7.884215129322682e-06    4.725044650141026e-01    -8.658957055904154e-01   
4.080000000000000e+09    4.697548925828774e-01    -8.860740292633769e-01   5.539339809871798e-05    4.350514868431182e-05    -7.189397177279012e-05   9.815807486332826e-05    4.709210938712592e-01    -8.660212143246572e-01   
4.081000000000000e+09    4.693565146112589e-01    -8.869148527438906e-01   -1.038881847579249e-04   1.374360837019311e-04    1.308953255070555e-04    9.253210146416003e-05    4.691029629870226e-01    -8.658364548927530e-01   
4.082000000000000e+09    4.686024542998579e-01    -8.872591903351963e-01   5.536089159662168e-05    1.520962979578145e-04    1.960588620523201e-05    -2.437966212642465e-05   4.673985869394957e-01    -8.659079942299979e-01   
4.083000000000000e+09    4.678174662039403e-01    -8.883621844324655e-01   6.580378551131491e-06    -1.347459213372225e-05   -6.192750441932812e-05   5.548574458557092e-05    4.657623920671811e-01    -8.660781140145939e-01   
4.084000000000000e+09    4.669736531819878e-01    -8.895108668508801e-01   -8.757607746747473e-06   1.246582491858637e-04    1.409405579607444e-04    7.187604800027253e-05    4.640185866608589e-01    -8.661242261707525e-01   
