! TOUCHSTONE file generated by CST MICROWAVE STUDIO
! Date and time: Mon Jan 20 16:13:11 2025
! Project name: unitcell.cst
! Parameters = {A=1.28774; AB_sqInv=0.602802; B=0.025494; C0=2.097; Cj=0.260654; Cp=0.075; Ct=0.335198; ImZ=-47.4809; L=10; L1=0.3; Lp=0.35; Lpad=0.75; M=1.199; R=5.41; ReZ=3.26116; Rt=3.26116; V=14; Vj=2.984; W=10; W1=-0.15; W2=-0.15; Wcoop=3.29; Wgap=1; Wline=1.42; Wpad=0.475; Wpadgap=0.35; Xpad1=1.6225; Xpad2=0.7975; Xpad3=1.6225; Xpad4=0.7975; Xvar_centre=1.21; f=0.01; f0=11; fmax=11.25; fmin=10.75; h=0.8; phi=0; th=0.035; theta=0}
! Header version: 2024
! Port assignment regex: !\s*Touchstone port\s*([0-9]+)\s*=\s*(CST MWS port|CST DES external port|CST DES block port)\s*(.+)\s* \(\"(.*)\"\)(\s*mode\s*([0-9]+))?.*
! Touchstone port assignment:
! Touchstone port 1 = CST MWS port Zmax ("") mode 1
! S-Parameters are not renormalized. Unphysical impedance of 0 will be written to the file.
# GHz S RI R 0
6                     0.64069909    0.0615467208
6.011                0.621761561    0.0277210204
6.022                0.599912351  -0.00590552359
6.033                0.575020648   -0.0390359448
6.044                0.546987245   -0.0713359299
6.055                0.515753535    -0.102436436
6.066                 0.48131073    -0.131938481
6.077                0.443708754    -0.159420376
6.088                0.403064131    -0.184447507
6.099                0.359566108    -0.206584601
6.11                  0.31348019    -0.225410141
6.121                0.265148356    -0.240532311
6.132                 0.21498535    -0.251605596
6.143                0.163470756    -0.258346915
6.154                0.111136885    -0.260550039
6.165               0.0585529694    -0.258097066
6.176              0.00630652123    -0.250965869
6.187              -0.0450169008    -0.239232765
6.198              -0.0948540909    -0.223070077
6.209               -0.142683282    -0.202738746
6.22                 -0.18804058    -0.178576628
6.231               -0.230532713    -0.150983492
6.242               -0.269845451    -0.120403955
6.253               -0.305747514   -0.0873097051
6.264               -0.338090187   -0.0521822434
6.275               -0.366803212    -0.015497185
6.286                -0.39188773    0.0222891202
6.297               -0.413407173    0.0607502157
6.308               -0.431476987    0.0994972664
6.319                -0.44625398     0.138183991
6.33                -0.457925939     0.176509078
6.341               -0.466702015      0.21421648
6.352               -0.472804179     0.251094031
6.363               -0.476459933     0.286970821
6.374               -0.477896323     0.321713746
6.385               -0.477335207     0.355223566
6.396               -0.474989692      0.38743077
6.407               -0.471061585     0.418291464
6.418               -0.465739722     0.447783428
6.429               -0.459199006     0.475902457
6.44                -0.451600023     0.502659045
6.451               -0.443089095     0.528075437
6.462               -0.433798656      0.55218306
6.473               -0.423847868     0.575020314
6.484               -0.413343382     0.596630695
6.495                 -0.4023802     0.617061236
6.506                -0.39104258     0.636361212
6.517               -0.379404944     0.654581087
6.528               -0.367532779     0.671771675
6.539                 -0.3554835     0.687983466
6.55                 -0.34330726     0.703266111
6.561               -0.331047713     0.717668029
6.572               -0.318742718     0.731236114
6.583                -0.30642498     0.744015526
6.594               -0.294122638     0.756049558
6.605               -0.281859792     0.767379549
6.616               -0.269656981     0.778044847
6.627               -0.257531611       0.7880828
6.638               -0.245498336      0.79752878
6.649               -0.233569395     0.806416223
6.66                 -0.22175492     0.814776685
6.671               -0.210063199     0.822639908
6.682               -0.198500911     0.830033895
6.693               -0.187073341     0.836984988
6.704               -0.175784561     0.843517949
6.715                -0.16463759     0.849656039
6.726               -0.153634541     0.855421104
6.737               -0.142776742     0.860833651
6.748               -0.132064853     0.865912928
6.759               -0.121498953     0.870676996
6.77                -0.111078633     0.875142805
6.781               -0.100803064     0.879326258
6.792              -0.0906710652     0.883242281
6.803              -0.0806811601     0.886904882
6.814              -0.0708316239     0.890327208
6.825              -0.0611205279     0.893521604
6.836              -0.0515457768     0.896499664
6.847              -0.0421051406     0.899272276
6.858              -0.0327962833     0.901849672
6.869              -0.0236167873     0.904241469
6.88               -0.0145641744     0.906456707
6.891             -0.00563592405      0.90850389
6.902              0.00317051096     0.910391018
6.913               0.0118576908     0.912125622
6.924               0.0204281773     0.913714792
6.935               0.0288845239     0.915165205
6.946               0.0372292674     0.916483156
6.957               0.0454649208     0.917674575
6.968               0.0535939677     0.918745059
6.979               0.0616188569     0.919699884
6.99                0.0695419985     0.920544035
7.001               0.0773657607     0.921282213
7.012                0.085092467     0.921918865
7.023               0.0927243943     0.922458189
7.034                0.100263771     0.922904156
7.045                0.107712776     0.923260522
7.056                0.115073537      0.92353084
7.067                0.122348133     0.923718475
7.078                 0.12953859     0.923826612
7.089                0.136646883     0.923858269
7.1                  0.143674937     0.923816308
7.111                0.150624627     0.923703442
7.122                0.157497775     0.923522242
7.133                0.164296158     0.923275151
7.144                  0.1710215     0.922964487
7.155                0.177675482     0.922592452
7.166                0.184259733     0.922161137
7.177                0.190775839      0.92167253
7.188                0.197225341     0.921128521
7.199                0.203609736     0.920530908
7.21                 0.209930476     0.919881402
7.221                0.216188973     0.919181631
7.232                0.222386598     0.918433146
7.243                0.228524681     0.917637424
7.254                0.234604516     0.916795872
7.265                0.240627355     0.915909832
7.276                0.246594417     0.914980583
7.287                0.252506884     0.914009346
7.298                0.258365903     0.912997286
7.309                0.264172588     0.911945513
7.32                  0.26992802      0.91085509
7.331                0.275633248      0.90972703
7.342                0.281289292     0.908562302
7.353                 0.28689714     0.907361832
7.364                0.292457751     0.906126504
7.375                0.297972058     0.904857166
7.386                0.303440966     0.903554626
7.397                0.308865353     0.902219661
7.408                0.314246071     0.900853011
7.419                0.319583948     0.899455387
7.43                 0.324879788     0.898027469
7.441                0.330134373     0.896569909
7.452                0.335348459      0.89508333
7.463                0.340522783     0.893568332
7.474                 0.34565806     0.892025488
7.485                0.350754984     0.890455348
7.496                0.355814231     0.888858441
7.507                0.360836455     0.887235272
7.518                0.365822292     0.885586327
7.529                0.370772361     0.883912074
7.54                 0.375687264     0.882212959
7.551                0.380567583     0.880489413
7.562                0.385413886     0.878741849
7.573                0.390226724     0.876970664
7.584                0.395006633      0.87517624
7.595                0.399754134     0.873358942
7.606                0.404469733     0.871519123
7.617                0.409153922     0.869657123
7.628                0.413807179     0.867773266
7.639                0.418429969     0.865867866
7.65                 0.423022744     0.863941225
7.661                0.427585943     0.861993632
7.672                0.432119994     0.860025366
7.683                0.436625313     0.858036696
7.694                0.441102303      0.85602788
7.705                0.445551357     0.853999168
7.716                0.449972858     0.851950798
7.727                0.454367177     0.849883001
7.738                0.458734676     0.847795999
7.749                0.463075706     0.845690006
7.76                  0.46739061     0.843565227
7.771                 0.47167972     0.841421862
7.782                 0.47594336     0.839260101
7.793                0.480181845     0.837080127
7.804                0.484395481     0.834882118
7.815                0.488584567     0.832666246
7.826                0.492749391     0.830432673
7.837                0.496890237     0.828181558
7.848                0.501007378     0.825913055
7.859                0.505101082     0.823627309
7.87                 0.509171609     0.821324463
7.881                0.513219211     0.819004652
7.892                0.517244134     0.816668007
7.903                0.521246618     0.814314656
7.914                0.525226896     0.811944719
7.925                0.529185193     0.809558314
7.936                0.533121731     0.807155553
7.947                0.537036724     0.804736544
7.958                 0.54093038     0.802301393
7.969                0.544802903     0.799850198
7.98                 0.548654489     0.797383058
7.991                0.552485331     0.794900063
8.002                0.556295616     0.792401304
8.013                0.560085525     0.789886865
8.024                0.563855234      0.78735683
8.035                0.567604917     0.784811276
8.046                0.571334739      0.78225028
8.057                0.575044863     0.779673913
8.068                0.578735448     0.777082246
8.079                0.582406646     0.774475344
8.09                 0.586058608     0.771853271
8.101                0.589691477     0.769216088
8.112                0.593305394     0.766563854
8.123                0.596900498     0.763896622
8.134                 0.60047692     0.761214447
8.145                 0.60403479     0.758517378
8.156                0.607574233     0.755805463
8.167                0.611095371     0.753078748
8.178                0.614598323     0.750337275
8.189                0.618083202     0.747581086
8.2                   0.62155012     0.744810218
8.211                0.624999186     0.742024707
8.222                0.628430502     0.739224589
8.233                0.631844172     0.736409894
8.244                0.635240293     0.733580653
8.255                 0.63861896     0.730736892
8.266                0.641980266     0.727878639
8.277                0.645324299     0.725005916
8.288                0.648651146     0.722118746
8.299                0.651960891     0.719217147
8.31                 0.655253613     0.716301139
8.321                0.658529391     0.713370737
8.332                0.661788299     0.710425956
8.343                0.665030411     0.707466807
8.354                0.668255795     0.704493302
8.365                 0.67146452     0.701505449
8.376                 0.67465665     0.698503255
8.387                0.677832248     0.695486726
8.398                0.680991372     0.692455865
8.409                0.684134081     0.689410674
8.42                 0.687260429     0.686351153
8.431                 0.69037047       0.6832773
8.442                0.693464253     0.680189113
8.453                0.696541827     0.677086586
8.464                0.699603238     0.673969712
8.475                0.702648528     0.670838484
8.486                 0.70567774     0.667692892
8.497                0.708690913     0.664532923
8.508                0.711688084     0.661358565
8.519                0.714669288     0.658169803
8.53                 0.717634557      0.65496662
8.541                0.720583923     0.651748998
8.552                0.723517414     0.648516916
8.563                0.726435057     0.645270355
8.574                0.729336877     0.642009289
8.585                0.732222896     0.638733696
8.596                0.735093134     0.635443547
8.607                0.737947611     0.632138814
8.618                0.740786344     0.628819469
8.629                0.743609345     0.625485478
8.64                 0.746416629      0.62213681
8.651                0.749208207     0.618773428
8.662                0.751984086     0.615395296
8.673                0.754744274     0.612002375
8.684                0.757488775     0.608594626
8.695                0.760217593     0.605172005
8.706                0.762930729      0.60173447
8.717                0.765628181     0.598281974
8.728                0.768309947     0.594814469
8.739                0.770976021     0.591331908
8.75                 0.773626398     0.587834237
8.761                0.776261068     0.584321404
8.772                0.778880021     0.580793354
8.783                0.781483243      0.57725003
8.794                0.784070721     0.573691373
8.805                0.786642436     0.570117321
8.816                0.789198372     0.566527813
8.827                0.791738507     0.562922781
8.838                0.794262817      0.55930216
8.849                0.796771279      0.55566588
8.86                 0.799263866      0.55201387
8.871                0.801740548     0.548346056
8.882                0.804201294     0.544662361
8.893                0.806646071     0.540962708
8.904                0.809074843     0.537247017
8.915                0.811487573     0.533515204
8.926                0.813884221     0.529767185
8.937                0.816264745     0.526002871
8.948                  0.8186291     0.522222174
8.959                 0.82097724     0.518424999
8.97                 0.823309115     0.514611253
8.981                0.825624674     0.510780837
8.992                0.827923863      0.50693365
9.003                0.830206625     0.503069591
9.014                0.832472902     0.499188553
9.025                0.834722632     0.495290427
9.036                 0.83695575     0.491375102
9.047                0.839172191     0.487442463
9.058                0.841371884     0.483492394
9.069                0.843554757     0.479524772
9.08                 0.845720734     0.475539476
9.091                0.847869738     0.471536378
9.102                0.850001688     0.467515347
9.113                  0.8521165     0.463476252
9.124                0.854214085     0.459418954
9.135                0.856294354     0.455343314
9.146                0.858357214     0.451249188
9.157                0.860402566     0.447136428
9.168                0.862430312     0.443004884
9.179                0.864440346     0.438854401
9.19                 0.866432561     0.434684819
9.201                0.868406846     0.430495978
9.212                0.870363086     0.426287708
9.223                0.872301162     0.422059841
9.234                0.874220951       0.4178122
9.245                0.876122326     0.413544607
9.256                0.878005155     0.409256877
9.267                0.879869303     0.404948822
9.278                0.881714629     0.400620249
9.289                 0.88354099      0.39627096
9.3                  0.885348234     0.391900753
9.311                0.887136209     0.387509419
9.322                0.888904754     0.383096747
9.333                0.890653704     0.378662518
9.344                0.892382889     0.374206509
9.355                0.894092134      0.36972849
9.366                0.895781258     0.365228228
9.377                0.897450072     0.360705481
9.388                0.899098384     0.356160004
9.399                0.900725994     0.351591545
9.41                 0.902332695     0.346999845
9.421                0.903918274     0.342384638
9.432                0.905482513     0.337745654
9.443                0.907025182     0.333082615
9.454                0.908546049     0.328395235
9.465                 0.91004487     0.323683222
9.476                0.911521394     0.318946278
9.487                0.912975365     0.314184095
9.498                0.914406514     0.309396358
9.509                0.915814565     0.304582747
9.52                 0.917199233      0.29974293
9.531                0.918560223     0.294876569
9.542                0.919897231     0.289983317
9.553                0.921209942      0.28506282
9.564                0.922498029     0.280114711
9.575                0.923761157     0.275138619
9.586                0.924998978      0.27013416
9.597                 0.92621113     0.265100941
9.608                0.927397243      0.26003856
9.619                 0.92855693     0.254946605
9.63                 0.929689793     0.249824653
9.641                 0.93079542      0.24467227
9.652                0.931873384     0.239489013
9.663                0.932923242     0.234274424
9.674                0.933944537     0.229028036
9.685                0.934936795     0.223749372
9.696                0.935899526     0.218437939
9.707                0.936832221     0.213093234
9.718                0.937734353     0.207714739
9.729                0.938605376     0.202301926
9.74                 0.939444725     0.196854252
9.751                0.940251812     0.191371158
9.762                 0.94102603     0.185852074
9.773                0.941766748     0.180296414
9.784                 0.94247331     0.174703577
9.795                0.943145038     0.169072947
9.806                0.943781227     0.163403893
9.817                0.944381146     0.157695765
9.828                0.944944033       0.1519479
9.839                0.945469102     0.146159616
9.85                 0.945955531     0.140330213
9.861                0.946402469     0.134458976
9.872                0.946809031     0.128545169
9.883                0.947174297     0.122588038
9.894                0.947497311      0.11658681
9.905                0.947777076     0.110540694
9.916                0.948012558     0.104448875
9.927                0.948202679    0.0983105225
9.938                0.948346318    0.0921247808
9.949                0.948442308    0.0858907751
9.96                 0.948489432     0.079607608
9.971                0.948486423    0.0732743599
9.982                0.948431962    0.0668900886
9.993                0.948324673    0.0604538286
10.004               0.948163121    0.0539645908
10.015                0.94794581    0.0474213622
10.026               0.947671179    0.0408231054
10.037               0.947337601    0.0341687584
10.048               0.946943373    0.0274572338
10.059               0.946486722    0.0206874192
10.07                0.945965794    0.0138581765
10.081               0.945378651   0.00696834173
10.092               0.944723268  1.67249038e-05
10.103               0.943997529  -0.00699788998
10.114               0.943199221   -0.0140767451
10.125               0.942326029   -0.0212211087
10.136               0.941375529   -0.0284322749
10.147               0.940345185   -0.0357115637
10.158               0.939232342   -0.0430603203
10.169               0.938034219   -0.0504799149
10.18                0.936747899   -0.0579717418
10.191               0.935370329   -0.0655372188
10.202               0.933898307    -0.073177786
10.213               0.932328471    -0.080894905
10.224                 0.9306573   -0.0886900569
10.235               0.928881092   -0.0965647408
10.246               0.926995966    -0.104520472
10.257               0.924997843    -0.112558779
10.268               0.922882439    -0.120681201
