! TOUCHSTONE file generated by CST MICROWAVE STUDIO
! Date and time: Mon Jan 20 16:13:09 2025
! Project name: unitcell.cst
! Parameters = {A=1.17063; AB_sqInv=0.729384; B=0.025494; C0=2.097; Cj=0.439552; Cp=0.075; Ct=0.513126; ImZ=-31.0167; L=10; L1=0.3; Lp=0.35; Lpad=0.75; M=1.199; R=5.41; ReZ=3.94597; Rt=3.94597; V=8; Vj=2.984; W=10; W1=-0.15; W2=-0.15; Wcoop=3.29; Wgap=1; Wline=1.42; Wpad=0.475; Wpadgap=0.35; Xpad1=1.6225; Xpad2=0.7975; Xpad3=1.6225; Xpad4=0.7975; Xvar_centre=1.21; f=0.01; f0=11; fmax=11.25; fmin=10.75; h=0.8; phi=0; th=0.035; theta=0}
! Header version: 2024
! Port assignment regex: !\s*Touchstone port\s*([0-9]+)\s*=\s*(CST MWS port|CST DES external port|CST DES block port)\s*(.+)\s* \(\"(.*)\"\)(\s*mode\s*([0-9]+))?.*
! Touchstone port assignment:
! Touchstone port 1 = CST MWS port Zmax ("") mode 1
! S-Parameters are not renormalized. Unphysical impedance of 0 will be written to the file.
# GHz S RI R 0
6                  -0.0381394384     0.926076264
6.011              -0.0326324106     0.927805388
6.022              -0.0271358384     0.929443577
6.033              -0.0216514472     0.930993332
6.044              -0.0161808145     0.932457118
6.055              -0.0107253785     0.933837359
6.066             -0.00528644581     0.935136435
6.077             0.000134800199     0.936356678
6.088              0.00553729238      0.93750037
6.099               0.0109200723      0.93856974
6.11                0.0162822831     0.939566964
6.121               0.0216231635      0.94049416
6.132               0.0269420405     0.941353391
6.143                0.032238324     0.942146663
6.154               0.0375115009     0.942875922
6.165               0.0427611295      0.94354306
6.176               0.0479868345     0.944149908
6.187               0.0531883017     0.944698241
6.198                0.058365274     0.945189778
6.209               0.0635175466      0.94562618
6.22                0.0686449631     0.946009054
6.231               0.0737474114     0.946339954
6.242               0.0788248204     0.946620377
6.253               0.0838771564      0.94685177
6.264               0.0889044198     0.947035529
6.275               0.0939066425     0.947172999
6.286               0.0988838847     0.947265477
6.297                0.103836233     0.947314212
6.308                0.108763796     0.947320408
6.319                0.113666706     0.947285222
6.33                 0.118545113      0.94720977
6.341                0.123399182     0.947095123
6.352                0.128229098     0.946942314
6.363                0.133035056     0.946752334
6.374                0.137817265     0.946526137
6.385                0.142575942      0.94626464
6.396                0.147311317     0.945968723
6.407                0.152023625     0.945639233
6.418                 0.15671311     0.945276982
6.429                 0.16138002     0.944882751
6.44                  0.16602461      0.94445729
6.451                0.170647137     0.944001319
6.462                0.175247861     0.943515528
6.473                0.179827048     0.943000581
6.484                 0.18438496     0.942457115
6.495                0.188921865     0.941885739
6.506                0.193438028      0.94128704
6.517                0.197933718     0.940661581
6.528                0.202409198       0.9400099
6.539                0.206864736     0.939332516
6.55                 0.211300593     0.938629923
6.561                0.215717032     0.937902599
6.572                0.220114313        0.937151
6.583                0.224492694     0.936375563
6.594                0.228852429     0.935576708
6.605                 0.23319377     0.934754837
6.616                0.237516967     0.933910336
6.627                0.241822264     0.933043575
6.638                0.246109905     0.932154908
6.649                0.250380128     0.931244674
6.66                 0.254633168       0.9303132
6.671                0.258869257     0.929360796
6.682                0.263088622     0.928387763
6.693                0.267291486     0.927394386
6.704                0.271478069     0.926380941
6.715                0.275648586     0.925347689
6.726                0.279803249     0.924294883
6.737                0.283942264     0.923222764
6.748                0.288065835     0.922131564
6.759                 0.29217416     0.921021503
6.77                 0.296267433     0.919892794
6.781                0.300345846     0.918745639
6.792                0.304409583     0.917580233
6.803                0.308458829     0.916396762
6.814                0.312493759     0.915195404
6.825                0.316514548      0.91397633
6.836                0.320521366     0.912739702
6.847                0.324514377     0.911485676
6.858                0.328493745     0.910214402
6.869                0.332459626     0.908926024
6.88                 0.336412173     0.907620676
6.891                0.340351538      0.90629849
6.902                0.344277865     0.904959592
6.913                0.348191297     0.903604099
6.924                0.352091971     0.902232127
6.935                0.355980024     0.900843784
6.946                0.359855585     0.899439174
6.957                0.363718782     0.898018398
6.968                0.367569738     0.896581549
6.979                0.371408576     0.895128719
6.99                  0.37523541     0.893659993
7.001                0.379050355     0.892175455
7.012                0.382853521     0.890675183
7.023                0.386645014     0.889159251
7.034                 0.39042494     0.887627732
7.045                0.394193397     0.886080693
7.056                0.397950484     0.884518199
7.067                0.401696296     0.882940311
7.078                0.405430923     0.881347088
7.089                0.409154454     0.879738586
7.1                  0.412866975     0.878114857
7.111                0.416568568     0.876475951
7.122                0.420259315     0.874821916
7.133                0.423939291     0.873152797
7.144                0.427608571     0.871468637
7.155                0.431267229     0.869769475
7.166                0.434915332      0.86805535
7.177                0.438552949     0.866326297
7.188                0.442180143     0.864582351
7.199                0.445796977     0.862823543
7.21                  0.44940351     0.861049903
7.221                0.452999799     0.859261459
7.232                  0.4565859     0.857458238
7.243                0.460161866     0.855640263
7.254                0.463727746     0.853807557
7.265                0.467283591     0.851960143
7.276                0.470829445     0.850098038
7.287                0.474365353     0.848221262
7.298                0.477891358     0.846329831
7.309                  0.4814075     0.844423761
7.32                 0.484913817     0.842503065
7.331                0.488410346     0.840567755
7.342                0.491897121     0.838617844
7.353                0.495374174      0.83665334
7.364                0.498841538     0.834674254
7.375                 0.50229924     0.832680592
7.386                0.505747309     0.830672361
7.397                 0.50918577     0.828649567
7.408                0.512614648     0.826612214
7.419                0.516033964     0.824560304
7.43                  0.51944374     0.822493841
7.441                0.522843994     0.820412826
7.452                0.526234745     0.818317259
7.463                0.529616009     0.816207139
7.474                  0.5329878     0.814082465
7.485                0.536350132     0.811943234
7.496                0.539703017     0.809789443
7.507                0.543046465     0.807621088
7.518                0.546380485     0.805438164
7.529                0.549705085     0.803240665
7.54                 0.553020271     0.801028584
7.551                0.556326049     0.798801914
7.562                0.559622422     0.796560647
7.573                0.562909392     0.794304772
7.584                0.566186961     0.792034282
7.595                 0.56945513     0.789749165
7.606                0.572713896      0.78744941
7.617                0.575963258     0.785135004
7.628                0.579203212     0.782805935
7.639                0.582433754      0.78046219
7.65                 0.585654877     0.778103755
7.661                0.588866575     0.775730614
7.672                 0.59206884     0.773342751
7.683                0.595261663     0.770940152
7.694                0.598445034     0.768522798
7.705                0.601618941     0.766090671
7.716                0.604783373     0.763643755
7.727                0.607938316     0.761182028
7.738                0.611083755     0.758705473
7.749                0.614219677     0.756214067
7.76                 0.617346064      0.75370779
7.771                0.620462899     0.751186621
7.782                0.623570165     0.748650536
7.793                0.626667841     0.746099513
7.804                0.629755908     0.743533527
7.815                0.632834346     0.740952554
7.826                0.635903131     0.738356568
7.837                0.638962241     0.735745544
7.848                0.642011653     0.733119454
7.859                0.645051342     0.730478272
7.87                 0.648081281     0.727821968
7.881                0.651101446     0.725150514
7.892                0.654111807     0.722463881
7.903                0.657112338     0.719762037
7.914                0.660103008     0.717044951
7.925                0.663083788     0.714312592
7.936                0.666054646     0.711564926
7.947                0.669015552     0.708801921
7.958                0.671966472     0.706023541
7.969                0.674907374     0.703229751
7.98                 0.677838221     0.700420516
7.991                 0.68075898     0.697595799
8.002                0.683669613     0.694755561
8.013                0.686570085     0.691899764
8.024                0.689460356      0.68902837
8.035                0.692340389     0.686141336
8.046                0.695210143     0.683238623
8.057                0.698069578     0.680320188
8.068                0.700918653     0.677385988
8.079                0.703757325     0.674435978
8.09                 0.706585551     0.671470115
8.101                0.709403287     0.668488351
8.112                0.712210487      0.66549064
8.123                0.715007107     0.662476933
8.134                0.717793098     0.659447182
8.145                0.720568413     0.656401337
8.156                0.723333003     0.653339345
8.167                0.726086819     0.650261156
8.178                 0.72882981     0.647166714
8.189                0.731561923     0.644055967
8.2                  0.734283108     0.640928857
8.211                0.736993309     0.637785328
8.222                0.739692472     0.634625322
8.233                0.742380542     0.631448779
8.244                0.745057461     0.628255639
8.255                0.747723173     0.625045839
8.266                0.750377617     0.621819316
8.277                0.753020735     0.618576006
8.288                0.755652465     0.615315842
8.299                0.758272744     0.612038758
8.31                 0.760881511     0.608744683
8.321                0.763478699     0.605433548
8.332                0.766064244     0.602105282
8.343                0.768638078      0.59875981
8.354                0.771200134     0.595397057
8.365                0.773750342     0.592016948
8.376                0.776288631     0.588619404
8.387                0.778814929     0.585204346
8.398                0.781329164     0.581771691
8.409                 0.78383126     0.578321357
8.42                 0.786321142     0.574853259
8.431                0.788798731     0.571367309
8.442                0.791263949      0.56786342
8.453                0.793716716     0.564341501
8.464                0.796156949      0.56080146
8.475                0.798584565     0.557243202
8.486                 0.80099948      0.55366663
8.497                0.803401605     0.550071647
8.508                0.805790853     0.546458152
8.519                0.808167133     0.542826043
8.53                 0.810530354     0.539175213
8.541                0.812880421     0.535505557
8.552                 0.81521724     0.531816965
8.563                0.817540712     0.528109325
8.574                0.819850739     0.524382524
8.585                0.822147218     0.520636444
8.596                0.824430047     0.516870967
8.607                0.826699119     0.513085971
8.618                0.828954327     0.509281332
8.629                0.831195561     0.505456923
8.64                 0.833422708     0.501612615
8.651                0.835635654     0.497748275
8.662                0.837834281     0.493863769
8.673                 0.84001847     0.489958957
8.684                0.842188099     0.486033699
8.695                0.844343043     0.482087852
8.706                0.846483174     0.478121267
8.717                0.848608362     0.474133794
8.728                0.850718473      0.47012528
8.739                0.852813372     0.466095568
8.75                  0.85489292     0.462044497
8.761                0.856956972     0.457971904
8.772                0.859005385      0.45387762
8.783                0.861038009     0.449761476
8.794                0.863054692     0.445623295
8.805                0.865055277     0.441462901
8.816                0.867039605     0.437280109
8.827                0.869007513     0.433074734
8.838                0.870958832     0.428846586
8.849                0.872893392     0.424595468
8.86                 0.874811017     0.420321183
8.871                0.876711528     0.416023527
8.882                0.878594739     0.411702292
8.893                0.880460463     0.407357266
8.904                0.882308506     0.402988232
8.915                0.884138669     0.398594968
8.926                0.885950748     0.394177246
8.937                0.887744536     0.389734836
8.948                0.889519819       0.3852675
8.959                0.891276376     0.380774997
8.97                 0.893013983     0.376257078
8.981                0.894732408     0.371713491
8.992                0.896431414     0.367143977
9.003                0.898110758     0.362548271
9.014                0.899770189     0.357926104
9.025                 0.90140945     0.353277198
9.036                0.903028277     0.348601273
9.047                  0.9046264     0.343898037
9.058                0.906203539     0.339167198
9.069                0.907759407     0.334408451
9.08                 0.909293711     0.329621489
9.091                0.910806147     0.324805997
9.102                0.912296403     0.319961651
9.113                 0.91376416     0.315088121
9.124                0.915209087      0.31018507
9.135                0.916630845     0.305252154
9.146                0.918029085     0.300289018
9.157                0.919403447     0.295295303
9.168                0.920753561      0.29027064
9.179                0.922079045     0.285214651
9.19                 0.923379506      0.28012695
9.201                 0.92465454     0.275007143
9.212                0.925903729     0.269854827
9.223                0.927126643     0.264669589
9.234                0.928322838     0.259451006
9.245                0.929491858     0.254198648
9.256                 0.93063323     0.248912073
9.267                0.931746468      0.24359083
9.278                 0.93283107     0.238234456
9.289                0.933886518     0.232842481
9.3                  0.934912276     0.227414421
9.311                0.935907792     0.221949782
9.322                0.936872495      0.21644806
9.333                0.937805796     0.210908738
9.344                0.938707087     0.205331288
9.355                0.939575737     0.199715171
9.366                0.940411097     0.194059834
9.377                0.941212493     0.188364712
9.388                0.941979231     0.182629229
9.399                0.942710591     0.176852793
9.41                 0.943405828     0.171034803
9.421                0.944064173     0.165174639
9.432                0.944684828     0.159271672
9.443                0.945266969     0.153325257
9.454                 0.94580974     0.147334735
9.465                0.946312256     0.141299432
9.476                0.946773601      0.13521866
9.487                0.947192824     0.129091715
9.498                0.947568941     0.122917878
9.509                 0.94790093     0.116696414
9.52                 0.948187732     0.110426575
9.531                 0.94842825     0.104107592
9.542                0.948621345    0.0977386843
9.553                0.948765833     0.091319052
9.564                0.948860489    0.0848478795
9.575                0.948904038    0.0783243342
9.586                0.948895158    0.0717475666
9.597                0.948832475    0.0651167097
9.608                0.948714561    0.0584308796
9.619                0.948539933    0.0516891747
9.63                 0.948307049    0.0448906761
9.641                0.948014306    0.0380344476
9.652                0.947660036    0.0311195351
9.663                0.947242507    0.0241449676
9.674                0.946759914    0.0171097564
9.685                0.946210378    0.0100128959
9.696                0.945591946   0.00285336335
9.707                0.944902582  -0.00436988037
9.718                0.944140167   -0.0116578908
9.729                0.943302492   -0.0190117394
9.74                 0.942387256   -0.0264325128
9.751                0.941392061   -0.0339213122
9.762                0.940314408   -0.0414792529
9.773                0.939151689   -0.0491074631
9.784                0.937901185   -0.0568070828
9.795                0.936560058   -0.0645792631
9.806                0.935125349   -0.0724251643
9.817                0.933593967   -0.0803459546
9.828                0.931962685   -0.0883428083
9.839                0.930228134   -0.0964169039
9.85                 0.928386795    -0.104569421
9.861                0.926434991    -0.112801541
9.872                0.924368878    -0.121114437
9.883                0.922184439     -0.12950928
9.894                0.919877476    -0.137987229
9.905                0.917443596    -0.146549427
9.916                0.914878204       -0.155197
9.927                0.912176496    -0.163931049
9.938                0.909333442    -0.172752646
9.949                0.906343778    -0.181662827
9.96                 0.903201995    -0.190662585
9.971                0.899902322    -0.199752863
9.982                 0.89643872    -0.208934545
9.993                0.892804859    -0.218208446
10.004               0.888994114    -0.227575304
10.015               0.884999538    -0.237035764
10.026               0.880813857    -0.246590368
10.037               0.876429446    -0.256239543
10.048               0.871838315     -0.26598358
10.059                0.86703209    -0.275822619
10.07                0.862001993    -0.285756633
10.081               0.856738823      -0.2957854
10.092               0.851232939    -0.305908486
10.103               0.845474233    -0.316125215
10.114               0.839452113    -0.326434642
10.125               0.833155477    -0.336835524
10.136               0.826572694    -0.347326278
10.147               0.819691578    -0.357904951
10.158               0.812499367    -0.368569175
10.169               0.804982694    -0.379316117
10.18                0.797127571    -0.390142434
10.191               0.788919358    -0.401044213
10.202               0.780342747    -0.412016911
10.213               0.771381734    -0.423055289
10.224               0.762019601    -0.434153332
10.235               0.752238899    -0.445304178
10.246               0.742021428     -0.45650002
10.257               0.731348224    -0.467732013
10.268               0.720199552    -0.478990167
